!Created with skrf (http://scikit-rf.org).
# Hz S RI R 50.0 
!freq ReS11 ImS11 ReS21 ImS21 ReS12 ImS12 ReS22 ImS22
1000000000.0 0.312103271484375 0.809661865234375 -0.040889739990234375 0.033214569091796875 -0.04084205627441406 0.03308296203613281 0.7882080078125 -0.465606689453125
1100000000.0 0.499725341796875 0.707275390625 -0.027690887451171875 0.03824806213378906 -0.02767181396484375 0.038196563720703125 0.56304931640625 -0.731048583984375
1200000000.0 0.652740478515625 0.566619873046875 -0.015644073486328125 0.040073394775390625 -0.015626907348632812 0.04007148742675781 0.259857177734375 -0.89129638671875
1300000000.0 0.766082763671875 0.39825439453125 -0.0048084259033203125 0.039363861083984375 -0.004810333251953125 0.03938102722167969 -0.07794189453125 -0.92755126953125
1400000000.0 0.836181640625 0.211456298828125 0.004589080810546875 0.03660392761230469 0.0045642852783203125 0.03662109375 -0.40185546875 -0.838775634765625
1500000000.0 0.862030029296875 0.016357421875 0.012500762939453125 0.03235054016113281 0.01255035400390625 0.03232765197753906 -0.671600341796875 -0.637176513671875
1600000000.0 0.843719482421875 -0.177520751953125 0.01896190643310547 0.026851654052734375 0.018957138061523438 0.026819229125976562 -0.848785400390625 -0.3543701171875
1700000000.0 0.78363037109375 -0.360992431640625 0.02369213104248047 0.020455360412597656 0.023712158203125 0.02044963836669922 -0.910797119140625 -0.02789306640625
1800000000.0 0.685028076171875 -0.5255126953125 0.026746749877929688 0.013628959655761719 0.026781082153320312 0.013600349426269531 -0.848480224609375 0.297698974609375
1900000000.0 0.553924560546875 -0.66375732421875 0.028227806091308594 0.0065822601318359375 0.02823638916015625 0.006543159484863281 -0.670318603515625 0.5755615234375
2000000000.0 0.397552490234375 -0.769561767578125 0.028150558471679688 -0.0004062652587890625 0.028089523315429688 -0.0004892349243164062 -0.403472900390625 0.765777587890625
2100000000.0 0.220916748046875 -0.83837890625 0.026488304138183594 -0.007010459899902344 0.02647686004638672 -0.007050514221191406 -0.087493896484375 0.841949462890625
2200000000.0 0.035247802734375 -0.867767333984375 0.023487091064453125 -0.012980461120605469 0.023461341857910156 -0.013027191162109375 0.2320556640625 0.793914794921875
2300000000.0 -0.151885986328125 -0.856597900390625 0.01925373077392578 -0.018039703369140625 0.01918506622314453 -0.018030166625976562 0.50787353515625 0.63092041015625
2400000000.0 -0.3319091796875 -0.805816650390625 0.014046669006347656 -0.021872520446777344 0.014048576354980469 -0.02186107635498047 0.6983642578125 0.375885009765625
2500000000.0 -0.49652099609375 -0.718414306640625 0.008030891418457031 -0.02438068389892578 0.008081436157226562 -0.024372100830078125 0.7750244140625 0.069976806640625
2600000000.0 -0.638458251953125 -0.598052978515625 0.001697540283203125 -0.025335311889648438 0.0016756057739257812 -0.02530384063720703 0.728424072265625 -0.23876953125
2700000000.0 -0.75152587890625 -0.450897216796875 -0.004687309265136719 -0.02469921112060547 -0.004650115966796875 -0.0247039794921875 0.568603515625 -0.503204345703125
2800000000.0 -0.831207275390625 -0.283843994140625 -0.010594367980957031 -0.02259063720703125 -0.0105743408203125 -0.02259349822998047 0.321014404296875 -0.68438720703125
2900000000.0 -0.873504638671875 -0.10321044921875 -0.015786170959472656 -0.019117355346679688 -0.015775680541992188 -0.01914691925048828 0.02532958984375 -0.755706787109375
3000000000.0 -0.877197265625 0.0810546875 -0.02001476287841797 -0.014551162719726562 -0.01997852325439453 -0.014542579650878906 -0.272674560546875 -0.708587646484375
3100000000.0 -0.842681884765625 0.261932373046875 -0.022962570190429688 -0.009052276611328125 -0.022958755493164062 -0.009044647216796875 -0.5281982421875 -0.554168701171875
3200000000.0 -0.77166748046875 0.430877685546875 -0.02449512481689453 -0.0029850006103515625 -0.024506568908691406 -0.0029926300048828125 -0.70684814453125 -0.3160400390625
3300000000.0 -0.6673583984375 0.5809326171875 -0.024552345275878906 0.0032548904418945312 -0.024558067321777344 0.0032682418823242188 -0.78399658203125 -0.029815673828125
3400000000.0 -0.534820556640625 0.7059326171875 -0.02307891845703125 0.009393692016601562 -0.023047447204589844 0.009427070617675781 -0.749847412109375 0.26336669921875
3500000000.0 -0.38006591796875 0.800994873046875 -0.020109176635742188 0.015013694763183594 -0.020036697387695312 0.015033721923828125 -0.610595703125 0.52301025390625
3600000000.0 -0.2095947265625 0.86236572265625 -0.015809059143066406 0.01981639862060547 -0.01574420928955078 0.01981353759765625 -0.387237548828125 0.7132568359375
3700000000.0 -0.030303955078125 0.88751220703125 -0.01039886474609375 0.023456573486328125 -0.010293006896972656 0.023454666137695312 -0.111236572265625 0.81109619140625
3800000000.0 0.149749755859375 0.87567138671875 -0.004070281982421875 0.025778770446777344 -0.0040073394775390625 0.025696754455566406 0.183135986328125 0.8035888671875
3900000000.0 0.323333740234375 0.827880859375 0.0027532577514648438 0.026396751403808594 0.0027837753295898438 0.026352882385253906 0.45550537109375 0.68927001953125
4000000000.0 0.4835205078125 0.74560546875 0.009737968444824219 0.025272369384765625 0.009725570678710938 0.02518939971923828 0.668914794921875 0.483306884765625
4100000000.0 0.623321533203125 0.6329345703125 0.01643085479736328 0.022294998168945312 0.016399383544921875 0.022235870361328125 0.792205810546875 0.212921142578125
4200000000.0 0.73724365234375 0.494720458984375 0.022298812866210938 0.017511367797851562 0.022264480590820312 0.017462730407714844 0.808502197265625 -0.0853271484375
4300000000.0 0.82073974609375 0.336334228515625 0.02683734893798828 0.011061668395996094 0.02679443359375 0.011035919189453125 0.71136474609375 -0.369720458984375
4400000000.0 0.87066650390625 0.164794921875 0.029569625854492188 0.0033769607543945312 0.029493331909179688 0.0033807754516601562 0.513824462890625 -0.59698486328125
4500000000.0 0.884979248046875 -0.01336669921875 0.030031204223632812 -0.005068778991699219 0.029961585998535156 -0.0050258636474609375 0.242767333984375 -0.73114013671875
4600000000.0 0.8626708984375 -0.190277099609375 0.028006553649902344 -0.013590812683105469 0.027996063232421875 -0.01351165771484375 -0.059234619140625 -0.7489013671875
4700000000.0 0.805206298828125 -0.358978271484375 0.023496627807617188 -0.021404266357421875 0.02350616455078125 -0.021364212036132812 -0.343017578125 -0.646575927734375
4800000000.0 0.7147216796875 -0.512420654296875 0.016675949096679688 -0.027750015258789062 0.016691207885742188 -0.027688980102539062 -0.5628662109375 -0.4390869140625
4900000000.0 0.59515380859375 -0.644744873046875 0.008096694946289062 -0.0318145751953125 0.008167266845703125 -0.031826019287109375 -0.6788330078125 -0.16192626953125
5000000000.0 0.45098876953125 -0.749420166015625 -0.0014171600341796875 -0.033206939697265625 -0.00142669677734375 -0.03320121765136719 -0.671630859375 0.135406494140625
5100000000.0 0.288543701171875 -0.822845458984375 -0.0110321044921875 -0.03164863586425781 -0.011053085327148438 -0.03162384033203125 -0.54595947265625 0.4002685546875
5200000000.0 0.114501953125 -0.8612060546875 -0.019722938537597656 -0.027253150939941406 -0.019738197326660156 -0.027207374572753906 -0.3277587890625 0.589569091796875
5300000000.0 -0.063751220703125 -0.863128662109375 -0.026754379272460938 -0.020524024963378906 -0.02676677703857422 -0.020479202270507812 -0.05596923828125 0.675048828125
5400000000.0 -0.2384033203125 -0.828216552734375 -0.03151130676269531 -0.01215362548828125 -0.03150749206542969 -0.012054443359375 0.22259521484375 0.647735595703125
5500000000.0 -0.401763916015625 -0.758026123046875 -0.033664703369140625 -0.0028133392333984375 -0.03363227844238281 -0.002689361572265625 0.46600341796875 0.515899658203125
5600000000.0 -0.546600341796875 -0.657257080078125 -0.03312873840332031 0.0066699981689453125 -0.03305625915527344 0.0067501068115234375 0.63720703125 0.304779052734375
5700000000.0 -0.66790771484375 -0.52545166015625 -0.02995777130126953 0.015578269958496094 -0.029860496520996094 0.015616416931152344 0.716949462890625 0.049896240234375
5800000000.0 -0.759002685546875 -0.372955322265625 -0.024644851684570312 0.023233413696289062 -0.024514198303222656 0.023248672485351562 0.6995849609375 -0.213409423828125
5900000000.0 -0.815521240234375 -0.2049560546875 -0.017426490783691406 0.02928447723388672 -0.01740550994873047 0.029153823852539062 0.591796875 -0.45159912109375
6000000000.0 -0.83575439453125 -0.0291748046875 -0.008943557739257812 0.033100128173828125 -0.008886337280273438 0.03302192687988281 0.4046630859375 -0.63616943359375
6100000000.0 -0.8187255859375 0.146942138671875 0.0003223419189453125 0.03463554382324219 0.000370025634765625 0.03451347351074219 0.167724609375 -0.7435302734375
6200000000.0 -0.7647705078125 0.314453125 0.009822845458984375 0.03368186950683594 0.00977325439453125 0.03360939025878906 -0.091796875 -0.762664794921875
6300000000.0 -0.67706298828125 0.467071533203125 0.018941879272460938 0.030205726623535156 0.01890087127685547 0.030159950256347656 -0.342010498046875 -0.69287109375
6400000000.0 -0.558807373046875 0.59722900390625 0.026998519897460938 0.02434539794921875 0.02694225311279297 0.024316787719726562 -0.555633544921875 -0.539764404296875
6500000000.0 -0.41595458984375 0.698883056640625 0.03340911865234375 0.016321182250976562 0.03334236145019531 0.016313552856445312 -0.7047119140625 -0.318115234375
6600000000.0 -0.2552490234375 0.76751708984375 0.03753471374511719 0.0064716339111328125 0.037464141845703125 0.006500244140625 -0.76678466796875 -0.055572509765625
6700000000.0 -0.084381103515625 0.800323486328125 0.03870582580566406 -0.004482269287109375 0.03874397277832031 -0.0044460296630859375 -0.73095703125 0.215240478515625
6800000000.0 0.0889892578125 0.7957763671875 0.03673744201660156 -0.015781402587890625 0.036739349365234375 -0.015832901000976562 -0.597930908203125 0.458221435546875
6900000000.0 0.257049560546875 0.7542724609375 0.03138542175292969 -0.026449203491210938 0.03134346008300781 -0.0264739990234375 -0.380218505859375 0.638153076171875
7000000000.0 0.41143798828125 0.677642822265625 0.022693634033203125 -0.0352935791015625 0.022655487060546875 -0.03536033630371094 -0.107696533203125 0.721710205078125
7100000000.0 0.545562744140625 0.570159912109375 0.011373519897460938 -0.04136466979980469 0.011346817016601562 -0.04138374328613281 0.178802490234375 0.69244384765625
7200000000.0 0.65289306640625 0.436126708984375 -0.0015735626220703125 -0.04361915588378906 -0.001720428466796875 -0.043575286865234375 0.430694580078125 0.551910400390625
7300000000.0 0.728607177734375 0.28253173828125 -0.014873504638671875 -0.041637420654296875 -0.014947891235351562 -0.04150581359863281 0.60479736328125 0.32342529296875
7400000000.0 0.768890380859375 0.116729736328125 -0.027080535888671875 -0.03558921813964844 -0.027042388916015625 -0.0355682373046875 0.67303466796875 0.0487060546875
7500000000.0 0.77239990234375 -0.053436279296875 -0.03703880310058594 -0.025897979736328125 -0.037021636962890625 -0.02573394775390625 0.62750244140625 -0.231689453125
7600000000.0 0.739105224609375 -0.2193603515625 -0.04337310791015625 -0.0131988525390625 -0.04321861267089844 -0.013078689575195312 0.4752197265625 -0.46844482421875
7700000000.0 0.67083740234375 -0.37371826171875 -0.045047760009765625 0.0007381439208984375 -0.04491424560546875 0.0007305145263671875 0.24298095703125 -0.620758056640625
7800000000.0 0.571197509765625 -0.50885009765625 -0.042217254638671875 0.014101028442382812 -0.04211235046386719 0.014068603515625 -0.024444580078125 -0.666046142578125
7900000000.0 0.445404052734375 -0.618438720703125 -0.03572845458984375 0.02561187744140625 -0.035633087158203125 0.025579452514648438 -0.28131103515625 -0.60614013671875
8000000000.0 0.29925537109375 -0.698089599609375 -0.026340484619140625 0.03443717956542969 -0.026302337646484375 0.03435516357421875 -0.4905548095703125 -0.457061767578125
8100000000.0 0.140869140625 -0.743988037109375 -0.015176773071289062 0.040027618408203125 -0.0151824951171875 0.03989410400390625 -0.626678466796875 -0.245147705078125
8200000000.0 -0.02313232421875 -0.754608154296875 -0.0032444000244140625 0.04220771789550781 -0.0032806396484375 0.04212379455566406 -0.67425537109375 -0.00360107421875
8300000000.0 -0.184600830078125 -0.729827880859375 0.008600234985351562 0.04107475280761719 0.008571624755859375 0.041019439697265625 -0.6339111328125 0.2342529296875
8400000000.0 -0.335693359375 -0.6717529296875 0.019540786743164062 0.03687858581542969 0.0195159912109375 0.03687477111816406 -0.513763427734375 0.44097900390625
8500000000.0 -0.470245361328125 -0.58319091796875 0.028908729553222656 0.029998779296875 0.028936386108398438 0.029997825622558594 -0.3309326171875 0.591644287109375
8600000000.0 -0.582305908203125 -0.469085693359375 0.036128997802734375 0.020862579345703125 0.03615760803222656 0.02081298828125 -0.10748291015625 0.669219970703125
8700000000.0 -0.667083740234375 -0.334686279296875 0.04069328308105469 0.0101318359375 0.04067420959472656 0.010034561157226562 0.129364013671875 0.66339111328125
8800000000.0 -0.72113037109375 -0.186492919921875 0.04217720031738281 -0.001617431640625 0.0421905517578125 -0.001735687255859375 0.350921630859375 0.573883056640625
8900000000.0 -0.742919921875 -0.031585693359375 0.04044914245605469 -0.013486862182617188 0.04034423828125 -0.013584136962890625 0.528900146484375 0.41046142578125
9000000000.0 -0.732086181640625 0.123291015625 0.03537750244140625 -0.024600982666015625 0.03529167175292969 -0.024677276611328125 0.637542724609375 0.1915283203125
9100000000.0 -0.68963623046875 0.2716064453125 0.027242660522460938 -0.03412628173828125 0.02710723876953125 -0.03409767150878906 0.65869140625 -0.056884765625
9200000000.0 -0.617828369140625 0.40692138671875 0.016466140747070312 -0.04107093811035156 0.016328811645507812 -0.04097938537597656 0.584625244140625 -0.2974853515625
9300000000.0 -0.52044677734375 0.523834228515625 0.0038204193115234375 -0.04456520080566406 0.0037441253662109375 -0.04451179504394531 0.4222412109375 -0.4954376220703125
9400000000.0 -0.402191162109375 0.6177978515625 -0.009527206420898438 -0.044216156005859375 -0.009603500366210938 -0.04405403137207031 0.1954345703125 -0.615753173828125
9500000000.0 -0.2677001953125 0.685089111328125 -0.022420883178710938 -0.03974151611328125 -0.022342681884765625 -0.03955078125 -0.0623779296875 -0.63787841796875
9600000000.0 -0.123138427734375 0.723541259765625 -0.03336143493652344 -0.03143310546875 -0.033267974853515625 -0.03132057189941406 -0.309661865234375 -0.556365966796875
9700000000.0 0.025299072265625 0.73175048828125 -0.04127693176269531 -0.020120620727539062 -0.041172027587890625 -0.020063400268554688 -0.5025634765625 -0.382965087890625
9800000000.0 0.17169189453125 0.7099609375 -0.04538536071777344 -0.00688934326171875 -0.0452880859375 -0.00690460205078125 -0.609344482421875 -0.1484375
9900000000.0 0.31036376953125 0.65936279296875 -0.045207977294921875 0.00687408447265625 -0.045139312744140625 0.0068416595458984375 -0.613525390625 0.104705810546875
10000000000.0 0.435546875 0.5819091796875 -0.04087066650390625 0.01984405517578125 -0.04085350036621094 0.019842147827148438 -0.518402099609375 0.337066650390625
10100000000.0 0.54180908203125 0.4810791015625 -0.03291893005371094 0.03078460693359375 -0.03296852111816406 0.030740737915039062 -0.342041015625 0.508209228515625
10200000000.0 0.6256103515625 0.361114501953125 -0.022352218627929688 0.038722991943359375 -0.0223388671875 0.03863525390625 -0.117462158203125 0.59393310546875
10300000000.0 0.68353271484375 0.226959228515625 -0.010009765625 0.04305839538574219 -0.009996414184570312 0.04297065734863281 0.11767578125 0.585723876953125
10400000000.0 0.71246337890625 0.08416748046875 0.0027523040771484375 0.043582916259765625 0.002777099609375 0.043567657470703125 0.3237152099609375 0.4893341064453125
10500000000.0 0.712249755859375 -0.061065673828125 0.015005111694335938 0.04051017761230469 0.014995574951171875 0.04048347473144531 0.47357177734375 0.3258056640625
10600000000.0 0.6820068359375 -0.20330810546875 0.025516510009765625 0.03423309326171875 0.025552749633789062 0.034091949462890625 0.546905517578125 0.12396240234375
10700000000.0 0.62371826171875 -0.33697509765625 0.03371238708496094 0.025346755981445312 0.03371238708496094 0.025264739990234375 0.53814697265625 -0.0833740234375
10800000000.0 0.53948974609375 -0.454986572265625 0.038997650146484375 0.014822006225585938 0.03891754150390625 0.014719009399414062 0.4557037353515625 -0.2632904052734375
10900000000.0 0.4315185546875 -0.553924560546875 0.041133880615234375 0.003459930419921875 0.04100799560546875 0.0033931732177734375 0.32098388671875 -0.39422607421875
11000000000.0 0.306976318359375 -0.628662109375 0.04026603698730469 -0.007867813110351562 0.04018402099609375 -0.007900238037109375 0.15771484375 -0.4667205810546875
11100000000.0 0.169219970703125 -0.675750732421875 0.036426544189453125 -0.018507003784179688 0.03636741638183594 -0.01836395263671875 -0.0145111083984375 -0.4792633056640625
11200000000.0 0.024383544921875 -0.693145751953125 0.030014991760253906 -0.02753925323486328 0.029951095581054688 -0.027525901794433594 -0.1754302978515625 -0.4338226318359375
11300000000.0 -0.121002197265625 -0.68023681640625 0.021547317504882812 -0.03468894958496094 0.021482467651367188 -0.03457069396972656 -0.308197021484375 -0.3427276611328125
11400000000.0 -0.2603759765625 -0.636810302734375 0.011463165283203125 -0.03938102722167969 0.011491775512695312 -0.03928184509277344 -0.4047698974609375 -0.215576171875
11500000000.0 -0.38702392578125 -0.565093994140625 0.0004863739013671875 -0.041530609130859375 0.000576019287109375 -0.04145622253417969 -0.4597320556640625 -0.0662384033203125
11600000000.0 -0.4969024658203125 -0.4686126708984375 -0.011083602905273438 -0.040721893310546875 -0.011030197143554688 -0.040740966796875 -0.466339111328125 0.1023101806640625
11700000000.0 -0.5830078125 -0.350738525390625 -0.02246856689453125 -0.036754608154296875 -0.022403717041015625 -0.03677940368652344 -0.41094970703125 0.273162841796875
11800000000.0 -0.642425537109375 -0.2177734375 -0.03257560729980469 -0.029394149780273438 -0.032596588134765625 -0.029468536376953125 -0.2891387939453125 0.4203948974609375
11900000000.0 -0.672271728515625 -0.074798583984375 -0.040374755859375 -0.019033432006835938 -0.040409088134765625 -0.019063949584960938 -0.112640380859375 0.513671875
12000000000.0 -0.6707763671875 0.070831298828125 -0.04479217529296875 -0.0065441131591796875 -0.04486846923828125 -0.0065784454345703125 0.091644287109375 0.5333251953125
12100000000.0 -0.638519287109375 0.21234130859375 -0.04528236389160156 0.0069217681884765625 -0.045314788818359375 0.0069446563720703125 0.2942962646484375 0.470855712890625
12200000000.0 -0.57696533203125 0.3441162109375 -0.041576385498046875 0.02002716064453125 -0.04161643981933594 0.02010345458984375 0.4588470458984375 0.3331451416015625
12300000000.0 -0.488861083984375 0.45941162109375 -0.034076690673828125 0.031558990478515625 -0.03409576416015625 0.031658172607421875 0.55999755859375 0.13995361328125
12400000000.0 -0.378204345703125 0.55303955078125 -0.023523330688476562 0.0403900146484375 -0.02338409423828125 0.04042243957519531 0.580413818359375 -0.077850341796875
12500000000.0 -0.250274658203125 0.6204833984375 -0.010721206665039062 0.045673370361328125 -0.010578155517578125 0.04572486877441406 0.5169677734375 -0.28704833984375
12600000000.0 -0.11151123046875 0.659271240234375 0.0030002593994140625 0.04700469970703125 0.0032024383544921875 0.04693794250488281 0.37957763671875 -0.45941162109375
12700000000.0 0.032196044921875 0.66748046875 0.01660919189453125 0.044239044189453125 0.01671600341796875 0.044124603271484375 0.1885986328125 -0.56793212890625
