!Created with skrf (http://scikit-rf.org).
# Hz S RI R 50.0 
!freq ReS11 ImS11 ReS21 ImS21 ReS12 ImS12 ReS22 ImS22
30000.0 0.467132568359375 -0.403594970703125 0.27606201171875 0.36236572265625 0.2752685546875 0.362396240234375 0.466827392578125 -0.40374755859375
31000.0 0.454437255859375 -0.402069091796875 0.288238525390625 0.3621826171875 0.287567138671875 0.36236572265625 0.454132080078125 -0.40228271484375
33000.0 0.430450439453125 -0.39849853515625 0.31121826171875 0.360748291015625 0.3106689453125 0.36102294921875 0.43023681640625 -0.39862060546875
36000.0 0.398101806640625 -0.391143798828125 0.34283447265625 0.356536865234375 0.342041015625 0.356719970703125 0.397857666015625 -0.39154052734375
41000.0 0.352020263671875 -0.37615966796875 0.38763427734375 0.3453369140625 0.387115478515625 0.345611572265625 0.351715087890625 -0.3762969970703125
48500.0 0.2984619140625 -0.3503570556640625 0.44012451171875 0.32415771484375 0.4398193359375 0.32440185546875 0.2979583740234375 -0.3505401611328125
58000.0 0.249847412109375 -0.31768798828125 0.48785400390625 0.29547119140625 0.48760986328125 0.2957763671875 0.249359130859375 -0.317840576171875
70000.0 0.20867919921875 -0.28094482421875 0.52850341796875 0.26214599609375 0.5281982421875 0.262451171875 0.2081298828125 -0.28106689453125
84000.0 0.177825927734375 -0.245361328125 0.5592041015625 0.2296142578125 0.5589599609375 0.22979736328125 0.177276611328125 -0.2454376220703125
100000.0 0.155242919921875 -0.212982177734375 0.581298828125 0.19940185546875 0.5811767578125 0.1998291015625 0.154693603515625 -0.21307373046875
125000.0 0.13455963134765625 -0.17557525634765625 0.601837158203125 0.16455078125 0.601776123046875 0.164764404296875 0.1338958740234375 -0.17571258544921875
150000.0 0.1225128173828125 -0.1486968994140625 0.61334228515625 0.139312744140625 0.61346435546875 0.1395263671875 0.12188720703125 -0.1488037109375
175000.0 0.11507415771484375 -0.12886810302734375 0.62078857421875 0.120574951171875 0.620819091796875 0.12078857421875 0.1144866943359375 -0.12897491455078125
200000.0 0.11020660400390625 -0.11354446411132812 0.625518798828125 0.10626220703125 0.62567138671875 0.1064453125 0.10954666137695312 -0.11362075805664062
225000.0 0.10675048828125 -0.10145187377929688 0.628997802734375 0.094635009765625 0.628997802734375 0.09478759765625 0.10612869262695312 -0.1015472412109375
250000.0 0.1042938232421875 -0.09164047241210938 0.63153076171875 0.085357666015625 0.63140869140625 0.08563232421875 0.10364913940429688 -0.09173202514648438
275000.0 0.10244369506835938 -0.08353805541992188 0.633270263671875 0.077789306640625 0.63323974609375 0.077789306640625 0.10178756713867188 -0.08365631103515625
300000.0 0.10104751586914062 -0.07665252685546875 0.634613037109375 0.07122802734375 0.634613037109375 0.07122802734375 0.10035324096679688 -0.07685089111328125
325000.0 0.09992599487304688 -0.07089614868164062 0.635894775390625 0.065765380859375 0.635833740234375 0.065521240234375 0.0992584228515625 -0.0710601806640625
350000.0 0.09907150268554688 -0.06594085693359375 0.63671875 0.060943603515625 0.63671875 0.060943603515625 0.09841156005859375 -0.06608963012695312
375000.0 0.0983123779296875 -0.061634063720703125 0.63739013671875 0.05670166015625 0.637298583984375 0.056549072265625 0.09768295288085938 -0.061756134033203125
400000.0 0.0977325439453125 -0.05785369873046875 0.638031005859375 0.053009033203125 0.637847900390625 0.053009033203125 0.09710311889648438 -0.05794525146484375
425000.0 0.09724807739257812 -0.054500579833984375 0.6385498046875 0.04974365234375 0.638427734375 0.049896240234375 0.0966033935546875 -0.054615020751953125
450000.0 0.09681320190429688 -0.05150604248046875 0.638824462890625 0.046783447265625 0.638763427734375 0.046966552734375 0.09618377685546875 -0.051609039306640625
475000.0 0.09647750854492188 -0.048816680908203125 0.639251708984375 0.0443115234375 0.639129638671875 0.044189453125 0.09585952758789062 -0.048931121826171875
500000.0 0.09615707397460938 -0.046405792236328125 0.639434814453125 0.041839599609375 0.639373779296875 0.041900634765625 0.09552383422851562 -0.0465087890625
525000.0 0.09593963623046875 -0.044246673583984375 0.63970947265625 0.039764404296875 0.6396484375 0.039794921875 0.0952606201171875 -0.044330596923828125
550000.0 0.095703125 -0.042240142822265625 0.6400146484375 0.037811279296875 0.63995361328125 0.037872314453125 0.09505462646484375 -0.04232025146484375
575000.0 0.09550857543945312 -0.04042816162109375 0.640289306640625 0.035980224609375 0.640106201171875 0.0360107421875 0.09484100341796875 -0.04050445556640625
600000.0 0.095367431640625 -0.03876495361328125 0.640350341796875 0.034393310546875 0.640380859375 0.034332275390625 0.09468460083007812 -0.038875579833984375
625000.0 0.09518814086914062 -0.03722381591796875 0.6405029296875 0.032745361328125 0.64056396484375 0.0328369140625 0.09453201293945312 -0.037311553955078125
650000.0 0.09508132934570312 -0.03582763671875 0.6405029296875 0.031341552734375 0.640716552734375 0.0313720703125 0.09438323974609375 -0.03589630126953125
675000.0 0.09492874145507812 -0.03449249267578125 0.6407470703125 0.029998779296875 0.64068603515625 0.0299072265625 0.09424972534179688 -0.034580230712890625
700000.0 0.094818115234375 -0.033294677734375 0.640869140625 0.02886962890625 0.64080810546875 0.028778076171875 0.09413909912109375 -0.03337860107421875
725000.0 0.09473419189453125 -0.03214263916015625 0.641021728515625 0.027496337890625 0.640838623046875 0.027587890625 0.09408187866210938 -0.03221893310546875
750000.0 0.094635009765625 -0.0310821533203125 0.641204833984375 0.026519775390625 0.640960693359375 0.0264892578125 0.09401321411132812 -0.031162261962890625
775000.0 0.09457778930664062 -0.030078887939453125 0.641143798828125 0.025421142578125 0.64111328125 0.0255126953125 0.09389877319335938 -0.0301513671875
800000.0 0.0944976806640625 -0.029163360595703125 0.641265869140625 0.02447509765625 0.641082763671875 0.024505615234375 0.09383392333984375 -0.029216766357421875
825000.0 0.09442901611328125 -0.028278350830078125 0.641204833984375 0.02362060546875 0.641082763671875 0.023651123046875 0.09377670288085938 -0.028369903564453125
850000.0 0.0943756103515625 -0.027469635009765625 0.641204833984375 0.02276611328125 0.641326904296875 0.022735595703125 0.0937042236328125 -0.027515411376953125
875000.0 0.09434127807617188 -0.026683807373046875 0.641357421875 0.021942138671875 0.64129638671875 0.022003173828125 0.09366989135742188 -0.026760101318359375
900000.0 0.09427261352539062 -0.02596282958984375 0.64141845703125 0.02117919921875 0.6414794921875 0.02117919921875 0.09360885620117188 -0.026020050048828125
925000.0 0.0942230224609375 -0.025272369384765625 0.6414794921875 0.020263671875 0.64141845703125 0.020355224609375 0.09355545043945312 -0.02532958984375
950000.0 0.09420394897460938 -0.024616241455078125 0.64154052734375 0.01959228515625 0.64154052734375 0.019805908203125 0.09351348876953125 -0.024658203125
975000.0 0.094146728515625 -0.02396392822265625 0.64141845703125 0.01904296875 0.6414794921875 0.01904296875 0.09348678588867188 -0.02404022216796875
1000000.0 0.0941162109375 -0.023395538330078125 0.64154052734375 0.01849365234375 0.641448974609375 0.01837158203125 0.09345245361328125 -0.02344512939453125
1030000.0 0.09406280517578125 -0.022701263427734375 0.641571044921875 0.017578125 0.641510009765625 0.017730712890625 0.093414306640625 -0.022777557373046875
1060000.0 0.09404373168945312 -0.022075653076171875 0.641693115234375 0.0169677734375 0.641632080078125 0.016998291015625 0.09337234497070312 -0.022151947021484375
1110000.0 0.093994140625 -0.0211029052734375 0.641754150390625 0.0157470703125 0.641693115234375 0.015777587890625 0.09331893920898438 -0.021160125732421875
1170000.0 0.09392547607421875 -0.020030975341796875 0.6417236328125 0.0145263671875 0.6417236328125 0.014739990234375 0.0932769775390625 -0.020076751708984375
1250000.0 0.09387588500976562 -0.018764495849609375 0.64178466796875 0.012908935546875 0.6417236328125 0.013153076171875 0.09319686889648438 -0.018833160400390625
1350000.0 0.09380722045898438 -0.017414093017578125 0.641876220703125 0.011383056640625 0.641845703125 0.011627197265625 0.093170166015625 -0.01747894287109375
1500000.0 0.09375762939453125 -0.015720367431640625 0.641998291015625 0.009368896484375 0.641845703125 0.00927734375 0.09310150146484375 -0.01575469970703125
1700000.0 0.093719482421875 -0.013916015625 0.641845703125 0.007049560546875 0.6419677734375 0.006988525390625 0.09303665161132812 -0.013973236083984375
1950000.0 0.0936737060546875 -0.0121917724609375 0.6419677734375 0.00445556640625 0.64190673828125 0.004547119140625 0.09300994873046875 -0.012256622314453125
2250000.0 0.09365463256835938 -0.010677337646484375 0.64178466796875 0.001800537109375 0.64178466796875 0.001922607421875 0.09297561645507812 -0.010738372802734375
2750000.0 0.09365463256835938 -0.008892059326171875 0.642059326171875 -0.001495361328125 0.641998291015625 -0.00152587890625 0.09299468994140625 -0.0089569091796875
3500000.0 0.09368515014648438 -0.00722503662109375 0.64190673828125 -0.005645751953125 0.64178466796875 -0.00567626953125 0.09304046630859375 -0.0072784423828125
4500000.0 0.09373855590820312 -0.006008148193359375 0.641815185546875 -0.010498046875 0.641571044921875 -0.010528564453125 0.09308624267578125 -0.00603485107421875
6000000.0 0.09383773803710938 -0.00507354736328125 0.6414794921875 -0.016754150390625 0.6414794921875 -0.016510009765625 0.09317398071289062 -0.0051727294921875
8000000.0 0.09395980834960938 -0.00464630126953125 0.64111328125 -0.0240478515625 0.640869140625 -0.024200439453125 0.09331130981445312 -0.004734039306640625
11000000.0 0.09412384033203125 -0.00467681884765625 0.640380859375 -0.034576416015625 0.640289306640625 -0.0345458984375 0.09349822998046875 -0.00484466552734375
15500000.0 0.09428787231445312 -0.005382537841796875 0.63909912109375 -0.04998779296875 0.6390380859375 -0.049774169921875 0.0936737060546875 -0.005603790283203125
22000000.0 0.09447097778320312 -0.006961822509765625 0.636627197265625 -0.071441650390625 0.636566162109375 -0.071319580078125 0.09386825561523438 -0.00722503662109375
30000000.0 0.094512939453125 -0.0092315673828125 0.632568359375 -0.09735107421875 0.6326904296875 -0.09735107421875 0.09394454956054688 -0.00952911376953125
40000000.0 0.094390869140625 -0.012317657470703125 0.62628173828125 -0.129150390625 0.62640380859375 -0.129119873046875 0.093902587890625 -0.0126495361328125
52500000.0 0.09402084350585938 -0.016399383544921875 0.616363525390625 -0.16827392578125 0.616424560546875 -0.168243408203125 0.09363555908203125 -0.016666412353515625
68000000.0 0.09331512451171875 -0.021640777587890625 0.6005859375 -0.215484619140625 0.600494384765625 -0.215423583984375 0.09300994873046875 -0.02181243896484375
86500000.0 0.09210968017578125 -0.0279388427734375 0.5772705078125 -0.26959228515625 0.57733154296875 -0.26971435546875 0.09180450439453125 -0.028045654296875
106000000.0 0.0904083251953125 -0.034465789794921875 0.54791259765625 -0.3243408203125 0.547698974609375 -0.324249267578125 0.08998870849609375 -0.034763336181640625
127500000.0 0.0877838134765625 -0.041351318359375 0.509552001953125 -0.380462646484375 0.509521484375 -0.380584716796875 0.08727264404296875 -0.042064666748046875
152000000.0 0.08375930786132812 -0.048923492431640625 0.4590301513671875 -0.43927001953125 0.459136962890625 -0.4391632080078125 0.08327102661132812 -0.0502166748046875
180000000.0 0.07796478271484375 -0.05731201171875 0.39312744140625 -0.4984130859375 0.393280029296875 -0.49822998046875 0.0777130126953125 -0.0589599609375
214000000.0 0.07007217407226562 -0.06696701049804688 0.30364990234375 -0.5570068359375 0.303802490234375 -0.5570068359375 0.06967926025390625 -0.06879806518554688
254000000.0 0.059368133544921875 -0.0762786865234375 0.18798828125 -0.60589599609375 0.1878662109375 -0.605865478515625 0.058315277099609375 -0.0791168212890625
300000000.0 0.044530224055051804 -0.08446439355611801 0.04593278467655182 -0.6324676275253296 0.04581974819302559 -0.6326605677604675 0.043284136801958084 -0.08851808309555054
350000000.0 0.027240000665187836 -0.09075238555669785 -0.11100392788648605 -0.6250447630882263 -0.11143364012241364 -0.6253276467323303 0.025023318827152252 -0.09545419365167618
400000000.0 0.009393426589667797 -0.09252669662237167 -0.2614623010158539 -0.5792136192321777 -0.26224932074546814 -0.5792325139045715 0.005368613172322512 -0.09815125167369843
450000000.0 -0.008780372329056263 -0.09063633531332016 -0.3967055380344391 -0.4977527856826782 -0.39789241552352905 -0.4975123405456543 -0.01422480121254921 -0.09658315777778625
500000000.0 -0.0253878366202116 -0.08541153371334076 -0.507895827293396 -0.38519492745399475 -0.5092656016349792 -0.3849635124206543 -0.03298288211226463 -0.09076298773288727
550000000.0 -0.03992542624473572 -0.07655861228704453 -0.5885248184204102 -0.24838121235370636 -0.589891791343689 -0.2474784106016159 -0.049794699996709824 -0.08095472306013107
600000000.0 -0.05228964611887932 -0.06573915481567383 -0.6328278183937073 -0.09540998935699463 -0.6341367959976196 -0.0941215455532074 -0.06409946829080582 -0.0683756098151207
650000000.0 -0.06139606237411499 -0.052849140018224716 -0.6379739046096802 0.06468439847230911 -0.639366090297699 0.06630019098520279 -0.07474777847528458 -0.05316596478223801
700000000.0 -0.06784820556640625 -0.039417266845703125 -0.6036376953125 0.2210693359375 -0.60455322265625 0.223052978515625 -0.08242034912109375 -0.036510467529296875
750000000.0 -0.07175445556640625 -0.025348663330078125 -0.531005859375 0.365020751953125 -0.531158447265625 0.367279052734375 -0.08633041381835938 -0.019962310791015625
800000000.0 -0.07331085205078125 -0.011791229248046875 -0.4245758056640625 0.4868011474609375 -0.42413330078125 0.4888763427734375 -0.08666229248046875 -0.00342559814453125
850000000.0 -0.07289886474609375 0.001445770263671875 -0.290863037109375 0.5782470703125 -0.28955078125 0.580902099609375 -0.08465194702148438 0.012599945068359375
900000000.0 -0.07024002075195312 0.013935089111328125 -0.1378173828125 0.63360595703125 -0.135711669921875 0.636077880859375 -0.080322265625 0.02660369873046875
950000000.0 -0.06628036499023438 0.02602386474609375 0.024688720703125 0.64935302734375 0.02703857421875 0.6513671875 -0.0738525390625 0.03972625732421875
1000000000.0 -0.06051063537597656 0.03764533996582031 0.186492919921875 0.6240234375 0.189300537109375 0.62518310546875 -0.06640243530273438 0.051280975341796875
1050000000.0 -0.0531463623046875 0.0482635498046875 0.3372802734375 0.558563232421875 0.340118408203125 0.55914306640625 -0.05732154846191406 0.06167030334472656
1100000000.0 -0.043590545654296875 0.05832099914550781 0.4671630859375 0.457244873046875 0.4701080322265625 0.4569244384765625 -0.0476226806640625 0.07094955444335938
1150000000.0 -0.032196044921875 0.06693267822265625 0.567657470703125 0.326263427734375 0.570465087890625 0.32513427734375 -0.036346435546875 0.07861328125
1200000000.0 -0.01889801025390625 0.07391357421875 0.63238525390625 0.173828125 0.634613037109375 0.17205810546875 -0.023616790771484375 0.08579635620117188
1250000000.0 -0.00388336181640625 0.07801437377929688 0.65655517578125 0.009552001953125 0.658294677734375 0.007293701171875 -0.01016998291015625 0.0910186767578125
1300000000.0 0.01226043701171875 0.0791473388671875 0.63861083984375 -0.155670166015625 0.640045166015625 -0.158233642578125 0.005313873291015625 0.0936737060546875
1350000000.0 0.028926849365234375 0.07661819458007812 0.579681396484375 -0.31134033203125 0.58013916015625 -0.313995361328125 0.022144317626953125 0.09429550170898438
1400000000.0 0.04502105712890625 0.07041549682617188 0.48321533203125 -0.44732666015625 0.4830322265625 -0.450042724609375 0.038776397705078125 0.09161376953125
1450000000.0 0.0595703125 0.06058311462402344 0.35552978515625 -0.5548095703125 0.354644775390625 -0.557403564453125 0.0557098388671875 0.084808349609375
1500000000.0 0.07138824462890625 0.047515869140625 0.20465087890625 -0.62640380859375 0.2030029296875 -0.628753662109375 0.07160186767578125 0.07493972778320312
1550000000.0 0.08015060424804688 0.032024383544921875 0.040496826171875 -0.657989501953125 0.0384521484375 -0.659881591796875 0.08509445190429688 0.0612945556640625
1600000000.0 0.08498001098632812 0.014904022216796875 -0.12640380859375 -0.64715576171875 -0.12896728515625 -0.648284912109375 0.09584808349609375 0.0449371337890625
1650000000.0 0.0858612060546875 -0.00215911865234375 -0.28521728515625 -0.594512939453125 -0.2879638671875 -0.595062255859375 0.10224533081054688 0.02618408203125
1700000000.0 0.0826416015625 -0.018695831298828125 -0.42578125 -0.503509521484375 -0.428558349609375 -0.50323486328125 0.10489273071289062 0.006381988525390625
1750000000.0 0.07618331909179688 -0.03328704833984375 -0.53863525390625 -0.380035400390625 -0.54132080078125 -0.3790283203125 0.10259628295898438 -0.012638092041015625
1800000000.0 0.06711578369140625 -0.045654296875 -0.616943359375 -0.231903076171875 -0.619140625 -0.2303466796875 0.09571456909179688 -0.030567169189453125
1850000000.0 0.05638885498046875 -0.054523468017578125 -0.65509033203125 -0.0687255859375 -0.656982421875 -0.066650390625 0.0857086181640625 -0.045459747314453125
1900000000.0 0.04509544372558594 -0.0606231689453125 -0.650970458984375 0.0986328125 -0.652099609375 0.100982666015625 0.07287979125976562 -0.05612945556640625
1950000000.0 0.0341033935546875 -0.06360626220703125 -0.6046142578125 0.259735107421875 -0.605133056640625 0.262237548828125 0.058635711669921875 -0.06304550170898438
2000000000.0 0.024654388427734375 -0.06442642211914062 -0.519256591796875 0.403717041015625 -0.518951416015625 0.40618896484375 0.04571533203125 -0.06573867797851562
2050000000.0 0.01662445068359375 -0.06351089477539062 -0.39990234375 0.52130126953125 -0.3990478515625 0.5238037109375 0.034084320068359375 -0.064544677734375
2100000000.0 0.010885238647460938 -0.06220054626464844 -0.25494384765625 0.6048583984375 -0.25347900390625 0.606964111328125 0.025667190551757812 -0.061870574951171875
2150000000.0 0.0067005157470703125 -0.06151771545410156 -0.093414306640625 0.6490478515625 -0.091217041015625 0.650604248046875 0.021265029907226562 -0.05777740478515625
2200000000.0 0.0041408538818359375 -0.061687469482421875 0.07391357421875 0.650665283203125 0.07623291015625 0.651763916015625 0.019395828247070312 -0.0548095703125
2250000000.0 0.00179290771484375 -0.06388473510742188 0.236236572265625 0.6097412109375 0.23870849609375 0.61029052734375 0.020536422729492188 -0.054721832275390625
2300000000.0 -0.001220703125 -0.06809616088867188 0.382598876953125 0.52886962890625 0.385101318359375 0.52874755859375 0.022258758544921875 -0.05812263488769531
2350000000.0 -0.0056304931640625 -0.07428359985351562 0.50335693359375 0.413543701171875 0.50579833984375 0.412841796875 0.02332305908203125 -0.0660552978515625
2400000000.0 -0.0128631591796875 -0.08153915405273438 0.59063720703125 0.271240234375 0.59283447265625 0.27001953125 0.021533966064453125 -0.077117919921875
2450000000.0 -0.023731231689453125 -0.08910369873046875 0.63824462890625 0.11212158203125 0.640350341796875 0.109954833984375 0.01444244384765625 -0.09088516235351562
2500000000.0 -0.038631439208984375 -0.09543228149414062 0.643646240234375 -0.054168701171875 0.64532470703125 -0.05670166015625 0.0017242431640625 -0.1052398681640625
2550000000.0 -0.057193756103515625 -0.09902572631835938 0.606353759765625 -0.21551513671875 0.607330322265625 -0.218505859375 -0.017665863037109375 -0.11704254150390625
2600000000.0 -0.07905960083007812 -0.09819793701171875 0.52923583984375 -0.361419677734375 0.529388427734375 -0.36444091796875 -0.043117523193359375 -0.12440872192382812
2650000000.0 -0.10266494750976562 -0.09196853637695312 0.4178619384765625 -0.4820709228515625 0.417022705078125 -0.485107421875 -0.07265472412109375 -0.12466049194335938
