!Created with skrf (http://scikit-rf.org).
# Hz S RI R 50.0 
!freq ReS11 ImS11
1000000000.0 0.49029541015625 -0.7442626953125
1100000000.0 0.152008056640625 -0.886138916015625
1200000000.0 -0.215423583984375 -0.874237060546875
1300000000.0 -0.544464111328125 -0.7113037109375
1400000000.0 -0.775848388671875 -0.42730712890625
1500000000.0 -0.867645263671875 -0.073577880859375
1600000000.0 -0.801300048828125 0.284088134765625
1700000000.0 -0.593231201171875 0.577972412109375
1800000000.0 -0.27874755859375 0.7535400390625
1900000000.0 0.078216552734375 0.774261474609375
2000000000.0 0.405487060546875 0.6363525390625
2100000000.0 0.635162353515625 0.3690185546875
2200000000.0 0.7193603515625 0.02911376953125
2300000000.0 0.6400146484375 -0.308074951171875
2400000000.0 0.42010498046875 -0.573944091796875
2500000000.0 0.103118896484375 -0.709686279296875
2600000000.0 -0.240020751953125 -0.686767578125
2700000000.0 -0.5352783203125 -0.512451171875
2800000000.0 -0.7208251953125 -0.22430419921875
2900000000.0 -0.759124755859375 0.11480712890625
3000000000.0 -0.64495849609375 0.43597412109375
3100000000.0 -0.401885986328125 0.67425537109375
3200000000.0 -0.08038330078125 0.7821044921875
3300000000.0 0.25494384765625 0.739410400390625
3400000000.0 0.53692626953125 0.55560302734375
3500000000.0 0.70941162109375 0.268280029296875
3600000000.0 0.737945556640625 -0.063385009765625
3700000000.0 0.617523193359375 -0.371368408203125
3800000000.0 0.374786376953125 -0.590972900390625
3900000000.0 0.062957763671875 -0.6778564453125
4000000000.0 -0.2501220703125 -0.616668701171875
4100000000.0 -0.4991607666015625 -0.4248809814453125
4200000000.0 -0.634765625 -0.14697265625
4300000000.0 -0.63470458984375 0.157257080078125
4400000000.0 -0.504730224609375 0.42755126953125
4500000000.0 -0.2750244140625 0.614105224609375
4600000000.0 0.00885009765625 0.685821533203125
4700000000.0 0.294342041015625 0.634674072265625
4800000000.0 0.53338623046875 0.472442626953125
4900000000.0 0.68634033203125 0.227813720703125
5000000000.0 0.72833251953125 -0.058135986328125
5100000000.0 0.652130126953125 -0.338165283203125
5200000000.0 0.46826171875 -0.56512451171875
5300000000.0 0.206085205078125 -0.699005126953125
5400000000.0 -0.089691162109375 -0.71307373046875
5500000000.0 -0.3660888671875 -0.60101318359375
5600000000.0 -0.56878662109375 -0.38140869140625
5700000000.0 -0.656402587890625 -0.095855712890625
5800000000.0 -0.609283447265625 0.197967529296875
5900000000.0 -0.4376983642578125 0.437286376953125
6000000000.0 -0.180511474609375 0.57196044921875
6100000000.0 0.1046142578125 0.576263427734375
6200000000.0 0.356109619140625 0.4546051025390625
6300000000.0 0.523529052734375 0.2381591796875
6400000000.0 0.57733154296875 -0.0245361328125
6500000000.0 0.513031005859375 -0.279815673828125
6600000000.0 0.348388671875 -0.4799957275390625
6700000000.0 0.11724853515625 -0.59124755859375
6800000000.0 -0.137603759765625 -0.596466064453125
6900000000.0 -0.3709869384765625 -0.4969329833984375
7000000000.0 -0.543487548828125 -0.31158447265625
7100000000.0 -0.62646484375 -0.072906494140625
7200000000.0 -0.60675048828125 0.18017578125
7300000000.0 -0.4854583740234375 0.404815673828125
7400000000.0 -0.283172607421875 0.5615234375
7500000000.0 -0.0323486328125 0.6258544921875
7600000000.0 0.22998046875 0.5802001953125
7700000000.0 0.4527435302734375 0.4219207763671875
7800000000.0 0.584503173828125 0.178436279296875
7900000000.0 0.594512939453125 -0.099212646484375
8000000000.0 0.479583740234375 -0.3513946533203125
8100000000.0 0.2662353515625 -0.52398681640625
8200000000.0 0.002471923828125 -0.582794189453125
8300000000.0 -0.2552490234375 -0.52069091796875
8400000000.0 -0.4559173583984375 -0.356658935546875
8500000000.0 -0.5648193359375 -0.1278076171875
8600000000.0 -0.567352294921875 0.120330810546875
8700000000.0 -0.468902587890625 0.342987060546875
8800000000.0 -0.29046630859375 0.503631591796875
8900000000.0 -0.064483642578125 0.577239990234375
9000000000.0 0.17120361328125 0.55340576171875
9100000000.0 0.377227783203125 0.4357757568359375
9200000000.0 0.518035888671875 0.242919921875
9300000000.0 0.56683349609375 0.00677490234375
9400000000.0 0.511260986328125 -0.23077392578125
9500000000.0 0.3572998046875 -0.4241180419921875
9600000000.0 0.132080078125 -0.5322265625
9700000000.0 -0.11962890625 -0.529205322265625
9800000000.0 -0.34375 -0.413177490234375
9900000000.0 -0.490325927734375 -0.208892822265625
10000000000.0 -0.5274658203125 0.03717041015625
10100000000.0 -0.45013427734375 0.269622802734375
10200000000.0 -0.2796783447265625 0.438140869140625
10300000000.0 -0.057708740234375 0.510345458984375
10400000000.0 0.1663055419921875 0.4770050048828125
10500000000.0 0.34661865234375 0.352264404296875
10600000000.0 0.4503173828125 0.1682586669921875
10700000000.0 0.464111328125 -0.03466796875
10800000000.0 0.3936004638671875 -0.216033935546875
10900000000.0 0.25994873046875 -0.346832275390625
11000000000.0 0.0919342041015625 -0.4106597900390625
11100000000.0 -0.08349609375 -0.4034576416015625
11200000000.0 -0.2400054931640625 -0.3293914794921875
11300000000.0 -0.3548736572265625 -0.201385498046875
11400000000.0 -0.4126434326171875 -0.0382843017578125
11500000000.0 -0.4040985107421875 0.1390533447265625
11600000000.0 -0.3231658935546875 0.3062591552734375
11700000000.0 -0.1737060546875 0.4315948486328125
11800000000.0 0.0229644775390625 0.4843902587890625
11900000000.0 0.2296142578125 0.44647216796875
12000000000.0 0.4032745361328125 0.3209075927734375
12100000000.0 0.5078125 0.13116455078125
12200000000.0 0.52215576171875 -0.086273193359375
12300000000.0 0.443206787109375 -0.2898406982421875
12400000000.0 0.2861785888671875 -0.4408416748046875
12500000000.0 0.080810546875 -0.51165771484375
12600000000.0 -0.134368896484375 -0.4891510009765625
12700000000.0 -0.3183135986328125 -0.3780059814453125
12800000000.0 -0.4361114501953125 -0.200225830078125
12900000000.0 -0.465240478515625 0.0091094970703125
13000000000.0 -0.40118408203125 0.208160400390625
13100000000.0 -0.2581634521484375 0.3577728271484375
13200000000.0 -0.0660247802734375 0.4287109375
13300000000.0 0.1353759765625 0.4086456298828125
13400000000.0 0.30645751953125 0.3040771484375
13500000000.0 0.4145050048828125 0.137359619140625
13600000000.0 0.4405059814453125 -0.0579833984375
13700000000.0 0.382110595703125 -0.245330810546875
13800000000.0 0.251190185546875 -0.3907318115234375
13900000000.0 0.072174072265625 -0.46917724609375
14000000000.0 -0.1239013671875 -0.467742919921875
14100000000.0 -0.3035430908203125 -0.386566162109375
14200000000.0 -0.4361724853515625 -0.2382659912109375
14300000000.0 -0.497589111328125 -0.046539306640625
14400000000.0 -0.4749755859375 0.1565093994140625
14500000000.0 -0.3685760498046875 0.33502197265625
14600000000.0 -0.193603515625 0.4538421630859375
14700000000.0 0.0193939208984375 0.4869232177734375
14800000000.0 0.2291259765625 0.4211578369140625
14900000000.0 0.389739990234375 0.2671051025390625
15000000000.0 0.4639129638671875 0.05517578125
15100000000.0 0.4334869384765625 -0.16815185546875
15200000000.0 0.3053436279296875 -0.35198974609375
15300000000.0 0.1105194091796875 -0.4572906494140625
15400000000.0 -0.1066436767578125 -0.465362548828125
15500000000.0 -0.302276611328125 -0.3800048828125
15600000000.0 -0.4398040771484375 -0.223358154296875
15700000000.0 -0.4984130859375 -0.0287017822265625
15800000000.0 -0.4732818603515625 0.1687774658203125
15900000000.0 -0.373992919921875 0.3363189697265625
16000000000.0 -0.2195892333984375 0.448822021484375
16100000000.0 -0.0364837646484375 0.4912872314453125
16200000000.0 0.1462249755859375 0.4590911865234375
16300000000.0 0.300537109375 0.35894775390625
16400000000.0 0.402099609375 0.2064208984375
16500000000.0 0.4333953857421875 0.0254974365234375
16600000000.0 0.38702392578125 -0.1533203125
16700000000.0 0.2683258056640625 -0.2975311279296875
16800000000.0 0.096343994140625 -0.3768768310546875
16900000000.0 -0.096099853515625 -0.3720703125
17000000000.0 -0.2689971923828125 -0.279022216796875
17100000000.0 -0.3814544677734375 -0.114227294921875
17200000000.0 -0.4056549072265625 0.08740234375
17300000000.0 -0.3327484130859375 0.2800140380859375
17400000000.0 -0.1775360107421875 0.41876220703125
17500000000.0 0.0247039794921875 0.471710205078125
17600000000.0 0.2289276123046875 0.4281463623046875
17700000000.0 0.391815185546875 0.2996368408203125
17800000000.0 0.4814453125 0.114959716796875
17900000000.0 0.4830322265625 -0.0868988037109375
18000000000.0 0.400787353515625 -0.2670135498046875
18100000000.0 0.254180908203125 -0.39300537109375
18200000000.0 0.07366943359375 -0.4455413818359375
18300000000.0 -0.106903076171875 -0.41949462890625
18400000000.0 -0.255401611328125 -0.3245697021484375
18500000000.0 -0.3479766845703125 -0.1822509765625
18600000000.0 -0.3720703125 -0.020965576171875
18700000000.0 -0.3285369873046875 0.1295166015625
18800000000.0 -0.2298736572265625 0.2427825927734375
18900000000.0 -0.097747802734375 0.3009033203125
19000000000.0 0.040863037109375 0.296661376953125
19100000000.0 0.159271240234375 0.2347869873046875
19200000000.0 0.235687255859375 0.1307220458984375
19300000000.0 0.2575531005859375 0.0076751708984375
19400000000.0 0.22354888916015625 -0.10939788818359375
19500000000.0 0.14284515380859375 -0.197509765625
19600000000.0 0.03296661376953125 -0.2410736083984375
19700000000.0 -0.0850067138671875 -0.2325286865234375
19800000000.0 -0.188446044921875 -0.17364501953125
19900000000.0 -0.258697509765625 -0.074981689453125
20000000000.0 -0.2813262939453125 0.04736328125
20100000000.0 -0.2500762939453125 0.1714019775390625
20200000000.0 -0.167633056640625 0.27435302734375
20300000000.0 -0.046112060546875 0.3358306884765625
20400000000.0 0.0935516357421875 0.3420257568359375
20500000000.0 0.226776123046875 0.2889404296875
20600000000.0 0.3285675048828125 0.1838531494140625
20700000000.0 0.3791961669921875 0.0450439453125
20800000000.0 0.3692474365234375 -0.1043548583984375
20900000000.0 0.2991790771484375 -0.236419677734375
21000000000.0 0.1813201904296875 -0.3287353515625
21100000000.0 0.036529541015625 -0.3638763427734375
21200000000.0 -0.10943603515625 -0.3358612060546875
21300000000.0 -0.228912353515625 -0.249725341796875
21400000000.0 -0.2994232177734375 -0.1215057373046875
21500000000.0 -0.30682373046875 0.02349853515625
21600000000.0 -0.24951171875 0.15657806396484375
21700000000.0 -0.1381072998046875 0.24915313720703125
21800000000.0 0.0031280517578125 0.2809295654296875
21900000000.0 0.1441192626953125 0.2444915771484375
22000000000.0 0.2534027099609375 0.1467132568359375
22100000000.0 0.3071441650390625 0.0090484619140625
22200000000.0 0.2935791015625 -0.1393280029296875
22300000000.0 0.21600341796875 -0.267425537109375
22400000000.0 0.0906219482421875 -0.350067138671875
22500000000.0 -0.0578765869140625 -0.3718719482421875
22600000000.0 -0.2009735107421875 -0.3300323486328125
22700000000.0 -0.3131256103515625 -0.23388671875
22800000000.0 -0.3747406005859375 -0.1019439697265625
22900000000.0 -0.377227783203125 0.0411834716796875
23000000000.0 -0.320526123046875 0.1702728271484375
23100000000.0 -0.2161712646484375 0.2609405517578125
23200000000.0 -0.0850372314453125 0.2963409423828125
23300000000.0 0.046051025390625 0.268829345703125
23400000000.0 0.14788818359375 0.184112548828125
23500000000.0 0.1960906982421875 0.060821533203125
23600000000.0 0.17682647705078125 -0.0709686279296875
23700000000.0 0.094024658203125 -0.1774749755859375
23800000000.0 -0.03261566162109375 -0.23101806640625
23900000000.0 -0.17192840576171875 -0.21781158447265625
24000000000.0 -0.292388916015625 -0.1415863037109375
24100000000.0 -0.3687896728515625 -0.0187225341796875
24200000000.0 -0.387481689453125 0.12652587890625
24300000000.0 -0.3465423583984375 0.2677154541015625
24400000000.0 -0.2541656494140625 0.382415771484375
24500000000.0 -0.1269073486328125 0.4542083740234375
24600000000.0 0.0169219970703125 0.4749755859375
24700000000.0 0.1575927734375 0.44287109375
24800000000.0 0.2765045166015625 0.3628997802734375
24900000000.0 0.356903076171875 0.245361328125
25000000000.0 0.385833740234375 0.107879638671875
25100000000.0 0.3582763671875 -0.0276031494140625
25200000000.0 0.277923583984375 -0.1374969482421875
25300000000.0 0.15982818603515625 -0.200042724609375
25400000000.0 0.0279998779296875 -0.201690673828125
25500000000.0 -0.087249755859375 -0.1409454345703125
25600000000.0 -0.15792083740234375 -0.03314208984375
25700000000.0 -0.16786956787109375 0.09535980224609375
25800000000.0 -0.1147613525390625 0.21360015869140625
25900000000.0 -0.012847900390625 0.2949981689453125
26000000000.0 0.1163482666015625 0.3236083984375
26100000000.0 0.24658203125 0.2952728271484375
26200000000.0 0.3555908203125 0.2164764404296875
26300000000.0 0.4262237548828125 0.101226806640625
26400000000.0 0.4483184814453125 -0.0319671630859375
26500000000.0 0.4192962646484375 -0.1636810302734375
