!Created with skrf (http://scikit-rf.org).
# Hz S RI R 50.0 
!freq ReS11 ImS11
1000000000.0 -0.00213623046875 0.875762939453125
1100000000.0 0.18096923828125 0.853668212890625
1200000000.0 0.35003662109375 0.795013427734375
1300000000.0 0.49945068359375 0.70574951171875
1400000000.0 0.625885009765625 0.592193603515625
1500000000.0 0.72650146484375 0.458770751953125
1600000000.0 0.797943115234375 0.3099365234375
1700000000.0 0.839447021484375 0.152557373046875
1800000000.0 0.851043701171875 -0.00823974609375
1900000000.0 0.833282470703125 -0.167144775390625
2000000000.0 0.786773681640625 -0.319427490234375
2100000000.0 0.71234130859375 -0.458984375
2200000000.0 0.6156005859375 -0.581146240234375
2300000000.0 0.497772216796875 -0.6849365234375
2400000000.0 0.3616943359375 -0.76666259765625
2500000000.0 0.213958740234375 -0.816314697265625
2600000000.0 0.06256103515625 -0.839508056640625
2700000000.0 -0.09002685546875 -0.8358154296875
2800000000.0 -0.239654541015625 -0.80517578125
2900000000.0 -0.380828857421875 -0.74859619140625
3000000000.0 -0.509246826171875 -0.666748046875
3100000000.0 -0.61981201171875 -0.56439208984375
3200000000.0 -0.7115478515625 -0.444000244140625
3300000000.0 -0.779449462890625 -0.309112548828125
3400000000.0 -0.822021484375 -0.1649169921875
3500000000.0 -0.83734130859375 -0.015228271484375
3600000000.0 -0.826324462890625 0.133056640625
3700000000.0 -0.7901611328125 0.278076171875
3800000000.0 -0.728607177734375 0.413818359375
3900000000.0 -0.643890380859375 0.535491943359375
4000000000.0 -0.539642333984375 0.640167236328125
4100000000.0 -0.418975830078125 0.7261962890625
4200000000.0 -0.286041259765625 0.788909912109375
4300000000.0 -0.14373779296875 0.82696533203125
4400000000.0 0.00225830078125 0.838836669921875
4500000000.0 0.146575927734375 0.826812744140625
4600000000.0 0.289306640625 0.793060302734375
4700000000.0 0.425445556640625 0.730010986328125
4800000000.0 0.544647216796875 0.64447021484375
4900000000.0 0.64678955078125 0.54119873046875
5000000000.0 0.73077392578125 0.422637939453125
5100000000.0 0.793365478515625 0.29083251953125
5200000000.0 0.8310546875 0.150909423828125
5300000000.0 0.84442138671875 0.0072021484375
5400000000.0 0.833892822265625 -0.1357421875
5500000000.0 0.79962158203125 -0.275726318359375
5600000000.0 0.740325927734375 -0.407562255859375
5700000000.0 0.66058349609375 -0.5252685546875
5800000000.0 0.562835693359375 -0.6282958984375
5900000000.0 0.44964599609375 -0.714324951171875
6000000000.0 0.32232666015625 -0.779388427734375
6100000000.0 0.187347412109375 -0.82147216796875
6200000000.0 0.047515869140625 -0.840057373046875
6300000000.0 -0.09210205078125 -0.83599853515625
6400000000.0 -0.22991943359375 -0.80865478515625
6500000000.0 -0.36090087890625 -0.756866455078125
6600000000.0 -0.479461669921875 -0.684722900390625
6700000000.0 -0.58477783203125 -0.594451904296875
6800000000.0 -0.67364501953125 -0.49029541015625
6900000000.0 -0.746978759765625 -0.372161865234375
7000000000.0 -0.798919677734375 -0.240753173828125
7100000000.0 -0.825775146484375 -0.10284423828125
7200000000.0 -0.829986572265625 0.036529541015625
7300000000.0 -0.811065673828125 0.174957275390625
7400000000.0 -0.767974853515625 0.30731201171875
7500000000.0 -0.7039794921875 0.429046630859375
7600000000.0 -0.6224365234375 0.537750244140625
7700000000.0 -0.51947021484375 0.633880615234375
7800000000.0 -0.4041748046875 0.7110595703125
7900000000.0 -0.27728271484375 0.76629638671875
8000000000.0 -0.142425537109375 0.799407958984375
8100000000.0 -0.004913330078125 0.810150146484375
8200000000.0 0.134002685546875 0.797576904296875
8300000000.0 0.26806640625 0.760589599609375
8400000000.0 0.39300537109375 0.700775146484375
8500000000.0 0.5059814453125 0.62115478515625
8600000000.0 0.603851318359375 0.52301025390625
8700000000.0 0.68353271484375 0.408905029296875
8800000000.0 0.741424560546875 0.2818603515625
8900000000.0 0.776519775390625 0.14715576171875
9000000000.0 0.787567138671875 0.00958251953125
9100000000.0 0.77490234375 -0.127899169921875
9200000000.0 0.7413330078125 -0.260223388671875
9300000000.0 0.683624267578125 -0.390411376953125
9400000000.0 0.601409912109375 -0.506378173828125
9500000000.0 0.499908447265625 -0.604827880859375
9600000000.0 0.38189697265625 -0.683135986328125
9700000000.0 0.252105712890625 -0.73797607421875
9800000000.0 0.115875244140625 -0.768951416015625
9900000000.0 -0.024200439453125 -0.776275634765625
10000000000.0 -0.164154052734375 -0.757293701171875
10100000000.0 -0.296539306640625 -0.71380615234375
10200000000.0 -0.418792724609375 -0.64794921875
10300000000.0 -0.527130126953125 -0.560638427734375
10400000000.0 -0.619354248046875 -0.45574951171875
10500000000.0 -0.689239501953125 -0.33624267578125
10600000000.0 -0.736358642578125 -0.20635986328125
10700000000.0 -0.759429931640625 -0.07208251953125
10800000000.0 -0.759063720703125 0.065093994140625
10900000000.0 -0.7337646484375 0.199920654296875
11000000000.0 -0.683990478515625 0.326812744140625
11100000000.0 -0.6141357421875 0.441375732421875
11200000000.0 -0.524810791015625 0.5423583984375
11300000000.0 -0.41998291015625 0.62451171875
11400000000.0 -0.304290771484375 0.687652587890625
11500000000.0 -0.178436279296875 0.72930908203125
11600000000.0 -0.049835205078125 0.750640869140625
11700000000.0 0.085601806640625 0.7490234375
11800000000.0 0.2183837890625 0.721832275390625
11900000000.0 0.343841552734375 0.669677734375
12000000000.0 0.455291748046875 0.597747802734375
12100000000.0 0.55328369140625 0.5072021484375
12200000000.0 0.633026123046875 0.401397705078125
12300000000.0 0.69305419921875 0.282562255859375
12400000000.0 0.730987548828125 0.156341552734375
12500000000.0 0.745635986328125 0.026824951171875
12600000000.0 0.737701416015625 -0.1046142578125
12700000000.0 0.707427978515625 -0.231842041015625
12800000000.0 0.65521240234375 -0.35174560546875
12900000000.0 0.582977294921875 -0.46026611328125
13000000000.0 0.493988037109375 -0.553375244140625
13100000000.0 0.390289306640625 -0.63031005859375
13200000000.0 0.27447509765625 -0.687286376953125
13300000000.0 0.151580810546875 -0.72283935546875
13400000000.0 0.025482177734375 -0.736480712890625
13500000000.0 -0.10064697265625 -0.72821044921875
13600000000.0 -0.22320556640625 -0.69873046875
13700000000.0 -0.33660888671875 -0.648284912109375
13800000000.0 -0.438812255859375 -0.583892822265625
13900000000.0 -0.534271240234375 -0.50433349609375
14000000000.0 -0.615264892578125 -0.404754638671875
14100000000.0 -0.675506591796875 -0.293212890625
14200000000.0 -0.714569091796875 -0.172149658203125
14300000000.0 -0.732086181640625 -0.048675537109375
14400000000.0 -0.7279052734375 0.07684326171875
14500000000.0 -0.702423095703125 0.199188232421875
14600000000.0 -0.656585693359375 0.3148193359375
14700000000.0 -0.592498779296875 0.419952392578125
14800000000.0 -0.51220703125 0.513580322265625
14900000000.0 -0.415374755859375 0.591278076171875
15000000000.0 -0.308319091796875 0.650634765625
15100000000.0 -0.19232177734375 0.691619873046875
15200000000.0 -0.0723876953125 0.7117919921875
15300000000.0 0.05047607421875 0.71142578125
15400000000.0 0.17010498046875 0.68829345703125
15500000000.0 0.28369140625 0.6468505859375
15600000000.0 0.38958740234375 0.585235595703125
15700000000.0 0.482391357421875 0.50714111328125
15800000000.0 0.559417724609375 0.413970947265625
15900000000.0 0.618377685546875 0.309234619140625
16000000000.0 0.658721923828125 0.198638916015625
16100000000.0 0.681427001953125 0.083282470703125
16200000000.0 0.68585205078125 -0.035308837890625
16300000000.0 0.668243408203125 -0.155517578125
16400000000.0 0.62841796875 -0.27276611328125
16500000000.0 0.568206787109375 -0.37823486328125
16600000000.0 0.4914398193359375 -0.4725494384765625
16700000000.0 0.3966064453125 -0.55084228515625
16800000000.0 0.29132080078125 -0.61053466796875
16900000000.0 0.176025390625 -0.650390625
17000000000.0 0.0567626953125 -0.6695556640625
17100000000.0 -0.065093994140625 -0.66796875
17200000000.0 -0.1832275390625 -0.64312744140625
17300000000.0 -0.294158935546875 -0.599029541015625
17400000000.0 -0.39520263671875 -0.536163330078125
17500000000.0 -0.4847412109375 -0.456207275390625
17600000000.0 -0.558929443359375 -0.360626220703125
17700000000.0 -0.613128662109375 -0.254425048828125
17800000000.0 -0.647186279296875 -0.1417236328125
17900000000.0 -0.662353515625 -0.024444580078125
18000000000.0 -0.655487060546875 0.093353271484375
18100000000.0 -0.627777099609375 0.2076416015625
18200000000.0 -0.581268310546875 0.314483642578125
18300000000.0 -0.51739501953125 0.411285400390625
18400000000.0 -0.4391937255859375 0.4951629638671875
18500000000.0 -0.34881591796875 0.564422607421875
18600000000.0 -0.244842529296875 0.618927001953125
18700000000.0 -0.13427734375 0.65447998046875
18800000000.0 -0.017242431640625 0.669036865234375
18900000000.0 0.098907470703125 0.6614990234375
19000000000.0 0.213653564453125 0.6353759765625
19100000000.0 0.32080078125 0.58807373046875
19200000000.0 0.418975830078125 0.524688720703125
19300000000.0 0.502410888671875 0.44390869140625
19400000000.0 0.571746826171875 0.3519287109375
19500000000.0 0.624664306640625 0.245941162109375
19600000000.0 0.656890869140625 0.1363525390625
19700000000.0 0.66943359375 0.020111083984375
19800000000.0 0.66192626953125 -0.09478759765625
19900000000.0 0.63531494140625 -0.207275390625
20000000000.0 0.5904541015625 -0.31201171875
20100000000.0 0.526214599609375 -0.407318115234375
20200000000.0 0.4463653564453125 -0.489898681640625
20300000000.0 0.354827880859375 -0.558135986328125
20400000000.0 0.253936767578125 -0.60791015625
20500000000.0 0.14715576171875 -0.63934326171875
20600000000.0 0.03509521484375 -0.6529541015625
20700000000.0 -0.073486328125 -0.64691162109375
20800000000.0 -0.18035888671875 -0.625732421875
20900000000.0 -0.28607177734375 -0.587127685546875
21000000000.0 -0.38238525390625 -0.528350830078125
21100000000.0 -0.4678955078125 -0.4542999267578125
21200000000.0 -0.53887939453125 -0.36431884765625
21300000000.0 -0.590362548828125 -0.2662353515625
21400000000.0 -0.6265869140625 -0.1588134765625
21500000000.0 -0.6417236328125 -0.045440673828125
21600000000.0 -0.6375732421875 0.064544677734375
21700000000.0 -0.61260986328125 0.175018310546875
21800000000.0 -0.569793701171875 0.27764892578125
21900000000.0 -0.509185791015625 0.37060546875
22000000000.0 -0.4341583251953125 0.4534759521484375
22100000000.0 -0.34600830078125 0.517364501953125
22200000000.0 -0.24493408203125 0.5684814453125
22300000000.0 -0.140777587890625 0.598846435546875
22400000000.0 -0.030609130859375 0.609130859375
22500000000.0 0.081298828125 0.60198974609375
22600000000.0 0.185760498046875 0.571136474609375
22700000000.0 0.283660888671875 0.5245361328125
22800000000.0 0.371368408203125 0.4599151611328125
22900000000.0 0.4445648193359375 0.383819580078125
23000000000.0 0.505950927734375 0.295654296875
23100000000.0 0.551025390625 0.19775390625
23200000000.0 0.57818603515625 0.089385986328125
23300000000.0 0.58447265625 -0.02215576171875
23400000000.0 0.5679931640625 -0.133544921875
23500000000.0 0.529388427734375 -0.239959716796875
23600000000.0 0.471710205078125 -0.336334228515625
23700000000.0 0.395965576171875 -0.420806884765625
23800000000.0 0.3047027587890625 -0.49066162109375
23900000000.0 0.206024169921875 -0.5382080078125
24000000000.0 0.0968017578125 -0.5697021484375
24100000000.0 -0.016326904296875 -0.576873779296875
24200000000.0 -0.130950927734375 -0.5635986328125
24300000000.0 -0.23712158203125 -0.52978515625
24400000000.0 -0.337738037109375 -0.4762115478515625
24500000000.0 -0.42633056640625 -0.402587890625
24600000000.0 -0.4976654052734375 -0.314849853515625
24700000000.0 -0.55322265625 -0.215240478515625
24800000000.0 -0.5872802734375 -0.108184814453125
24900000000.0 -0.599639892578125 0.003997802734375
25000000000.0 -0.5904541015625 0.117462158203125
25100000000.0 -0.56195068359375 0.22491455078125
25200000000.0 -0.51458740234375 0.32550048828125
25300000000.0 -0.4532623291015625 0.4154205322265625
25400000000.0 -0.37255859375 0.495574951171875
25500000000.0 -0.283477783203125 0.5616455078125
25600000000.0 -0.17913818359375 0.610504150390625
25700000000.0 -0.0697021484375 0.63763427734375
25800000000.0 0.044281005859375 0.64617919921875
25900000000.0 0.159454345703125 0.633819580078125
26000000000.0 0.26910400390625 0.601226806640625
26100000000.0 0.370635986328125 0.551177978515625
26200000000.0 0.4643096923828125 0.4822540283203125
26300000000.0 0.541534423828125 0.401824951171875
26400000000.0 0.606536865234375 0.306365966796875
26500000000.0 0.653167724609375 0.202178955078125
