!Created with skrf (http://scikit-rf.org).
# Hz S RI R 50.0 
!freq ReS11 ImS11 ReS21 ImS21 ReS12 ImS12 ReS22 ImS22
1000000000.0 0.07398223876953125 -0.20905303955078125 -0.82171630859375 -0.39154052734375 -0.822235107421875 -0.392242431640625 0.076080322265625 -0.2090301513671875
1100000000.0 0.01111602783203125 -0.215545654296875 -0.902069091796875 -0.108062744140625 -0.902587890625 -0.1085205078125 0.01348114013671875 -0.214752197265625
1200000000.0 -0.04692840576171875 -0.202056884765625 -0.888275146484375 0.181365966796875 -0.889190673828125 0.18115234375 -0.04360198974609375 -0.20310211181640625
1300000000.0 -0.095062255859375 -0.17331695556640625 -0.785797119140625 0.447998046875 -0.78680419921875 0.44830322265625 -0.09259796142578125 -0.1757049560546875
1400000000.0 -0.12989044189453125 -0.1349334716796875 -0.607635498046875 0.667388916015625 -0.608184814453125 0.6673583984375 -0.1269378662109375 -0.1367340087890625
1500000000.0 -0.1504669189453125 -0.09200286865234375 -0.3724365234375 0.819610595703125 -0.373016357421875 0.819580078125 -0.1466064453125 -0.09478759765625
1600000000.0 -0.1565399169921875 -0.0493621826171875 -0.104278564453125 0.89154052734375 -0.10467529296875 0.891754150390625 -0.15436553955078125 -0.05265045166015625
1700000000.0 -0.15052032470703125 -0.0107879638671875 0.1708984375 0.8787841796875 0.17059326171875 0.879058837890625 -0.14951324462890625 -0.013275146484375
1800000000.0 -0.13588714599609375 0.02093505859375 0.427520751953125 0.783935546875 0.42724609375 0.7843017578125 -0.1353302001953125 0.0189971923828125
1900000000.0 -0.11649322509765625 0.04494476318359375 0.64178466796875 0.616912841796875 0.6416015625 0.6173095703125 -0.11534500122070312 0.04384613037109375
2000000000.0 -0.09521102905273438 0.0609893798828125 0.795013427734375 0.394378662109375 0.7950439453125 0.394927978515625 -0.09138870239257812 0.05957794189453125
2100000000.0 -0.07442474365234375 0.07004928588867188 0.873992919921875 0.1378173828125 0.873992919921875 0.138153076171875 -0.06867599487304688 0.06658554077148438
2200000000.0 -0.05474090576171875 0.07318496704101562 0.872344970703125 -0.129302978515625 0.872650146484375 -0.128875732421875 -0.048442840576171875 0.06850814819335938
2300000000.0 -0.037624359130859375 0.0721435546875 0.791595458984375 -0.38189697265625 0.791961669921875 -0.381561279296875 -0.029499053955078125 0.06500244140625
2400000000.0 -0.02356719970703125 0.06877517700195312 0.640106201171875 -0.598052978515625 0.640350341796875 -0.597900390625 -0.016317367553710938 0.056797027587890625
2500000000.0 -0.012577056884765625 0.0644989013671875 0.432037353515625 -0.758697509765625 0.432403564453125 -0.758270263671875 -0.008335113525390625 0.04850959777832031
2600000000.0 -0.0038623809814453125 0.0599365234375 0.18695068359375 -0.849517822265625 0.18719482421875 -0.849945068359375 -0.00275421142578125 0.040531158447265625
2700000000.0 0.0032711029052734375 0.05509376525878906 -0.072662353515625 -0.86383056640625 -0.07232666015625 -0.864227294921875 -0.000766754150390625 0.03250312805175781
2800000000.0 0.009550094604492188 0.04927825927734375 -0.323883056640625 -0.80096435546875 -0.32373046875 -0.8016357421875 -0.0016765594482421875 0.02672100067138672
2900000000.0 0.01486968994140625 0.04246711730957031 -0.544158935546875 -0.66754150390625 -0.544219970703125 -0.66796875 -0.0031299591064453125 0.021849632263183594
3000000000.0 0.018636703491210938 0.03468894958496094 -0.714569091796875 -0.4757080078125 -0.7144775390625 -0.47607421875 -0.0064792633056640625 0.019445419311523438
3100000000.0 0.019881248474121094 0.02641582489013672 -0.82000732421875 -0.243255615234375 -0.8203125 -0.24383544921875 -0.00946044921875 0.01851654052734375
3200000000.0 0.017705917358398438 0.018762588500976562 -0.85247802734375 0.00897216796875 -0.85260009765625 0.008544921875 -0.012454986572265625 0.018036842346191406
3300000000.0 0.01254415512084961 0.012309551239013672 -0.809326171875 0.2584228515625 -0.8094482421875 0.258087158203125 -0.017789840698242188 0.01911449432373047
3400000000.0 0.004654407501220703 0.008128166198730469 -0.69525146484375 0.4830322265625 -0.695343017578125 0.4827880859375 -0.022502899169921875 0.02376270294189453
3500000000.0 -0.004945993423461914 0.007620096206665039 -0.52081298828125 0.663482666015625 -0.5208740234375 0.663421630859375 -0.02551555633544922 0.02986907958984375
3600000000.0 -0.015094757080078125 0.011926651000976562 -0.302215576171875 0.78424072265625 -0.30224609375 0.7840576171875 -0.028596878051757812 0.03796958923339844
3700000000.0 -0.022983551025390625 0.02193737030029297 -0.05865478515625 0.83526611328125 -0.058624267578125 0.83544921875 -0.029569625854492188 0.050739288330078125
3800000000.0 -0.026874542236328125 0.037261962890625 0.18804931640625 0.812896728515625 0.187652587890625 0.813232421875 -0.0242919921875 0.0649566650390625
3900000000.0 -0.02407073974609375 0.055324554443359375 0.41619873046875 0.719818115234375 0.415924072265625 0.719970703125 -0.0144500732421875 0.078857421875
4000000000.0 -0.0133514404296875 0.07290267944335938 0.606292724609375 0.564666748046875 0.606048583984375 0.564666748046875 0.001438140869140625 0.091217041015625
4100000000.0 0.004791259765625 0.08669281005859375 0.74212646484375 0.3614501953125 0.741943359375 0.3616943359375 0.022327423095703125 0.09919357299804688
4200000000.0 0.02910614013671875 0.09365081787109375 0.812591552734375 0.1287841796875 0.8125 0.12884521484375 0.046627044677734375 0.10091018676757812
4300000000.0 0.0565643310546875 0.09226226806640625 0.81219482421875 -0.1134033203125 0.811981201171875 -0.11322021484375 0.07347488403320312 0.09504318237304688
4400000000.0 0.08391189575195312 0.08147048950195312 0.74151611328125 -0.344024658203125 0.741455078125 -0.343841552734375 0.09783554077148438 0.07932662963867188
4500000000.0 0.1072845458984375 0.061397552490234375 0.607391357421875 -0.54351806640625 0.607330322265625 -0.54351806640625 0.11620330810546875 0.057308197021484375
4600000000.0 0.12302017211914062 0.033618927001953125 0.421539306640625 -0.695098876953125 0.421630859375 -0.694915771484375 0.12860870361328125 0.03075408935546875
4700000000.0 0.1283416748046875 0.0011444091796875 0.200286865234375 -0.7857666015625 0.20050048828125 -0.78582763671875 0.13277435302734375 0.00060272216796875
4800000000.0 0.1222991943359375 -0.031368255615234375 -0.037261962890625 -0.808502197265625 -0.037078857421875 -0.80859375 0.12551116943359375 -0.02838134765625
4900000000.0 0.10609817504882812 -0.059169769287109375 -0.270965576171875 -0.76104736328125 -0.27044677734375 -0.760986328125 0.1114501953125 -0.05130767822265625
5000000000.0 0.08263397216796875 -0.07812118530273438 -0.48016357421875 -0.64764404296875 -0.479827880859375 -0.647705078125 0.09312057495117188 -0.06830215454101562
5100000000.0 0.05553436279296875 -0.08675384521484375 -0.6470947265625 -0.47857666015625 -0.646636962890625 -0.478729248046875 0.07234954833984375 -0.07757568359375
5200000000.0 0.02976226806640625 -0.08475494384765625 -0.7572021484375 -0.268157958984375 -0.7568359375 -0.268402099609375 0.0532379150390625 -0.07920455932617188
5300000000.0 0.009059906005859375 -0.074737548828125 -0.8006591796875 -0.03515625 -0.800018310546875 -0.0355224609375 0.03833770751953125 -0.0755157470703125
5400000000.0 -0.003238677978515625 -0.05957603454589844 -0.77423095703125 0.199798583984375 -0.77374267578125 0.199798583984375 0.028652191162109375 -0.06822967529296875
5500000000.0 -0.0064754486083984375 -0.04341888427734375 -0.68017578125 0.41632080078125 -0.679718017578125 0.416290283203125 0.026388168334960938 -0.06215095520019531
5600000000.0 -0.0009298324584960938 -0.03025531768798828 -0.52691650390625 0.59515380859375 -0.527191162109375 0.59490966796875 0.026966094970703125 -0.06087303161621094
5700000000.0 0.010773658752441406 -0.02455615997314453 -0.329071044921875 0.720794677734375 -0.329132080078125 0.720855712890625 0.02883148193359375 -0.062198638916015625
5800000000.0 0.023183822631835938 -0.027891159057617188 -0.104034423828125 0.782958984375 -0.104217529296875 0.782806396484375 0.031162261962890625 -0.06890487670898438
5900000000.0 0.03162384033203125 -0.04016876220703125 0.12841796875 0.77642822265625 0.128448486328125 0.776519775390625 0.029415130615234375 -0.0829010009765625
6000000000.0 0.033092498779296875 -0.05817604064941406 0.348052978515625 0.702972412109375 0.3477783203125 0.7030029296875 0.019512176513671875 -0.09511184692382812
6100000000.0 0.024749755859375 -0.07754898071289062 0.535614013671875 0.569244384765625 0.53558349609375 0.56915283203125 0.00428009033203125 -0.10790252685546875
6200000000.0 0.005840301513671875 -0.0943756103515625 0.67584228515625 0.3875732421875 0.675537109375 0.387847900390625 -0.017551422119140625 -0.11417007446289062
6300000000.0 -0.020084381103515625 -0.10234451293945312 0.756988525390625 0.1739501953125 0.75689697265625 0.173980712890625 -0.04257965087890625 -0.1150360107421875
6400000000.0 -0.049953460693359375 -0.10025787353515625 0.772796630859375 -0.053619384765625 0.772613525390625 -0.053558349609375 -0.068389892578125 -0.10747528076171875
6500000000.0 -0.07895278930664062 -0.08582305908203125 0.721954345703125 -0.27520751953125 0.722076416015625 -0.274993896484375 -0.09175872802734375 -0.08979415893554688
6600000000.0 -0.10152435302734375 -0.060901641845703125 0.609405517578125 -0.47216796875 0.609619140625 -0.47222900390625 -0.10766983032226562 -0.0642547607421875
6700000000.0 -0.1138916015625 -0.029010772705078125 0.444122314453125 -0.62786865234375 0.44464111328125 -0.627716064453125 -0.11483383178710938 -0.036800384521484375
6800000000.0 -0.11383819580078125 0.005321502685546875 0.241180419921875 -0.728515625 0.241455078125 -0.728485107421875 -0.11367416381835938 -0.00890350341796875
6900000000.0 -0.10158538818359375 0.036640167236328125 0.017913818359375 -0.76513671875 0.0181884765625 -0.765167236328125 -0.10258865356445312 0.018337249755859375
7000000000.0 -0.07928085327148438 0.06098175048828125 -0.20574951171875 -0.734527587890625 -0.205413818359375 -0.734619140625 -0.08304595947265625 0.036846160888671875
7100000000.0 -0.050445556640625 0.07423782348632812 -0.409637451171875 -0.639984130859375 -0.4091796875 -0.640045166015625 -0.0601806640625 0.045574188232421875
7200000000.0 -0.020843505859375 0.07534408569335938 -0.575775146484375 -0.490234375 -0.575592041015625 -0.490386962890625 -0.03798675537109375 0.0443115234375
7300000000.0 0.00565338134765625 0.06632614135742188 -0.688720703125 -0.2994384765625 -0.68853759765625 -0.299591064453125 -0.019742965698242188 0.03293800354003906
7400000000.0 0.028059005737304688 0.04622459411621094 -0.740386962890625 -0.089111328125 -0.740234375 -0.08892822265625 -0.012988090515136719 0.012490272521972656
7500000000.0 0.0370025634765625 0.015354156494140625 -0.734100341796875 0.124603271484375 -0.733795166015625 0.124969482421875 -0.021875381469726562 -0.0038013458251953125
7600000000.0 0.0262603759765625 -0.013330459594726562 -0.668548583984375 0.33172607421875 -0.66845703125 0.3316650390625 -0.03617286682128906 -0.00959014892578125
7700000000.0 0.0040454864501953125 -0.029340744018554688 -0.5433349609375 0.51275634765625 -0.543548583984375 0.51300048828125 -0.04979896545410156 -0.006191253662109375
7800000000.0 -0.021492958068847656 -0.031225204467773438 -0.36932373046875 0.648834228515625 -0.369598388671875 0.64898681640625 -0.06062507629394531 0.0033130645751953125
7900000000.0 -0.04366874694824219 -0.020517349243164062 -0.16357421875 0.72705078125 -0.16363525390625 0.727325439453125 -0.06750106811523438 0.0166168212890625
8000000000.0 -0.05741119384765625 -0.0008792877197265625 0.0557861328125 0.74151611328125 0.055328369140625 0.74169921875 -0.0691375732421875 0.033908843994140625
8100000000.0 -0.06031036376953125 0.02264404296875 0.2684326171875 0.6915283203125 0.26812744140625 0.69171142578125 -0.06382369995117188 0.053081512451171875
8200000000.0 -0.052410125732421875 0.044574737548828125 0.456939697265625 0.58203125 0.4566650390625 0.582244873046875 -0.049678802490234375 0.06942367553710938
8300000000.0 -0.03569221496582031 0.06080436706542969 0.60498046875 0.423126220703125 0.60498046875 0.423370361328125 -0.030658721923828125 0.07928085327148438
8400000000.0 -0.01444244384765625 0.068084716796875 0.70062255859375 0.228485107421875 0.70068359375 0.228546142578125 -0.008968353271484375 0.08180618286132812
8500000000.0 0.007633209228515625 0.0654144287109375 0.735748291015625 0.014739990234375 0.735595703125 0.014892578125 0.011043548583984375 0.07585525512695312
8600000000.0 0.025005340576171875 0.054233551025390625 0.706878662109375 -0.19976806640625 0.70684814453125 -0.19989013671875 0.027515411376953125 0.06319427490234375
8700000000.0 0.03553199768066406 0.03691673278808594 0.61688232421875 -0.39666748046875 0.616943359375 -0.396728515625 0.036663055419921875 0.04543113708496094
8800000000.0 0.036281585693359375 0.018354415893554688 0.473388671875 -0.558441162109375 0.473541259765625 -0.558563232421875 0.03668212890625 0.0262908935546875
8900000000.0 0.02907085418701172 0.0023488998413085938 0.288818359375 -0.671417236328125 0.288970947265625 -0.671173095703125 0.02987194061279297 0.01123046875
9000000000.0 0.015626907348632812 -0.007080078125 0.0797119140625 -0.72491455078125 0.07989501953125 -0.724700927734375 0.017952919006347656 0.0025053024291992188
9100000000.0 0.0003075599670410156 -0.007906436920166016 -0.135528564453125 -0.7147216796875 -0.135406494140625 -0.714447021484375 0.0038306713104248047 0.00044715404510498047
9200000000.0 -0.013391971588134766 -0.0012631416320800781 -0.337554931640625 -0.64190673828125 -0.337432861328125 -0.641632080078125 -0.007880687713623047 0.006473541259765625
9300000000.0 -0.021300315856933594 0.011631011962890625 -0.50860595703125 -0.513336181640625 -0.508697509765625 -0.51318359375 -0.015122413635253906 0.01769256591796875
9400000000.0 -0.02161121368408203 0.02666473388671875 -0.63427734375 -0.3409423828125 -0.63427734375 -0.340789794921875 -0.013269424438476562 0.03174591064453125
9500000000.0 -0.014528274536132812 0.04086494445800781 -0.703369140625 -0.14031982421875 -0.703338623046875 -0.14013671875 -0.00426483154296875 0.04401206970214844
9600000000.0 -0.0012035369873046875 0.0511932373046875 -0.71075439453125 0.070831298828125 -0.710693359375 0.07098388671875 0.010190963745117188 0.05150794982910156
9700000000.0 0.01617431640625 0.05476188659667969 -0.65643310546875 0.273834228515625 -0.656402587890625 0.2740478515625 0.027658462524414062 0.051959991455078125
9800000000.0 0.03495979309082031 0.05053520202636719 -0.5458984375 0.451416015625 -0.5460205078125 0.451446533203125 0.0455780029296875 0.045207977294921875
9900000000.0 0.05038642883300781 0.038578033447265625 -0.389007568359375 0.588653564453125 -0.38897705078125 0.588592529296875 0.05964851379394531 0.029415130615234375
10000000000.0 0.06049346923828125 0.0208740234375 -0.199737548828125 0.67388916015625 -0.199798583984375 0.67376708984375 0.065704345703125 0.010498046875
10100000000.0 0.062896728515625 0.000659942626953125 0.0054931640625 0.699981689453125 0.005401611328125 0.699859619140625 0.06525802612304688 -0.01111602783203125
10200000000.0 0.057281494140625 -0.019428253173828125 0.208709716796875 0.665283203125 0.208526611328125 0.665069580078125 0.05599403381347656 -0.031463623046875
10300000000.0 0.04417228698730469 -0.03600120544433594 0.391815185546875 0.572845458984375 0.3914794921875 0.572113037109375 0.04078483581542969 -0.046413421630859375
10400000000.0 0.0257415771484375 -0.046482086181640625 0.5391845703125 0.430908203125 0.539337158203125 0.431060791015625 0.0190582275390625 -0.05482292175292969
10500000000.0 0.00469207763671875 -0.04957771301269531 0.638275146484375 0.253204345703125 0.637969970703125 0.2532958984375 -0.00299072265625 -0.054897308349609375
10600000000.0 -0.016658782958984375 -0.04435157775878906 0.679443359375 0.05584716796875 0.679534912109375 0.055755615234375 -0.023525238037109375 -0.046062469482421875
10700000000.0 -0.03448295593261719 -0.03166770935058594 0.6614990234375 -0.143463134765625 0.661346435546875 -0.14324951171875 -0.04003143310546875 -0.030979156494140625
10800000000.0 -0.046115875244140625 -0.012376785278320312 0.586639404296875 -0.32598876953125 0.586578369140625 -0.326171875 -0.04941749572753906 -0.009656906127929688
10900000000.0 -0.04937744140625 0.009708404541015625 0.463653564453125 -0.47760009765625 0.463714599609375 -0.477264404296875 -0.049388885498046875 0.014589309692382812
11000000000.0 -0.043987274169921875 0.030965805053710938 0.3046875 -0.58599853515625 0.30487060546875 -0.5855712890625 -0.037609100341796875 0.03663444519042969
11100000000.0 -0.031232833862304688 0.04858589172363281 0.1239013671875 -0.643798828125 0.12396240234375 -0.643524169921875 -0.019702911376953125 0.05033683776855469
11200000000.0 -0.013933181762695312 0.06073760986328125 -0.063995361328125 -0.648345947265625 -0.063873291015625 -0.648223876953125 0.003688812255859375 0.05679130554199219
11300000000.0 0.0070343017578125 0.06573104858398438 -0.243316650390625 -0.600738525390625 -0.243316650390625 -0.60052490234375 0.02606964111328125 0.049713134765625
11400000000.0 0.02886199951171875 0.06229591369628906 -0.40179443359375 -0.506561279296875 -0.401641845703125 -0.5064697265625 0.043170928955078125 0.03726959228515625
11500000000.0 0.047245025634765625 0.05065345764160156 -0.528778076171875 -0.372802734375 -0.5284423828125 -0.37286376953125 0.05122184753417969 0.016605377197265625
11600000000.0 0.057891845703125 0.034076690673828125 -0.61480712890625 -0.2081298828125 -0.614532470703125 -0.2081298828125 0.04793357849121094 -0.00041961669921875
11700000000.0 0.06111335754394531 0.016698837280273438 -0.651611328125 -0.023223876953125 -0.6513671875 -0.023406982421875 0.04034233093261719 -0.0126495361328125
11800000000.0 0.058017730712890625 0.0025157928466796875 -0.633392333984375 0.16656494140625 -0.633087158203125 0.16632080078125 0.03205108642578125 -0.018421173095703125
11900000000.0 0.052295684814453125 -0.0073089599609375 -0.559417724609375 0.3447265625 -0.55938720703125 0.344482421875 0.024852752685546875 -0.020702362060546875
12000000000.0 0.04617118835449219 -0.013629913330078125 -0.4358367919921875 0.494293212890625 -0.435577392578125 0.494110107421875 0.01875019073486328 -0.02001190185546875
12100000000.0 0.040950775146484375 -0.017168045043945312 -0.272857666015625 0.600860595703125 -0.272796630859375 0.600677490234375 0.016901016235351562 -0.01810932159423828
12200000000.0 0.037288665771484375 -0.019819259643554688 -0.08526611328125 0.65478515625 -0.085235595703125 0.65478515625 0.015575408935546875 -0.01789379119873047
12300000000.0 0.03452491760253906 -0.022449493408203125 0.110107421875 0.65130615234375 0.11004638671875 0.651031494140625 0.015300750732421875 -0.019832611083984375
12400000000.0 0.03205299377441406 -0.02496337890625 0.2955322265625 0.5902099609375 0.295623779296875 0.589752197265625 0.014700889587402344 -0.021572113037109375
12500000000.0 0.02883148193359375 -0.028003692626953125 0.4550933837890625 0.47760009765625 0.454803466796875 0.477447509765625 0.012468338012695312 -0.02323150634765625
12600000000.0 0.025333404541015625 -0.031524658203125 0.574005126953125 0.323516845703125 0.573822021484375 0.32330322265625 0.01032257080078125 -0.025262832641601562
12700000000.0 0.021099090576171875 -0.033870697021484375 0.64239501953125 0.141204833984375 0.642425537109375 0.141326904296875 0.007946014404296875 -0.02690410614013672
12800000000.0 0.016473770141601562 -0.03532981872558594 0.65478515625 -0.052642822265625 0.654632568359375 -0.0526123046875 0.0048503875732421875 -0.027795791625976562
12900000000.0 0.011854171752929688 -0.03580284118652344 0.609619140625 -0.241241455078125 0.609710693359375 -0.2412109375 0.0033292770385742188 -0.02890300750732422
