!Created with skrf (http://scikit-rf.org).
# Hz S RI R 50.0 
!freq ReS11 ImS11
30000.0 0.18292236328125 -0.82989501953125
31000.0 0.15606689453125 -0.83013916015625
33000.0 0.1051025390625 -0.82794189453125
36000.0 0.034912109375 -0.82061767578125
41000.0 -0.06634521484375 -0.79864501953125
48500.0 -0.187255859375 -0.75469970703125
58000.0 -0.299285888671875 -0.693267822265625
70000.0 -0.396331787109375 -0.6195068359375
84000.0 -0.470245361328125 -0.5452880859375
100000.0 -0.524932861328125 -0.4761962890625
125000.0 -0.575836181640625 -0.394683837890625
150000.0 -0.605194091796875 -0.335540771484375
175000.0 -0.62353515625 -0.291351318359375
200000.0 -0.635833740234375 -0.257232666015625
225000.0 -0.644561767578125 -0.229736328125
250000.0 -0.650726318359375 -0.207550048828125
275000.0 -0.655364990234375 -0.189483642578125
300000.0 -0.658935546875 -0.17376708984375
325000.0 -0.6617431640625 -0.16064453125
350000.0 -0.6640625 -0.1492919921875
375000.0 -0.665863037109375 -0.139495849609375
400000.0 -0.667388916015625 -0.130859375
425000.0 -0.668609619140625 -0.123046875
450000.0 -0.66961669921875 -0.116180419921875
475000.0 -0.67047119140625 -0.1099853515625
500000.0 -0.671142578125 -0.104339599609375
525000.0 -0.671722412109375 -0.0992431640625
550000.0 -0.67242431640625 -0.09466552734375
575000.0 -0.672882080078125 -0.09051513671875
600000.0 -0.6734619140625 -0.086639404296875
625000.0 -0.6737060546875 -0.082977294921875
650000.0 -0.6741943359375 -0.0797119140625
675000.0 -0.674346923828125 -0.076568603515625
700000.0 -0.6746826171875 -0.07354736328125
725000.0 -0.674896240234375 -0.071136474609375
750000.0 -0.6751708984375 -0.06866455078125
775000.0 -0.675384521484375 -0.0662841796875
800000.0 -0.67547607421875 -0.06402587890625
825000.0 -0.675689697265625 -0.06207275390625
850000.0 -0.675750732421875 -0.060028076171875
875000.0 -0.67596435546875 -0.05810546875
900000.0 -0.6761474609375 -0.056304931640625
925000.0 -0.676177978515625 -0.0546875
950000.0 -0.67645263671875 -0.05316162109375
975000.0 -0.6763916015625 -0.051605224609375
1000000.0 -0.6766357421875 -0.05023193359375
1030000.0 -0.67669677734375 -0.048553466796875
1060000.0 -0.676788330078125 -0.047119140625
1110000.0 -0.676788330078125 -0.044677734375
1170000.0 -0.677001953125 -0.042022705078125
1250000.0 -0.677032470703125 -0.038787841796875
1350000.0 -0.677276611328125 -0.035430908203125
1500000.0 -0.677490234375 -0.031097412109375
1700000.0 -0.677642822265625 -0.026123046875
1950000.0 -0.6776123046875 -0.02142333984375
2250000.0 -0.6778564453125 -0.016876220703125
2750000.0 -0.677825927734375 -0.011260986328125
3500000.0 -0.677978515625 -0.004791259765625
4500000.0 -0.67767333984375 0.00128173828125
6000000.0 -0.677642822265625 0.00830078125
8000000.0 -0.67724609375 0.016204833984375
11000000.0 -0.67657470703125 0.02630615234375
15500000.0 -0.67547607421875 0.040069580078125
22000000.0 -0.673614501953125 0.058624267578125
30000000.0 -0.670440673828125 0.080780029296875
40000000.0 -0.66595458984375 0.10797119140625
52500000.0 -0.659088134765625 0.14111328125
68000000.0 -0.648162841796875 0.181365966796875
86500000.0 -0.63232421875 0.227813720703125
106000000.0 -0.612060546875 0.275299072265625
127500000.0 -0.585784912109375 0.325347900390625
152000000.0 -0.55145263671875 0.37933349609375
180000000.0 -0.506103515625 0.436737060546875
214000000.0 -0.4434051513671875 0.4993133544921875
254000000.0 -0.36041259765625 0.56121826171875
300000000.0 -0.2546446919441223 0.6155741810798645
350000000.0 -0.1311306208372116 0.6528517603874207
400000000.0 -0.003211051458492875 0.6653309464454651
450000000.0 0.12481730431318283 0.6540546417236328
500000000.0 0.2479175478219986 0.6183028221130371
550000000.0 0.36238789558410645 0.5596159100532532
600000000.0 0.4632560610771179 0.4804280996322632
650000000.0 0.5475497841835022 0.3833838403224945
700000000.0 0.611419677734375 0.27227783203125
750000000.0 0.652984619140625 0.1492919921875
800000000.0 0.67047119140625 0.021087646484375
850000000.0 0.662567138671875 -0.1083984375
900000000.0 0.62982177734375 -0.234527587890625
950000000.0 0.57330322265625 -0.352142333984375
1000000000.0 0.4942474365234375 -0.457122802734375
1050000000.0 0.39678955078125 -0.545135498046875
1100000000.0 0.28302001953125 -0.612518310546875
1150000000.0 0.15814208984375 -0.6573486328125
1200000000.0 0.0260009765625 -0.676300048828125
1250000000.0 -0.108245849609375 -0.669525146484375
1300000000.0 -0.239044189453125 -0.636474609375
1350000000.0 -0.361053466796875 -0.5777587890625
1400000000.0 -0.46978759765625 -0.49676513671875
1450000000.0 -0.561187744140625 -0.39306640625
1500000000.0 -0.63031005859375 -0.2735595703125
1550000000.0 -0.674896240234375 -0.14263916015625
1600000000.0 -0.6915283203125 -0.00433349609375
1650000000.0 -0.68133544921875 0.1348876953125
1700000000.0 -0.64276123046875 0.27001953125
1750000000.0 -0.577789306640625 0.3953857421875
1800000000.0 -0.48883056640625 0.506072998046875
1850000000.0 -0.378753662109375 0.5970458984375
1900000000.0 -0.252288818359375 0.664947509765625
1950000000.0 -0.114166259765625 0.706085205078125
2000000000.0 0.03076171875 0.718994140625
2050000000.0 0.1756591796875 0.702728271484375
2100000000.0 0.31585693359375 0.656280517578125
2150000000.0 0.445220947265625 0.5833740234375
2200000000.0 0.55572509765625 0.48504638671875
2250000000.0 0.647674560546875 0.365234375
2300000000.0 0.71246337890625 0.229461669921875
2350000000.0 0.748931884765625 0.081329345703125
2400000000.0 0.755340576171875 -0.0716552734375
2450000000.0 0.729827880859375 -0.223602294921875
2500000000.0 0.6746826171875 -0.368743896484375
2550000000.0 0.590301513671875 -0.50067138671875
2600000000.0 0.48065185546875 -0.613525390625
2650000000.0 0.349334716796875 -0.702423095703125
2700000000.0 0.2015380859375 -0.763458251953125
2750000000.0 0.04376220703125 -0.79302978515625
2800000000.0 -0.117584228515625 -0.7901611328125
2850000000.0 -0.27569580078125 -0.754180908203125
2900000000.0 -0.423248291015625 -0.686859130859375
2950000000.0 -0.554840087890625 -0.589874267578125
3000000000.0 -0.664459228515625 -0.46832275390625
3050000000.0 -0.746795654296875 -0.327301025390625
3100000000.0 -0.7989501953125 -0.1724853515625
3150000000.0 -0.818878173828125 -0.010894775390625
3200000000.0 -0.8057861328125 0.151336669921875
3250000000.0 -0.761627197265625 0.306671142578125
3300000000.0 -0.687713623046875 0.449462890625
3350000000.0 -0.5877685546875 0.574310302734375
3400000000.0 -0.466583251953125 0.676513671875
3450000000.0 -0.328582763671875 0.7523193359375
3500000000.0 -0.180206298828125 0.800811767578125
3550000000.0 -0.02740478515625 0.819061279296875
3600000000.0 0.126068115234375 0.808258056640625
3650000000.0 0.272308349609375 0.77008056640625
3700000000.0 0.4083251953125 0.70526123046875
3750000000.0 0.528717041015625 0.61865234375
3800000000.0 0.63037109375 0.51171875
3850000000.0 0.71051025390625 0.390106201171875
3900000000.0 0.767120361328125 0.2569580078125
3950000000.0 0.799285888671875 0.116790771484375
4000000000.0 0.8060302734375 -0.025665283203125
4050000000.0 0.788543701171875 -0.165924072265625
4100000000.0 0.747039794921875 -0.29901123046875
4150000000.0 0.684295654296875 -0.42364501953125
4200000000.0 0.6014404296875 -0.534912109375
4250000000.0 0.50146484375 -0.63006591796875
4300000000.0 0.38714599609375 -0.70697021484375
4350000000.0 0.261627197265625 -0.763946533203125
4400000000.0 0.12835693359375 -0.79913330078125
4450000000.0 -0.009613037109375 -0.81060791015625
4500000000.0 -0.148712158203125 -0.7984619140625
4550000000.0 -0.283050537109375 -0.762664794921875
4600000000.0 -0.410125732421875 -0.703369140625
4650000000.0 -0.525360107421875 -0.623748779296875
4700000000.0 -0.623870849609375 -0.524810791015625
4750000000.0 -0.704681396484375 -0.411041259765625
4800000000.0 -0.76373291015625 -0.284454345703125
4850000000.0 -0.800933837890625 -0.14959716796875
4900000000.0 -0.813690185546875 -0.011260986328125
4950000000.0 -0.802215576171875 0.1282958984375
5000000000.0 -0.7679443359375 0.26202392578125
5050000000.0 -0.710723876953125 0.387664794921875
5100000000.0 -0.632476806640625 0.501190185546875
5150000000.0 -0.536163330078125 0.599945068359375
5200000000.0 -0.42449951171875 0.679779052734375
5250000000.0 -0.301055908203125 0.73931884765625
5300000000.0 -0.16949462890625 0.77655029296875
5350000000.0 -0.03411865234375 0.79010009765625
5400000000.0 0.100860595703125 0.7802734375
5450000000.0 0.23248291015625 0.746246337890625
5500000000.0 0.356048583984375 0.690704345703125
5550000000.0 0.466888427734375 0.614105224609375
5600000000.0 0.563262939453125 0.5181884765625
5650000000.0 0.641082763671875 0.40728759765625
5700000000.0 0.69671630859375 0.28363037109375
5750000000.0 0.729827880859375 0.151885986328125
5800000000.0 0.736968994140625 0.017364501953125
5850000000.0 0.719329833984375 -0.118072509765625
5900000000.0 0.677398681640625 -0.2462158203125
5950000000.0 0.6092529296875 -0.364654541015625
6000000000.0 0.521331787109375 -0.468231201171875
6050000000.0 0.413665771484375 -0.551910400390625
6100000000.0 0.2923583984375 -0.612518310546875
6150000000.0 0.160858154296875 -0.647491455078125
6200000000.0 0.02288818359375 -0.655181884765625
6250000000.0 -0.11083984375 -0.635528564453125
6300000000.0 -0.237640380859375 -0.586029052734375
6350000000.0 -0.353485107421875 -0.510589599609375
6400000000.0 -0.4485015869140625 -0.4144134521484375
6450000000.0 -0.520111083984375 -0.297454833984375
6500000000.0 -0.565216064453125 -0.168212890625
6550000000.0 -0.579498291015625 -0.032501220703125
6600000000.0 -0.56353759765625 0.10345458984375
6650000000.0 -0.517242431640625 0.231109619140625
6700000000.0 -0.442962646484375 0.3448486328125
6750000000.0 -0.3455657958984375 0.438720703125
6800000000.0 -0.2283935546875 0.506683349609375
6850000000.0 -0.09912109375 0.547760009765625
6900000000.0 0.034759521484375 0.557373046875
6950000000.0 0.167327880859375 0.5362548828125
7000000000.0 0.291473388671875 0.4858551025390625
7050000000.0 0.4011993408203125 0.408172607421875
7100000000.0 0.4906158447265625 0.309326171875
7150000000.0 0.555023193359375 0.19146728515625
7200000000.0 0.593353271484375 0.062103271484375
7250000000.0 0.601898193359375 -0.070556640625
7300000000.0 0.580963134765625 -0.202728271484375
7350000000.0 0.5328369140625 -0.327606201171875
7400000000.0 0.4605255126953125 -0.43829345703125
7450000000.0 0.36541748046875 -0.53240966796875
7500000000.0 0.253204345703125 -0.60406494140625
7550000000.0 0.131011962890625 -0.65234375
7600000000.0 -0.0003662109375 -0.674041748046875
7650000000.0 -0.132537841796875 -0.669281005859375
7700000000.0 -0.2606201171875 -0.640106201171875
7750000000.0 -0.378631591796875 -0.586029052734375
7800000000.0 -0.48638916015625 -0.5103759765625
7850000000.0 -0.576873779296875 -0.416473388671875
7900000000.0 -0.647430419921875 -0.3072509765625
7950000000.0 -0.69708251953125 -0.187896728515625
8000000000.0 -0.72320556640625 -0.0616455078125
8050000000.0 -0.725921630859375 0.06744384765625
8100000000.0 -0.705535888671875 0.193878173828125
8150000000.0 -0.662200927734375 0.3143310546875
8200000000.0 -0.598541259765625 0.425018310546875
8250000000.0 -0.516632080078125 0.52099609375
8300000000.0 -0.419097900390625 0.6011962890625
8350000000.0 -0.30816650390625 0.66241455078125
8400000000.0 -0.18963623046875 0.702880859375
8450000000.0 -0.066070556640625 0.7208251953125
8500000000.0 0.05865478515625 0.7159423828125
8550000000.0 0.1793212890625 0.6895751953125
8600000000.0 0.29205322265625 0.64080810546875
8650000000.0 0.394134521484375 0.572296142578125
8700000000.0 0.481292724609375 0.4869537353515625
8750000000.0 0.549591064453125 0.386932373046875
8800000000.0 0.59765625 0.277008056640625
8850000000.0 0.62249755859375 0.160430908203125
8900000000.0 0.623809814453125 0.0416259765625
8950000000.0 0.60211181640625 -0.073699951171875
9000000000.0 0.55682373046875 -0.18072509765625
9050000000.0 0.4911041259765625 -0.2750091552734375
9100000000.0 0.407745361328125 -0.3520355224609375
