!Created with skrf (http://scikit-rf.org).
# Hz S RI R 50.0 
!freq ReS11 ImS11
1000000000.0 0.786163330078125 -0.46124267578125
1100000000.0 0.56256103515625 -0.72735595703125
1200000000.0 0.2603759765625 -0.888336181640625
1300000000.0 -0.0767822265625 -0.925384521484375
1400000000.0 -0.400238037109375 -0.837249755859375
1500000000.0 -0.669830322265625 -0.636383056640625
1600000000.0 -0.847076416015625 -0.35418701171875
1700000000.0 -0.909271240234375 -0.0281982421875
1800000000.0 -0.847259521484375 0.296966552734375
1900000000.0 -0.669586181640625 0.574554443359375
2000000000.0 -0.403167724609375 0.764617919921875
2100000000.0 -0.087554931640625 0.8408203125
2200000000.0 0.2315673828125 0.79278564453125
2300000000.0 0.50714111328125 0.630157470703125
2400000000.0 0.69744873046875 0.375518798828125
2500000000.0 0.774017333984375 0.07000732421875
2600000000.0 0.727630615234375 -0.238372802734375
2700000000.0 0.568084716796875 -0.502593994140625
2800000000.0 0.32080078125 -0.68359375
2900000000.0 0.025390625 -0.754791259765625
3000000000.0 -0.2723388671875 -0.707855224609375
3100000000.0 -0.527618408203125 -0.553619384765625
3200000000.0 -0.70611572265625 -0.315826416015625
3300000000.0 -0.783203125 -0.02978515625
3400000000.0 -0.7491455078125 0.263153076171875
3500000000.0 -0.61004638671875 0.522491455078125
3600000000.0 -0.38690185546875 0.71258544921875
3700000000.0 -0.111083984375 0.81036376953125
3800000000.0 0.182952880859375 0.8028564453125
3900000000.0 0.4552001953125 0.688629150390625
4000000000.0 0.668365478515625 0.482879638671875
4100000000.0 0.791534423828125 0.212738037109375
4200000000.0 0.8077392578125 -0.085205078125
4300000000.0 0.710693359375 -0.369384765625
4400000000.0 0.513275146484375 -0.59637451171875
4500000000.0 0.242462158203125 -0.730377197265625
4600000000.0 -0.059234619140625 -0.748077392578125
4700000000.0 -0.3427734375 -0.645782470703125
4800000000.0 -0.56243896484375 -0.438507080078125
4900000000.0 -0.678131103515625 -0.16162109375
5000000000.0 -0.670745849609375 0.13543701171875
5100000000.0 -0.545166015625 0.4000244140625
5200000000.0 -0.327178955078125 0.589080810546875
5300000000.0 -0.05560302734375 0.674285888671875
5400000000.0 0.222625732421875 0.646942138671875
5500000000.0 0.4658203125 0.51513671875
5600000000.0 0.63671875 0.30419921875
5700000000.0 0.716217041015625 0.0494384765625
5800000000.0 0.69873046875 -0.213531494140625
5900000000.0 0.5909423828125 -0.451446533203125
6000000000.0 0.4039306640625 -0.63568115234375
6100000000.0 0.167144775390625 -0.742828369140625
6200000000.0 -0.09210205078125 -0.76177978515625
6300000000.0 -0.342041015625 -0.691802978515625
6400000000.0 -0.555206298828125 -0.53875732421875
6500000000.0 -0.703948974609375 -0.317230224609375
6600000000.0 -0.7657470703125 -0.0550537109375
6700000000.0 -0.729736328125 0.21533203125
6800000000.0 -0.5966796875 0.457916259765625
6900000000.0 -0.378997802734375 0.6373291015625
7000000000.0 -0.106842041015625 0.720428466796875
7100000000.0 0.179107666015625 0.690826416015625
7200000000.0 0.430328369140625 0.55023193359375
7300000000.0 0.60369873046875 0.321929931640625
7400000000.0 0.671356201171875 0.047607421875
7500000000.0 0.625274658203125 -0.231903076171875
7600000000.0 0.4730377197265625 -0.46759033203125
7700000000.0 0.2413330078125 -0.61907958984375
7800000000.0 -0.025238037109375 -0.6636962890625
7900000000.0 -0.281036376953125 -0.60357666015625
8000000000.0 -0.489288330078125 -0.454803466796875
8100000000.0 -0.62445068359375 -0.2435302734375
8200000000.0 -0.67144775390625 -0.002960205078125
8300000000.0 -0.630859375 0.233734130859375
8400000000.0 -0.510986328125 0.439178466796875
8500000000.0 -0.3289794921875 0.588623046875
8600000000.0 -0.106781005859375 0.665191650390625
8700000000.0 0.128204345703125 0.658935546875
8800000000.0 0.347503662109375 0.5699462890625
8900000000.0 0.52325439453125 0.40814208984375
9000000000.0 0.630523681640625 0.1922607421875
9100000000.0 0.652099609375 -0.0517578125
9200000000.0 0.58160400390625 -0.28826904296875
9300000000.0 0.4259185791015625 -0.485107421875
9400000000.0 0.20526123046875 -0.60992431640625
9500000000.0 -0.051605224609375 -0.63946533203125
9600000000.0 -0.302703857421875 -0.563385009765625
9700000000.0 -0.501007080078125 -0.391510009765625
9800000000.0 -0.612152099609375 -0.155517578125
9900000000.0 -0.61871337890625 0.100555419921875
10000000000.0 -0.524017333984375 0.335906982421875
10100000000.0 -0.347015380859375 0.509552001953125
10200000000.0 -0.1209716796875 0.59698486328125
10300000000.0 0.11602783203125 0.589447021484375
10400000000.0 0.3237762451171875 0.4930419921875
10500000000.0 0.475067138671875 0.3289337158203125
10600000000.0 0.549407958984375 0.126068115234375
10700000000.0 0.541107177734375 -0.08251953125
10800000000.0 0.4586334228515625 -0.2638092041015625
10900000000.0 0.32330322265625 -0.3957672119140625
11000000000.0 0.1590423583984375 -0.4688568115234375
11100000000.0 -0.0142669677734375 -0.481597900390625
11200000000.0 -0.17620849609375 -0.4359130859375
11300000000.0 -0.3097991943359375 -0.3441619873046875
11400000000.0 -0.4066162109375 -0.2161102294921875
11500000000.0 -0.46136474609375 -0.065948486328125
11600000000.0 -0.4674530029296875 0.1030731201171875
11700000000.0 -0.4116058349609375 0.2740936279296875
11800000000.0 -0.28948974609375 0.42132568359375
11900000000.0 -0.11273193359375 0.51458740234375
12000000000.0 0.092010498046875 0.53424072265625
12100000000.0 0.2949066162109375 0.4716033935546875
12200000000.0 0.4597320556640625 0.333587646484375
12300000000.0 0.56097412109375 0.140045166015625
12400000000.0 0.58135986328125 -0.078155517578125
12500000000.0 0.5177001953125 -0.2877197265625
12600000000.0 0.3799896240234375 -0.460357666015625
12700000000.0 0.18853759765625 -0.568878173828125
12800000000.0 -0.029571533203125 -0.599090576171875
12900000000.0 -0.242156982421875 -0.546661376953125
13000000000.0 -0.419830322265625 -0.4185791015625
13100000000.0 -0.53656005859375 -0.236083984375
13200000000.0 -0.577178955078125 -0.023223876953125
13300000000.0 -0.5350341796875 0.188507080078125
13400000000.0 -0.4163970947265625 0.367462158203125
13500000000.0 -0.2392730712890625 0.487548828125
13600000000.0 -0.03302001953125 0.529022216796875
13700000000.0 0.17254638671875 0.4893341064453125
13800000000.0 0.3446502685546875 0.3733978271484375
13900000000.0 0.4562530517578125 0.201690673828125
14000000000.0 0.4921417236328125 0.0026702880859375
14100000000.0 0.448455810546875 -0.1937103271484375
14200000000.0 0.3342742919921875 -0.35406494140625
14300000000.0 0.169586181640625 -0.4576568603515625
14400000000.0 -0.0193023681640625 -0.4902801513671875
14500000000.0 -0.20416259765625 -0.4499359130859375
14600000000.0 -0.360321044921875 -0.3447418212890625
14700000000.0 -0.46539306640625 -0.1923370361328125
14800000000.0 -0.5084228515625 -0.0120849609375
14900000000.0 -0.4823150634765625 0.1703643798828125
15000000000.0 -0.3937835693359375 0.3309326171875
15100000000.0 -0.2526702880859375 0.450469970703125
15200000000.0 -0.078582763671875 0.51171875
15300000000.0 0.108642578125 0.50714111328125
15400000000.0 0.2825775146484375 0.4331207275390625
15500000000.0 0.4196014404296875 0.3017425537109375
15600000000.0 0.50146484375 0.125152587890625
15700000000.0 0.512359619140625 -0.07025146484375
15800000000.0 0.4492645263671875 -0.2588043212890625
15900000000.0 0.31787109375 -0.41241455078125
16000000000.0 0.1370849609375 -0.505157470703125
16100000000.0 -0.065765380859375 -0.5230712890625
16200000000.0 -0.263763427734375 -0.46099853515625
16300000000.0 -0.42327880859375 -0.32855224609375
16400000000.0 -0.5189208984375 -0.146484375
16500000000.0 -0.53826904296875 0.058929443359375
16600000000.0 -0.4770965576171875 0.2534942626953125
16700000000.0 -0.3508453369140625 0.4090423583984375
16800000000.0 -0.175811767578125 0.50433349609375
16900000000.0 0.017303466796875 0.52691650390625
17000000000.0 0.2028350830078125 0.4753570556640625
17100000000.0 0.3516845703125 0.35943603515625
17200000000.0 0.4449462890625 0.2012481689453125
17300000000.0 0.4715576171875 0.0211639404296875
17400000000.0 0.42950439453125 -0.15118408203125
17500000000.0 0.3261566162109375 -0.2910308837890625
17600000000.0 0.1797637939453125 -0.3791351318359375
17700000000.0 0.0148162841796875 -0.404296875
17800000000.0 -0.1435699462890625 -0.36517333984375
17900000000.0 -0.2737274169921875 -0.26904296875
18000000000.0 -0.3541259765625 -0.132232666015625
18100000000.0 -0.3747711181640625 0.023162841796875
18200000000.0 -0.3347930908203125 0.1734771728515625
18300000000.0 -0.240509033203125 0.295623779296875
18400000000.0 -0.1074676513671875 0.3709716796875
18500000000.0 0.042266845703125 0.389312744140625
18600000000.0 0.1896209716796875 0.34954833984375
18700000000.0 0.309051513671875 0.258758544921875
18800000000.0 0.386871337890625 0.129180908203125
18900000000.0 0.410125732421875 -0.021392822265625
19000000000.0 0.378570556640625 -0.1667938232421875
19100000000.0 0.294158935546875 -0.2939910888671875
19200000000.0 0.171356201171875 -0.3797149658203125
19300000000.0 0.0219268798828125 -0.41632080078125
19400000000.0 -0.128631591796875 -0.394683837890625
19500000000.0 -0.2619781494140625 -0.321807861328125
19600000000.0 -0.3602752685546875 -0.2026519775390625
19700000000.0 -0.409454345703125 -0.0583648681640625
19800000000.0 -0.402862548828125 0.0955047607421875
19900000000.0 -0.34149169921875 0.23675537109375
20000000000.0 -0.2311248779296875 0.347991943359375
20100000000.0 -0.089874267578125 0.413177490234375
20200000000.0 0.0670166015625 0.4223785400390625
20300000000.0 0.2193145751953125 0.372772216796875
20400000000.0 0.3443756103515625 0.2713470458984375
20500000000.0 0.4249114990234375 0.12890625
20600000000.0 0.4455108642578125 -0.03558349609375
20700000000.0 0.4053497314453125 -0.19512939453125
20800000000.0 0.3077850341796875 -0.3303985595703125
20900000000.0 0.16461181640625 -0.4203033447265625
21000000000.0 -0.0004730224609375 -0.448822021484375
21100000000.0 -0.165130615234375 -0.414306640625
21200000000.0 -0.305084228515625 -0.3190460205078125
21300000000.0 -0.3961944580078125 -0.1800079345703125
21400000000.0 -0.4307708740234375 -0.014801025390625
21500000000.0 -0.397216796875 0.1530609130859375
21600000000.0 -0.3040771484375 0.2919464111328125
21700000000.0 -0.1613006591796875 0.3869171142578125
21800000000.0 0.0055084228515625 0.4188079833984375
21900000000.0 0.1735687255859375 0.3839263916015625
22000000000.0 0.314605712890625 0.2889556884765625
22100000000.0 0.410797119140625 0.14373779296875
22200000000.0 0.44537353515625 -0.024169921875
22300000000.0 0.4127197265625 -0.1943359375
22400000000.0 0.3216094970703125 -0.341949462890625
22500000000.0 0.1835784912109375 -0.4430999755859375
22600000000.0 0.016448974609375 -0.4911651611328125
22700000000.0 -0.155120849609375 -0.4738922119140625
22800000000.0 -0.308197021484375 -0.3986358642578125
22900000000.0 -0.4244384765625 -0.2732696533203125
23000000000.0 -0.488433837890625 -0.1168670654296875
23100000000.0 -0.4935302734375 0.052337646484375
23200000000.0 -0.437042236328125 0.210205078125
23300000000.0 -0.3255767822265625 0.3369140625
23400000000.0 -0.1768035888671875 0.4110870361328125
23500000000.0 -0.0111236572265625 0.4221649169921875
23600000000.0 0.1450347900390625 0.366973876953125
23700000000.0 0.2638702392578125 0.25048828125
23800000000.0 0.321197509765625 0.0933074951171875
23900000000.0 0.306915283203125 -0.069610595703125
24000000000.0 0.2186126708984375 -0.2125396728515625
24100000000.0 0.0766143798828125 -0.29840087890625
24200000000.0 -0.0915069580078125 -0.31378173828125
24300000000.0 -0.2466888427734375 -0.2557830810546875
24400000000.0 -0.36480712890625 -0.1374359130859375
24500000000.0 -0.4239044189453125 0.0200653076171875
24600000000.0 -0.4151611328125 0.18603515625
24700000000.0 -0.34783935546875 0.3348388671875
24800000000.0 -0.230499267578125 0.447967529296875
24900000000.0 -0.080963134765625 0.513824462890625
25000000000.0 0.08160400390625 0.526031494140625
25100000000.0 0.2357635498046875 0.4831390380859375
25200000000.0 0.3677520751953125 0.3924713134765625
25300000000.0 0.461090087890625 0.2647705078125
25400000000.0 0.510833740234375 0.113525390625
25500000000.0 0.50250244140625 -0.042999267578125
25600000000.0 0.443206787109375 -0.1875
25700000000.0 0.335174560546875 -0.303314208984375
25800000000.0 0.1935577392578125 -0.3694000244140625
25900000000.0 0.03912353515625 -0.3760528564453125
26000000000.0 -0.1052703857421875 -0.32073974609375
26100000000.0 -0.21378326416015625 -0.20920562744140625
26200000000.0 -0.2615966796875 -0.0649566650390625
26300000000.0 -0.24359130859375 0.088592529296875
26400000000.0 -0.158935546875 0.21518707275390625
26500000000.0 -0.0281219482421875 0.29315185546875
