!Created with skrf (http://scikit-rf.org).
# Hz S RI R 50.0 
!freq ReS11 ImS11
1000000000.0 -0.00823974609375 0.875823974609375
1100000000.0 0.1756591796875 0.853515625
1200000000.0 0.344329833984375 0.796478271484375
1300000000.0 0.494049072265625 0.709381103515625
1400000000.0 0.620941162109375 0.596588134765625
1500000000.0 0.721923828125 0.464111328125
1600000000.0 0.794830322265625 0.316619873046875
1700000000.0 0.838165283203125 0.15972900390625
1800000000.0 0.851165771484375 -0.001068115234375
1900000000.0 0.834136962890625 -0.15985107421875
2000000000.0 0.788299560546875 -0.311767578125
2100000000.0 0.7159423828125 -0.451141357421875
2200000000.0 0.620208740234375 -0.574920654296875
2300000000.0 0.50390625 -0.67926025390625
2400000000.0 0.36761474609375 -0.761322021484375
2500000000.0 0.2213134765625 -0.811859130859375
2600000000.0 0.070098876953125 -0.837158203125
2700000000.0 -0.08306884765625 -0.835235595703125
2800000000.0 -0.232879638671875 -0.805572509765625
2900000000.0 -0.37506103515625 -0.7493896484375
3000000000.0 -0.50433349609375 -0.66851806640625
3100000000.0 -0.6165771484375 -0.565948486328125
3200000000.0 -0.708282470703125 -0.445281982421875
3300000000.0 -0.77655029296875 -0.310638427734375
3400000000.0 -0.8194580078125 -0.166351318359375
3500000000.0 -0.836090087890625 -0.01708984375
3600000000.0 -0.82574462890625 0.13232421875
3700000000.0 -0.788818359375 0.2772216796875
3800000000.0 -0.727142333984375 0.412689208984375
3900000000.0 -0.642791748046875 0.5347900390625
4000000000.0 -0.53851318359375 0.639739990234375
4100000000.0 -0.41796875 0.724578857421875
4200000000.0 -0.28448486328125 0.786651611328125
4300000000.0 -0.142822265625 0.824310302734375
4400000000.0 0.002410888671875 0.8369140625
4500000000.0 0.146636962890625 0.824981689453125
4600000000.0 0.288970947265625 0.78997802734375
4700000000.0 0.423614501953125 0.72711181640625
4800000000.0 0.542572021484375 0.642303466796875
4900000000.0 0.64483642578125 0.53887939453125
5000000000.0 0.7276611328125 0.420135498046875
5100000000.0 0.7889404296875 0.289093017578125
5200000000.0 0.826446533203125 0.14984130859375
5300000000.0 0.839996337890625 0.006378173828125
5400000000.0 0.8284912109375 -0.1370849609375
5500000000.0 0.79254150390625 -0.276123046875
5600000000.0 0.733612060546875 -0.406707763671875
5700000000.0 0.653076171875 -0.525604248046875
5800000000.0 0.55413818359375 -0.628662109375
5900000000.0 0.438690185546875 -0.713348388671875
6000000000.0 0.310943603515625 -0.776885986328125
6100000000.0 0.17401123046875 -0.817413330078125
6200000000.0 0.0325927734375 -0.8338623046875
6300000000.0 -0.10943603515625 -0.826171875
6400000000.0 -0.2476806640625 -0.79425048828125
6500000000.0 -0.378265380859375 -0.7393798828125
6600000000.0 -0.497161865234375 -0.662933349609375
6700000000.0 -0.600738525390625 -0.568023681640625
6800000000.0 -0.6866455078125 -0.458221435546875
6900000000.0 -0.75537109375 -0.3363037109375
7000000000.0 -0.802703857421875 -0.201019287109375
7100000000.0 -0.82366943359375 -0.060028076171875
7200000000.0 -0.82000732421875 0.0814208984375
7300000000.0 -0.792510986328125 0.2193603515625
7400000000.0 -0.742034912109375 0.35028076171875
7500000000.0 -0.6700439453125 0.470458984375
7600000000.0 -0.57867431640625 0.576446533203125
7700000000.0 -0.4713134765625 0.665283203125
7800000000.0 -0.349822998046875 0.733917236328125
7900000000.0 -0.2188720703125 0.780792236328125
8000000000.0 -0.08209228515625 0.805023193359375
8100000000.0 0.056915283203125 0.805267333984375
8200000000.0 0.193695068359375 0.781768798828125
8300000000.0 0.324249267578125 0.73492431640625
8400000000.0 0.445068359375 0.666290283203125
8500000000.0 0.5518798828125 0.578094482421875
8600000000.0 0.64178466796875 0.47259521484375
8700000000.0 0.7119140625 0.352996826171875
8800000000.0 0.76019287109375 0.222991943359375
8900000000.0 0.78497314453125 0.0867919921875
9000000000.0 0.78533935546875 -0.0511474609375
9100000000.0 0.762237548828125 -0.1861572265625
9200000000.0 0.718231201171875 -0.315521240234375
9300000000.0 0.651885986328125 -0.43951416015625
9400000000.0 0.561126708984375 -0.5491943359375
9500000000.0 0.451904296875 -0.639404296875
9600000000.0 0.328826904296875 -0.70819091796875
9700000000.0 0.1959228515625 -0.75360107421875
9800000000.0 0.05694580078125 -0.774810791015625
9900000000.0 -0.083282470703125 -0.77056884765625
10000000000.0 -0.2200927734375 -0.741241455078125
10100000000.0 -0.349395751953125 -0.6878662109375
10200000000.0 -0.467010498046875 -0.612335205078125
10300000000.0 -0.56884765625 -0.516754150390625
10400000000.0 -0.65203857421875 -0.404937744140625
10500000000.0 -0.7135009765625 -0.280120849609375
10600000000.0 -0.751129150390625 -0.14776611328125
10700000000.0 -0.76422119140625 -0.008880615234375
10800000000.0 -0.752838134765625 0.128509521484375
10900000000.0 -0.717132568359375 0.259979248046875
11000000000.0 -0.65771484375 0.384063720703125
11100000000.0 -0.577972412109375 0.49444580078125
11200000000.0 -0.48065185546875 0.5880126953125
11300000000.0 -0.368621826171875 0.662445068359375
11400000000.0 -0.246856689453125 0.7158203125
11500000000.0 -0.11944580078125 0.7481689453125
11600000000.0 0.012969970703125 0.7598876953125
11700000000.0 0.1474609375 0.747161865234375
11800000000.0 0.277191162109375 0.709136962890625
11900000000.0 0.397216796875 0.648834228515625
12000000000.0 0.503509521484375 0.5689697265625
12100000000.0 0.594024658203125 0.4720458984375
12200000000.0 0.665985107421875 0.361785888671875
12300000000.0 0.717559814453125 0.241058349609375
12400000000.0 0.7471923828125 0.113677978515625
12500000000.0 0.7545166015625 -0.01617431640625
12600000000.0 0.739654541015625 -0.145263671875
12700000000.0 0.70306396484375 -0.26934814453125
12800000000.0 0.645599365234375 -0.3851318359375
12900000000.0 0.569366455078125 -0.489227294921875
13000000000.0 0.4765625 -0.57818603515625
13100000000.0 0.37042236328125 -0.649993896484375
13200000000.0 0.25390625 -0.7025146484375
13300000000.0 0.130584716796875 -0.7340087890625
13400000000.0 0.00408935546875 -0.74383544921875
13500000000.0 -0.121490478515625 -0.731964111328125
13600000000.0 -0.24249267578125 -0.699066162109375
13700000000.0 -0.3553466796875 -0.646514892578125
13800000000.0 -0.456298828125 -0.577728271484375
13900000000.0 -0.5469970703125 -0.495330810546875
14000000000.0 -0.624786376953125 -0.39581298828125
14100000000.0 -0.682861328125 -0.28277587890625
14200000000.0 -0.719635009765625 -0.1622314453125
14300000000.0 -0.7347412109375 -0.037841796875
14400000000.0 -0.728729248046875 0.086669921875
14500000000.0 -0.7020263671875 0.20782470703125
14600000000.0 -0.654876708984375 0.322174072265625
14700000000.0 -0.589569091796875 0.426544189453125
14800000000.0 -0.507843017578125 0.51812744140625
14900000000.0 -0.411956787109375 0.594268798828125
15000000000.0 -0.304901123046875 0.653076171875
15100000000.0 -0.189422607421875 0.692718505859375
15200000000.0 -0.0692138671875 0.711761474609375
15300000000.0 0.052154541015625 0.710784912109375
15400000000.0 0.171112060546875 0.688262939453125
15500000000.0 0.28485107421875 0.645294189453125
15600000000.0 0.388671875 0.583953857421875
15700000000.0 0.48114013671875 0.505950927734375
15800000000.0 0.557586669921875 0.41363525390625
15900000000.0 0.6165771484375 0.30938720703125
16000000000.0 0.656585693359375 0.197357177734375
16100000000.0 0.677215576171875 0.08154296875
16200000000.0 0.6793212890625 -0.03643798828125
16300000000.0 0.661224365234375 -0.155487060546875
16400000000.0 0.621002197265625 -0.2703857421875
16500000000.0 0.559967041015625 -0.37603759765625
16600000000.0 0.480743408203125 -0.46832275390625
16700000000.0 0.386810302734375 -0.54473876953125
16800000000.0 0.280303955078125 -0.6031494140625
16900000000.0 0.16583251953125 -0.641265869140625
17000000000.0 0.04620361328125 -0.658447265625
17100000000.0 -0.073516845703125 -0.653564453125
17200000000.0 -0.190277099609375 -0.6275634765625
17300000000.0 -0.3001708984375 -0.581207275390625
17400000000.0 -0.399749755859375 -0.51605224609375
17500000000.0 -0.485809326171875 -0.43408203125
17600000000.0 -0.555450439453125 -0.338409423828125
17700000000.0 -0.6065673828125 -0.23223876953125
17800000000.0 -0.638031005859375 -0.118865966796875
17900000000.0 -0.6484375 -0.0023193359375
18000000000.0 -0.63812255859375 0.113555908203125
18100000000.0 -0.6075439453125 0.225128173828125
18200000000.0 -0.558197021484375 0.32867431640625
18300000000.0 -0.4924163818359375 0.4212646484375
18400000000.0 -0.41241455078125 0.501373291015625
18500000000.0 -0.319854736328125 0.56695556640625
18600000000.0 -0.216705322265625 0.615936279296875
18700000000.0 -0.10577392578125 0.645782470703125
18800000000.0 0.008514404296875 0.655181884765625
18900000000.0 0.122650146484375 0.644073486328125
19000000000.0 0.232635498046875 0.613189697265625
19100000000.0 0.33538818359375 0.563568115234375
19200000000.0 0.4276275634765625 0.4966583251953125
19300000000.0 0.50653076171875 0.415008544921875
19400000000.0 0.570037841796875 0.320892333984375
19500000000.0 0.6160888671875 0.217498779296875
19600000000.0 0.64337158203125 0.10772705078125
19700000000.0 0.651275634765625 -0.004913330078125
19800000000.0 0.6392822265625 -0.117034912109375
19900000000.0 0.607940673828125 -0.225372314453125
20000000000.0 0.558319091796875 -0.326263427734375
20100000000.0 0.4918212890625 -0.416961669921875
20200000000.0 0.410736083984375 -0.494354248046875
20300000000.0 0.31719970703125 -0.555450439453125
20400000000.0 0.21514892578125 -0.60040283203125
20500000000.0 0.107513427734375 -0.62548828125
20600000000.0 -0.001251220703125 -0.63250732421875
20700000000.0 -0.108489990234375 -0.62054443359375
20800000000.0 -0.212890625 -0.592498779296875
20900000000.0 -0.31329345703125 -0.54779052734375
21000000000.0 -0.4047698974609375 -0.483612060546875
21100000000.0 -0.4827728271484375 -0.405120849609375
21200000000.0 -0.544525146484375 -0.3118896484375
21300000000.0 -0.58905029296875 -0.210693359375
21400000000.0 -0.614593505859375 -0.10333251953125
21500000000.0 -0.620758056640625 0.00616455078125
21600000000.0 -0.60736083984375 0.115142822265625
21700000000.0 -0.574920654296875 0.21917724609375
21800000000.0 -0.524810791015625 0.315521240234375
21900000000.0 -0.4585418701171875 0.401153564453125
22000000000.0 -0.378448486328125 0.4736480712890625
22100000000.0 -0.2867431640625 0.53021240234375
22200000000.0 -0.1861572265625 0.56884765625
22300000000.0 -0.080780029296875 0.588897705078125
22400000000.0 0.025970458984375 0.589263916015625
22500000000.0 0.131683349609375 0.57000732421875
22600000000.0 0.23138427734375 0.531524658203125
22700000000.0 0.321502685546875 0.4755096435546875
22800000000.0 0.3991851806640625 0.404296875
22900000000.0 0.46246337890625 0.321929931640625
23000000000.0 0.511138916015625 0.23016357421875
23100000000.0 0.54425048828125 0.129669189453125
23200000000.0 0.55804443359375 0.022216796875
23300000000.0 0.54986572265625 -0.0875244140625
23400000000.0 0.519378662109375 -0.19366455078125
23500000000.0 0.468719482421875 -0.2920684814453125
23600000000.0 0.3990631103515625 -0.37872314453125
23700000000.0 0.31402587890625 -0.449981689453125
23800000000.0 0.21649169921875 -0.503173828125
23900000000.0 0.11041259765625 -0.53643798828125
24000000000.0 0.00018310546875 -0.549102783203125
24100000000.0 -0.110809326171875 -0.540283203125
24200000000.0 -0.21844482421875 -0.510009765625
24300000000.0 -0.31866455078125 -0.459442138671875
24400000000.0 -0.406829833984375 -0.38995361328125
24500000000.0 -0.4802703857421875 -0.304962158203125
24600000000.0 -0.5357666015625 -0.2076416015625
24700000000.0 -0.571929931640625 -0.101654052734375
24800000000.0 -0.587188720703125 0.009246826171875
24900000000.0 -0.581085205078125 0.120635986328125
25000000000.0 -0.554718017578125 0.228973388671875
25100000000.0 -0.5086669921875 0.329681396484375
25200000000.0 -0.4462738037109375 0.419586181640625
25300000000.0 -0.36993408203125 0.497222900390625
25400000000.0 -0.28240966796875 0.560760498046875
25500000000.0 -0.1842041015625 0.60986328125
25600000000.0 -0.077728271484375 0.64141845703125
25700000000.0 0.0330810546875 0.65325927734375
25800000000.0 0.1448974609375 0.645416259765625
25900000000.0 0.253265380859375 0.61822509765625
26000000000.0 0.355712890625 0.572845458984375
26100000000.0 0.4488525390625 0.511138916015625
26200000000.0 0.530029296875 0.434295654296875
26300000000.0 0.5975341796875 0.3450927734375
26400000000.0 0.64923095703125 0.2467041015625
26500000000.0 0.6842041015625 0.140533447265625
