!Created with skrf (http://scikit-rf.org).
# Hz S RI R 50.0 
!freq ReS11 ImS11
1000000000.0 -0.343841552734375 0.845184326171875
1100000000.0 -0.191009521484375 0.890594482421875
1200000000.0 -0.037841796875 0.90771484375
1300000000.0 0.112060546875 0.899139404296875
1400000000.0 0.255462646484375 0.8682861328125
1500000000.0 0.389892578125 0.8153076171875
1600000000.0 0.5113525390625 0.74090576171875
1700000000.0 0.61834716796875 0.65203857421875
1800000000.0 0.711334228515625 0.548004150390625
1900000000.0 0.78662109375 0.432098388671875
2000000000.0 0.842803955078125 0.306304931640625
2100000000.0 0.879058837890625 0.173095703125
2200000000.0 0.891021728515625 0.036468505859375
2300000000.0 0.8839111328125 -0.09710693359375
2400000000.0 0.860687255859375 -0.22796630859375
2500000000.0 0.8154296875 -0.354095458984375
2600000000.0 0.751983642578125 -0.471282958984375
2700000000.0 0.67291259765625 -0.57745361328125
2800000000.0 0.578369140625 -0.6707763671875
2900000000.0 0.471435546875 -0.746856689453125
3000000000.0 0.355499267578125 -0.807525634765625
3100000000.0 0.232269287109375 -0.85089111328125
3200000000.0 0.10284423828125 -0.8759765625
3300000000.0 -0.02813720703125 -0.880615234375
3400000000.0 -0.158111572265625 -0.865386962890625
3500000000.0 -0.283905029296875 -0.8314208984375
3600000000.0 -0.403289794921875 -0.780426025390625
3700000000.0 -0.514373779296875 -0.71112060546875
3800000000.0 -0.612518310546875 -0.626434326171875
3900000000.0 -0.6966552734375 -0.528900146484375
4000000000.0 -0.7667236328125 -0.421722412109375
4100000000.0 -0.822906494140625 -0.30352783203125
4200000000.0 -0.85760498046875 -0.176300048828125
4300000000.0 -0.8724365234375 -0.047607421875
4400000000.0 -0.86920166015625 0.08172607421875
4500000000.0 -0.847076416015625 0.20947265625
4600000000.0 -0.805877685546875 0.33282470703125
4700000000.0 -0.74664306640625 0.447540283203125
4800000000.0 -0.672271728515625 0.55206298828125
4900000000.0 -0.583282470703125 0.645263671875
5000000000.0 -0.481353759765625 0.724395751953125
5100000000.0 -0.3687744140625 0.78680419921875
5200000000.0 -0.2489013671875 0.83209228515625
5300000000.0 -0.1231689453125 0.859954833984375
5400000000.0 0.004425048828125 0.86932373046875
5500000000.0 0.13330078125 0.859039306640625
5600000000.0 0.25775146484375 0.8292236328125
5700000000.0 0.376617431640625 0.78253173828125
5800000000.0 0.48785400390625 0.719024658203125
5900000000.0 0.588714599609375 0.638641357421875
6000000000.0 0.674407958984375 0.546051025390625
6100000000.0 0.74688720703125 0.442596435546875
6200000000.0 0.806243896484375 0.330352783203125
6300000000.0 0.848724365234375 0.206329345703125
6400000000.0 0.86981201171875 0.077789306640625
6500000000.0 0.87091064453125 -0.048980712890625
6600000000.0 0.85528564453125 -0.17559814453125
6700000000.0 0.8206787109375 -0.29937744140625
6800000000.0 0.767608642578125 -0.4161376953125
6900000000.0 0.698089599609375 -0.521942138671875
7000000000.0 0.61480712890625 -0.6177978515625
7100000000.0 0.519317626953125 -0.70037841796875
7200000000.0 0.411651611328125 -0.768951416015625
7300000000.0 0.294921875 -0.819305419921875
7400000000.0 0.174041748046875 -0.852996826171875
7500000000.0 0.048797607421875 -0.86968994140625
7600000000.0 -0.075714111328125 -0.86822509765625
7700000000.0 -0.200286865234375 -0.847930908203125
7800000000.0 -0.318359375 -0.80938720703125
7900000000.0 -0.4293212890625 -0.7554931640625
8000000000.0 -0.53125 -0.68707275390625
8100000000.0 -0.622344970703125 -0.6043701171875
8200000000.0 -0.699371337890625 -0.511383056640625
8300000000.0 -0.765960693359375 -0.40966796875
8400000000.0 -0.81829833984375 -0.295806884765625
8500000000.0 -0.8519287109375 -0.176055908203125
8600000000.0 -0.86761474609375 -0.05340576171875
8700000000.0 -0.865447998046875 0.068634033203125
8800000000.0 -0.84698486328125 0.188568115234375
8900000000.0 -0.812103271484375 0.305267333984375
9000000000.0 -0.76055908203125 0.415863037109375
9100000000.0 -0.694488525390625 0.51611328125
9200000000.0 -0.61480712890625 0.60821533203125
9300000000.0 -0.524505615234375 0.68756103515625
9400000000.0 -0.422332763671875 0.754119873046875
9500000000.0 -0.31170654296875 0.80499267578125
9600000000.0 -0.19635009765625 0.83978271484375
9700000000.0 -0.07708740234375 0.858734130859375
9800000000.0 0.0440673828125 0.860504150390625
9900000000.0 0.1636962890625 0.844146728515625
10000000000.0 0.27789306640625 0.8125
10100000000.0 0.388031005859375 0.765289306640625
10200000000.0 0.4901123046875 0.7034912109375
10300000000.0 0.58392333984375 0.62994384765625
10400000000.0 0.66656494140625 0.542572021484375
10500000000.0 0.73724365234375 0.443145751953125
10600000000.0 0.792510986328125 0.3343505859375
10700000000.0 0.8316650390625 0.21826171875
10800000000.0 0.852691650390625 0.098602294921875
10900000000.0 0.857269287109375 -0.02191162109375
11000000000.0 0.845703125 -0.142852783203125
11100000000.0 0.81610107421875 -0.26092529296875
11200000000.0 0.770294189453125 -0.372406005859375
11300000000.0 0.7091064453125 -0.4781494140625
11400000000.0 0.634185791015625 -0.5718994140625
11500000000.0 0.5474853515625 -0.6561279296875
11600000000.0 0.44708251953125 -0.7274169921875
11700000000.0 0.33966064453125 -0.78173828125
11800000000.0 0.22637939453125 -0.82086181640625
11900000000.0 0.10845947265625 -0.84429931640625
12000000000.0 -0.012908935546875 -0.8499755859375
12100000000.0 -0.131988525390625 -0.8382568359375
12200000000.0 -0.248291015625 -0.809783935546875
12300000000.0 -0.358123779296875 -0.766510009765625
12400000000.0 -0.461456298828125 -0.7095947265625
12500000000.0 -0.558319091796875 -0.638458251953125
12600000000.0 -0.645172119140625 -0.553466796875
12700000000.0 -0.717498779296875 -0.4552001953125
12800000000.0 -0.774688720703125 -0.3480224609375
12900000000.0 -0.815582275390625 -0.2349853515625
13000000000.0 -0.839569091796875 -0.115234375
13100000000.0 -0.846466064453125 0.004150390625
13200000000.0 -0.836639404296875 0.123992919921875
13300000000.0 -0.809478759765625 0.241546630859375
13400000000.0 -0.76593017578125 0.3538818359375
13500000000.0 -0.706146240234375 0.459747314453125
13600000000.0 -0.6334228515625 0.553680419921875
13700000000.0 -0.546875 0.63848876953125
13800000000.0 -0.449920654296875 0.70892333984375
13900000000.0 -0.344024658203125 0.764251708984375
14000000000.0 -0.230865478515625 0.804656982421875
14100000000.0 -0.114105224609375 0.82623291015625
14200000000.0 0.005218505859375 0.833099365234375
14300000000.0 0.123687744140625 0.82122802734375
14400000000.0 0.23724365234375 0.79364013671875
14500000000.0 0.346466064453125 0.753753662109375
14600000000.0 0.451629638671875 0.69940185546875
14700000000.0 0.55047607421875 0.62530517578125
14800000000.0 0.63519287109375 0.538116455078125
14900000000.0 0.7069091796875 0.43865966796875
15000000000.0 0.76190185546875 0.329864501953125
15100000000.0 0.800750732421875 0.21527099609375
15200000000.0 0.82208251953125 0.0955810546875
15300000000.0 0.826263427734375 -0.024627685546875
15400000000.0 0.81243896484375 -0.1470947265625
15500000000.0 0.780914306640625 -0.263092041015625
15600000000.0 0.732879638671875 -0.37567138671875
15700000000.0 0.668914794921875 -0.4779052734375
15800000000.0 0.5914306640625 -0.5703125
15900000000.0 0.49981689453125 -0.65087890625
16000000000.0 0.39849853515625 -0.71563720703125
16100000000.0 0.28924560546875 -0.765045166015625
16200000000.0 0.173492431640625 -0.798065185546875
16300000000.0 0.05438232421875 -0.813690185546875
16400000000.0 -0.06402587890625 -0.811767578125
16500000000.0 -0.181365966796875 -0.79345703125
16600000000.0 -0.290435791015625 -0.763336181640625
16700000000.0 -0.402679443359375 -0.713470458984375
16800000000.0 -0.5062255859375 -0.64678955078125
16900000000.0 -0.595367431640625 -0.564605712890625
17000000000.0 -0.671966552734375 -0.471343994140625
17100000000.0 -0.7344970703125 -0.368927001953125
17200000000.0 -0.780670166015625 -0.25616455078125
17300000000.0 -0.80926513671875 -0.1409912109375
17400000000.0 -0.82080078125 -0.021942138671875
17500000000.0 -0.81610107421875 0.09808349609375
17600000000.0 -0.79412841796875 0.216156005859375
17700000000.0 -0.75408935546875 0.328399658203125
17800000000.0 -0.69891357421875 0.433258056640625
17900000000.0 -0.630157470703125 0.52935791015625
18000000000.0 -0.54736328125 0.61474609375
18100000000.0 -0.452423095703125 0.686859130859375
18200000000.0 -0.350341796875 0.74444580078125
18300000000.0 -0.24066162109375 0.786865234375
18400000000.0 -0.1265869140625 0.8131103515625
18500000000.0 -0.012481689453125 0.821990966796875
18600000000.0 0.105072021484375 0.816375732421875
18700000000.0 0.21844482421875 0.795806884765625
18800000000.0 0.330169677734375 0.758056640625
18900000000.0 0.4346923828125 0.70343017578125
19000000000.0 0.531219482421875 0.635498046875
19100000000.0 0.61676025390625 0.552764892578125
19200000000.0 0.68994140625 0.4610595703125
19300000000.0 0.747802734375 0.35784912109375
19400000000.0 0.791107177734375 0.249908447265625
19500000000.0 0.8192138671875 0.132781982421875
19600000000.0 0.8292236328125 0.017364501953125
19700000000.0 0.82244873046875 -0.101531982421875
19800000000.0 0.798797607421875 -0.216094970703125
19900000000.0 0.760284423828125 -0.326904296875
20000000000.0 0.706878662109375 -0.43011474609375
20100000000.0 0.6375732421875 -0.524383544921875
20200000000.0 0.555328369140625 -0.60784912109375
20300000000.0 0.4635009765625 -0.6796875
20400000000.0 0.36383056640625 -0.736328125
20500000000.0 0.258026123046875 -0.778289794921875
20600000000.0 0.145050048828125 -0.8062744140625
20700000000.0 0.03302001953125 -0.817626953125
20800000000.0 -0.080810546875 -0.81561279296875
20900000000.0 -0.196044921875 -0.797821044921875
21000000000.0 -0.3060302734375 -0.76165771484375
21100000000.0 -0.4102783203125 -0.7117919921875
21200000000.0 -0.50732421875 -0.645416259765625
21300000000.0 -0.590576171875 -0.56915283203125
21400000000.0 -0.665496826171875 -0.478973388671875
21500000000.0 -0.725433349609375 -0.378753662109375
21600000000.0 -0.77093505859375 -0.275177001953125
21700000000.0 -0.799896240234375 -0.16290283203125
21800000000.0 -0.813720703125 -0.049041748046875
21900000000.0 -0.81072998046875 0.064605712890625
22000000000.0 -0.79254150390625 0.178680419921875
22100000000.0 -0.75738525390625 0.28564453125
22200000000.0 -0.709228515625 0.38775634765625
22300000000.0 -0.64666748046875 0.48199462890625
22400000000.0 -0.57073974609375 0.564849853515625
22500000000.0 -0.486419677734375 0.640167236328125
22600000000.0 -0.391845703125 0.696563720703125
22700000000.0 -0.291046142578125 0.744354248046875
22800000000.0 -0.184295654296875 0.77734375
22900000000.0 -0.07330322265625 0.796142578125
23000000000.0 0.041046142578125 0.79742431640625
23100000000.0 0.153228759765625 0.78302001953125
23200000000.0 0.263824462890625 0.751861572265625
23300000000.0 0.369293212890625 0.70526123046875
23400000000.0 0.464813232421875 0.64276123046875
23500000000.0 0.550048828125 0.5687255859375
23600000000.0 0.624725341796875 0.483154296875
23700000000.0 0.68597412109375 0.385711669921875
23800000000.0 0.7325439453125 0.279266357421875
23900000000.0 0.764068603515625 0.171142578125
24000000000.0 0.77728271484375 0.0555419921875
24100000000.0 0.774658203125 -0.05615234375
24200000000.0 0.754180908203125 -0.16888427734375
24300000000.0 0.71905517578125 -0.277679443359375
24400000000.0 0.66607666015625 -0.3807373046875
24500000000.0 0.599212646484375 -0.471923828125
24600000000.0 0.521209716796875 -0.552734375
24700000000.0 0.430084228515625 -0.621917724609375
24800000000.0 0.332489013671875 -0.677734375
24900000000.0 0.229156494140625 -0.71905517578125
25000000000.0 0.11932373046875 -0.744232177734375
25100000000.0 0.00347900390625 -0.753936767578125
25200000000.0 -0.111572265625 -0.744720458984375
25300000000.0 -0.22650146484375 -0.716400146484375
25400000000.0 -0.330322265625 -0.671234130859375
25500000000.0 -0.43231201171875 -0.607879638671875
25600000000.0 -0.519561767578125 -0.531005859375
25700000000.0 -0.59527587890625 -0.44293212890625
25800000000.0 -0.654693603515625 -0.342071533203125
25900000000.0 -0.69775390625 -0.233673095703125
26000000000.0 -0.723052978515625 -0.120513916015625
26100000000.0 -0.730621337890625 -0.00250244140625
26200000000.0 -0.7181396484375 0.111083984375
26300000000.0 -0.688934326171875 0.224945068359375
26400000000.0 -0.641326904296875 0.328765869140625
26500000000.0 -0.578887939453125 0.424713134765625
