!Created with skrf (http://scikit-rf.org).
# Hz S RI R 50.0 
!freq ReS11 ImS11
1000000000.0 0.550872802734375 -0.711883544921875
1100000000.0 0.221923828125 -0.87921142578125
1200000000.0 -0.1435546875 -0.897216796875
1300000000.0 -0.483612060546875 -0.76519775390625
1400000000.0 -0.7391357421875 -0.50726318359375
1500000000.0 -0.866607666015625 -0.167449951171875
1600000000.0 -0.843414306640625 0.193206787109375
1700000000.0 -0.673370361328125 0.510284423828125
1800000000.0 -0.386199951171875 0.725555419921875
1900000000.0 -0.036590576171875 0.796905517578125
2000000000.0 0.307281494140625 0.7103271484375
2100000000.0 0.57537841796875 0.48626708984375
2200000000.0 0.717803955078125 0.167877197265625
2300000000.0 0.706451416015625 -0.177093505859375
2400000000.0 0.545684814453125 -0.478668212890625
2500000000.0 0.26971435546875 -0.676849365234375
2600000000.0 -0.0625 -0.733154296875
2700000000.0 -0.383880615234375 -0.64019775390625
2800000000.0 -0.63360595703125 -0.41864013671875
2900000000.0 -0.7642822265625 -0.11297607421875
3000000000.0 -0.75299072265625 0.2196044921875
3100000000.0 -0.601226806640625 0.51580810546875
3200000000.0 -0.33905029296875 0.7203369140625
3300000000.0 -0.014862060546875 0.795745849609375
3400000000.0 0.31109619140625 0.727264404296875
3500000000.0 0.577789306640625 0.526031494140625
3600000000.0 0.731781005859375 0.2288818359375
3700000000.0 0.740447998046875 -0.10443115234375
3800000000.0 0.602203369140625 -0.40673828125
3900000000.0 0.34637451171875 -0.614898681640625
4000000000.0 0.025390625 -0.685333251953125
4100000000.0 -0.288055419921875 -0.604400634765625
4200000000.0 -0.527923583984375 -0.393890380859375
4300000000.0 -0.646484375 -0.104400634765625
4400000000.0 -0.626068115234375 0.202880859375
4500000000.0 -0.4766845703125 0.46649169921875
4600000000.0 -0.23309326171875 0.638916015625
4700000000.0 0.056121826171875 0.6922607421875
4800000000.0 0.337188720703125 0.6240234375
4900000000.0 0.5655517578125 0.451416015625
5000000000.0 0.707427978515625 0.20428466796875
5100000000.0 0.74224853515625 -0.07861328125
5200000000.0 0.66412353515625 -0.352447509765625
5300000000.0 0.48590087890625 -0.575042724609375
5400000000.0 0.233734130859375 -0.71173095703125
5500000000.0 -0.05340576171875 -0.73907470703125
5600000000.0 -0.331146240234375 -0.648712158203125
5700000000.0 -0.549591064453125 -0.45025634765625
5800000000.0 -0.6650390625 -0.17596435546875
5900000000.0 -0.651397705078125 0.12127685546875
6000000000.0 -0.508880615234375 0.384185791015625
6100000000.0 -0.26458740234375 0.554107666015625
6200000000.0 0.027679443359375 0.59466552734375
6300000000.0 0.302825927734375 0.4976654052734375
6400000000.0 0.498779296875 0.2906494140625
6500000000.0 0.578582763671875 0.02642822265625
6600000000.0 0.535736083984375 -0.240020751953125
6700000000.0 0.3844757080078125 -0.4569091796875
6800000000.0 0.160675048828125 -0.586090087890625
6900000000.0 -0.09075927734375 -0.60888671875
7000000000.0 -0.324432373046875 -0.529876708984375
7100000000.0 -0.50360107421875 -0.368377685546875
7200000000.0 -0.604278564453125 -0.152496337890625
7300000000.0 -0.609619140625 0.0802001953125
7400000000.0 -0.5318603515625 0.2843017578125
7500000000.0 -0.400054931640625 0.4507293701171875
7600000000.0 -0.205902099609375 0.573699951171875
7700000000.0 0.0391845703125 0.6114501953125
7800000000.0 0.289276123046875 0.537750244140625
7900000000.0 0.48779296875 0.35614013671875
8000000000.0 0.587005615234375 0.10052490234375
8100000000.0 0.560272216796875 -0.174285888671875
8200000000.0 0.4128875732421875 -0.40771484375
8300000000.0 0.176910400390625 -0.548614501953125
8400000000.0 -0.0933837890625 -0.567291259765625
8500000000.0 -0.3389739990234375 -0.465606689453125
8600000000.0 -0.511260986328125 -0.271759033203125
8700000000.0 -0.582183837890625 -0.02996826171875
8800000000.0 -0.546722412109375 0.21337890625
8900000000.0 -0.4172210693359375 0.4173431396484375
9000000000.0 -0.219207763671875 0.55010986328125
9100000000.0 0.012542724609375 0.591705322265625
9200000000.0 0.241180419921875 0.53924560546875
9300000000.0 0.430572509765625 0.40032958984375
9400000000.0 0.55078125 0.196685791015625
9500000000.0 0.579437255859375 -0.0394287109375
9600000000.0 0.508026123046875 -0.269378662109375
9700000000.0 0.3461456298828125 -0.4509124755859375
9800000000.0 0.121551513671875 -0.548675537109375
9900000000.0 -0.1259765625 -0.54205322265625
10000000000.0 -0.3480377197265625 -0.426422119140625
10100000000.0 -0.4952850341796875 -0.2259368896484375
10200000000.0 -0.538238525390625 0.017120361328125
10300000000.0 -0.46820068359375 0.2519989013671875
10400000000.0 -0.3052825927734375 0.4266510009765625
10500000000.0 -0.086669921875 0.508209228515625
10600000000.0 0.138275146484375 0.485107421875
10700000000.0 0.3218536376953125 0.369781494140625
10800000000.0 0.4315185546875 0.1959228515625
10900000000.0 0.4575653076171875 0.003631591796875
11000000000.0 0.4071502685546875 -0.1735382080078125
11100000000.0 0.294891357421875 -0.31097412109375
11200000000.0 0.1444091796875 -0.389801025390625
11300000000.0 -0.019195556640625 -0.406341552734375
11400000000.0 -0.1740570068359375 -0.3609619140625
11500000000.0 -0.3031158447265625 -0.2650604248046875
11600000000.0 -0.391510009765625 -0.1214752197265625
11700000000.0 -0.4167938232421875 0.05291748046875
11800000000.0 -0.3647308349609375 0.2309112548828125
11900000000.0 -0.237396240234375 0.374969482421875
12000000000.0 -0.05596923828125 0.45391845703125
12100000000.0 0.1480712890625 0.44671630859375
12200000000.0 0.33123779296875 0.3510589599609375
12300000000.0 0.457916259765625 0.1835784912109375
12400000000.0 0.501983642578125 -0.0224609375
12500000000.0 0.454925537109375 -0.227752685546875
12600000000.0 0.326080322265625 -0.39642333984375
12700000000.0 0.1395111083984375 -0.4956207275390625
12800000000.0 -0.071197509765625 -0.508697509765625
12900000000.0 -0.2667236328125 -0.43365478515625
13000000000.0 -0.412322998046875 -0.283782958984375
13100000000.0 -0.481292724609375 -0.0897979736328125
13200000000.0 -0.4627227783203125 0.114349365234375
13300000000.0 -0.3599853515625 0.28997802734375
13400000000.0 -0.193145751953125 0.4032745361328125
13500000000.0 0.0040130615234375 0.4334716796875
13600000000.0 0.1911163330078125 0.37481689453125
13700000000.0 0.3334197998046875 0.243377685546875
13800000000.0 0.4029998779296875 0.064453125
13900000000.0 0.387725830078125 -0.125030517578125
14000000000.0 0.293365478515625 -0.2873687744140625
14100000000.0 0.139617919921875 -0.3946685791015625
14200000000.0 -0.043060302734375 -0.424896240234375
14300000000.0 -0.221038818359375 -0.3776092529296875
14400000000.0 -0.363616943359375 -0.260650634765625
14500000000.0 -0.4461822509765625 -0.0954132080078125
14600000000.0 -0.4554901123046875 0.090240478515625
14700000000.0 -0.389007568359375 0.2642669677734375
14800000000.0 -0.2572479248046875 0.3997344970703125
14900000000.0 -0.078033447265625 0.4705047607421875
15000000000.0 0.11602783203125 0.4622955322265625
15100000000.0 0.29327392578125 0.374664306640625
15200000000.0 0.41925048828125 0.218658447265625
15300000000.0 0.469757080078125 0.02215576171875
15400000000.0 0.43084716796875 -0.181610107421875
15500000000.0 0.307769775390625 -0.3482208251953125
15600000000.0 0.1247406005859375 -0.4472808837890625
15700000000.0 -0.0828094482421875 -0.4559478759765625
15800000000.0 -0.273040771484375 -0.374786376953125
15900000000.0 -0.4081878662109375 -0.2210693359375
16000000000.0 -0.4622344970703125 -0.0262908935546875
16100000000.0 -0.42681884765625 0.170501708984375
16200000000.0 -0.3138275146484375 0.3298187255859375
16300000000.0 -0.147369384765625 0.42413330078125
16400000000.0 0.0406951904296875 0.4379730224609375
16500000000.0 0.213531494140625 0.3739013671875
16600000000.0 0.3433380126953125 0.2431182861328125
16700000000.0 0.40283203125 0.0726165771484375
16800000000.0 0.386322021484375 -0.1054534912109375
16900000000.0 0.2957763671875 -0.26055908203125
17000000000.0 0.148193359375 -0.363006591796875
17100000000.0 -0.0311126708984375 -0.394073486328125
17200000000.0 -0.20697021484375 -0.3440704345703125
17300000000.0 -0.3470458984375 -0.224700927734375
17400000000.0 -0.42462158203125 -0.0541839599609375
17500000000.0 -0.424591064453125 0.137176513671875
17600000000.0 -0.343505859375 0.3140716552734375
17700000000.0 -0.193084716796875 0.4426727294921875
17800000000.0 0.00103759765625 0.498779296875
17900000000.0 0.2026824951171875 0.4696197509765625
18000000000.0 0.3780517578125 0.35821533203125
18100000000.0 0.493316650390625 0.1826019287109375
18200000000.0 0.5262451171875 -0.02532958984375
18300000000.0 0.4699859619140625 -0.2296142578125
18400000000.0 0.33380126953125 -0.3927764892578125
18500000000.0 0.1419525146484375 -0.484130859375
18600000000.0 -0.0665283203125 -0.48675537109375
18700000000.0 -0.25543212890625 -0.4012298583984375
18800000000.0 -0.3869171142578125 -0.247711181640625
18900000000.0 -0.4404754638671875 -0.0589752197265625
19000000000.0 -0.407379150390625 0.1319580078125
19100000000.0 -0.3014373779296875 0.2828369140625
19200000000.0 -0.1443634033203125 0.3737945556640625
19300000000.0 0.0266571044921875 0.3877716064453125
19400000000.0 0.18408203125 0.3317718505859375
19500000000.0 0.2991180419921875 0.2174224853515625
19600000000.0 0.354156494140625 0.074005126953125
19700000000.0 0.3454437255859375 -0.077301025390625
19800000000.0 0.2786102294921875 -0.207366943359375
19900000000.0 0.1668701171875 -0.29803466796875
20000000000.0 0.0312347412109375 -0.334442138671875
20100000000.0 -0.109100341796875 -0.3127593994140625
20200000000.0 -0.2281036376953125 -0.23680877685546875
20300000000.0 -0.3050537109375 -0.1192626953125
20400000000.0 -0.3265533447265625 0.0220947265625
20500000000.0 -0.287261962890625 0.1604461669921875
20600000000.0 -0.194854736328125 0.2705230712890625
20700000000.0 -0.0607452392578125 0.3347015380859375
20800000000.0 0.0891571044921875 0.3356170654296875
20900000000.0 0.2261962890625 0.2722930908203125
21000000000.0 0.3265838623046875 0.156951904296875
21100000000.0 0.36865234375 0.00787353515625
21200000000.0 0.3442535400390625 -0.1446380615234375
21300000000.0 0.2599639892578125 -0.2754058837890625
21400000000.0 0.126312255859375 -0.3569183349609375
21500000000.0 -0.0277862548828125 -0.3739166259765625
21600000000.0 -0.175567626953125 -0.327880859375
21700000000.0 -0.2877197265625 -0.2214813232421875
21800000000.0 -0.34521484375 -0.0787811279296875
21900000000.0 -0.334991455078125 0.0739593505859375
22000000000.0 -0.260772705078125 0.2091827392578125
22100000000.0 -0.1340179443359375 0.2954254150390625
22200000000.0 0.0184326171875 0.32073974609375
22300000000.0 0.1649932861328125 0.27606201171875
22400000000.0 0.28033447265625 0.17047119140625
22500000000.0 0.3402862548828125 0.025604248046875
22600000000.0 0.3316802978515625 -0.1331787109375
22700000000.0 0.2577667236328125 -0.2732086181640625
22800000000.0 0.132659912109375 -0.3730621337890625
22900000000.0 -0.022216796875 -0.4118804931640625
23000000000.0 -0.17919921875 -0.3879547119140625
23100000000.0 -0.3154296875 -0.30413818359375
23200000000.0 -0.4075927734375 -0.176300048828125
23300000000.0 -0.442596435546875 -0.0225372314453125
23400000000.0 -0.417388916015625 0.130950927734375
23500000000.0 -0.33428955078125 0.26153564453125
23600000000.0 -0.2073211669921875 0.3472137451171875
23700000000.0 -0.057952880859375 0.37115478515625
23800000000.0 0.0849151611328125 0.3274688720703125
23900000000.0 0.19422149658203125 0.22737884521484375
24000000000.0 0.23944854736328125 0.08658599853515625
24100000000.0 0.2108154296875 -0.053924560546875
24200000000.0 0.11263275146484375 -0.162200927734375
24300000000.0 -0.02471160888671875 -0.20630645751953125
24400000000.0 -0.1685028076171875 -0.17426300048828125
24500000000.0 -0.278411865234375 -0.0736236572265625
24600000000.0 -0.327178955078125 0.0669403076171875
24700000000.0 -0.3106842041015625 0.215179443359375
24800000000.0 -0.2303314208984375 0.34246826171875
24900000000.0 -0.1036376953125 0.4275665283203125
25000000000.0 0.0469970703125 0.457611083984375
25100000000.0 0.1953125 0.42767333984375
25200000000.0 0.3226470947265625 0.3455657958984375
25300000000.0 0.409210205078125 0.2236785888671875
25400000000.0 0.4483642578125 0.07843017578125
25500000000.0 0.4253082275390625 -0.067352294921875
25600000000.0 0.3505096435546875 -0.1928863525390625
25700000000.0 0.2307586669921875 -0.278411865234375
25800000000.0 0.08935546875 -0.3040771484375
25900000000.0 -0.0466766357421875 -0.2651824951171875
26000000000.0 -0.149169921875 -0.169586181640625
26100000000.0 -0.19454193115234375 -0.03643035888671875
26200000000.0 -0.1687469482421875 0.099395751953125
26300000000.0 -0.08283233642578125 0.20967864990234375
26400000000.0 0.046630859375 0.26422119140625
26500000000.0 0.1873626708984375 0.255401611328125
