!Created with skrf (http://scikit-rf.org).
# Hz S RI R 50.0 
!freq ReS11 ImS11
1000000000.0 -0.423736572265625 0.818572998046875
1100000000.0 -0.28192138671875 0.8763427734375
1200000000.0 -0.1375732421875 0.90850830078125
1300000000.0 0.00616455078125 0.917022705078125
1400000000.0 0.146240234375 0.904998779296875
1500000000.0 0.280853271484375 0.871734619140625
1600000000.0 0.406524658203125 0.818359375
1700000000.0 0.52130126953125 0.74853515625
1800000000.0 0.625030517578125 0.663970947265625
1900000000.0 0.714996337890625 0.56622314453125
2000000000.0 0.789703369140625 0.45654296875
2100000000.0 0.846221923828125 0.3345947265625
2200000000.0 0.881378173828125 0.210723876953125
2300000000.0 0.902313232421875 0.08331298828125
2400000000.0 0.905517578125 -0.045074462890625
2500000000.0 0.888702392578125 -0.172637939453125
2600000000.0 0.85430908203125 -0.296112060546875
2700000000.0 0.803924560546875 -0.413238525390625
2800000000.0 0.737152099609375 -0.52203369140625
2900000000.0 0.65521240234375 -0.618682861328125
3000000000.0 0.56195068359375 -0.703460693359375
3100000000.0 0.458526611328125 -0.77496337890625
3200000000.0 0.3447265625 -0.8319091796875
3300000000.0 0.2249755859375 -0.87115478515625
3400000000.0 0.100738525390625 -0.892913818359375
3500000000.0 -0.02459716796875 -0.897613525390625
3600000000.0 -0.149261474609375 -0.885772705078125
3700000000.0 -0.271697998046875 -0.855316162109375
3800000000.0 -0.38702392578125 -0.80816650390625
3900000000.0 -0.494781494140625 -0.746734619140625
4000000000.0 -0.5953369140625 -0.671844482421875
4100000000.0 -0.684295654296875 -0.580352783203125
4200000000.0 -0.75701904296875 -0.477447509765625
4300000000.0 -0.8148193359375 -0.36712646484375
4400000000.0 -0.8577880859375 -0.250030517578125
4500000000.0 -0.884033203125 -0.12744140625
4600000000.0 -0.892242431640625 -0.00189208984375
4700000000.0 -0.882537841796875 0.12213134765625
4800000000.0 -0.856658935546875 0.24371337890625
4900000000.0 -0.814056396484375 0.3612060546875
5000000000.0 -0.755035400390625 0.47137451171875
5100000000.0 -0.681365966796875 0.57122802734375
5200000000.0 -0.594879150390625 0.660369873046875
5300000000.0 -0.4967041015625 0.737213134765625
5400000000.0 -0.388824462890625 0.79949951171875
5500000000.0 -0.272613525390625 0.84576416015625
5600000000.0 -0.152374267578125 0.874725341796875
5700000000.0 -0.028900146484375 0.887786865234375
5800000000.0 0.095306396484375 0.88299560546875
5900000000.0 0.217315673828125 0.860595703125
6000000000.0 0.33331298828125 0.823822021484375
6100000000.0 0.447052001953125 0.771514892578125
6200000000.0 0.55230712890625 0.700531005859375
6300000000.0 0.646697998046875 0.6148681640625
6400000000.0 0.726348876953125 0.5169677734375
6500000000.0 0.790313720703125 0.41156005859375
6600000000.0 0.84149169921875 0.297271728515625
6700000000.0 0.875396728515625 0.17626953125
6800000000.0 0.89111328125 0.051788330078125
6900000000.0 0.88861083984375 -0.071929931640625
7000000000.0 0.870147705078125 -0.19525146484375
7100000000.0 0.83514404296875 -0.314483642578125
7200000000.0 0.782745361328125 -0.428192138671875
7300000000.0 0.71435546875 -0.532196044921875
7400000000.0 0.63372802734375 -0.62615966796875
7500000000.0 0.540374755859375 -0.709228515625
7600000000.0 0.43670654296875 -0.7777099609375
7700000000.0 0.32537841796875 -0.830169677734375
7800000000.0 0.207611083984375 -0.865509033203125
7900000000.0 0.087738037109375 -0.88543701171875
8000000000.0 -0.0316162109375 -0.88995361328125
8100000000.0 -0.1533203125 -0.879913330078125
8200000000.0 -0.274169921875 -0.850860595703125
8300000000.0 -0.388916015625 -0.8048095703125
8400000000.0 -0.49591064453125 -0.743499755859375
8500000000.0 -0.5928955078125 -0.667816162109375
8600000000.0 -0.678375244140625 -0.579803466796875
8700000000.0 -0.75067138671875 -0.48199462890625
8800000000.0 -0.8089599609375 -0.37628173828125
8900000000.0 -0.852294921875 -0.2635498046875
9000000000.0 -0.879364013671875 -0.145477294921875
9100000000.0 -0.890228271484375 -0.0269775390625
9200000000.0 -0.885406494140625 0.093963623046875
9300000000.0 -0.865264892578125 0.2113037109375
9400000000.0 -0.828399658203125 0.32568359375
9500000000.0 -0.775634765625 0.434112548828125
9600000000.0 -0.710205078125 0.533721923828125
9700000000.0 -0.632293701171875 0.623931884765625
9800000000.0 -0.54193115234375 0.70263671875
9900000000.0 -0.443756103515625 0.7664794921875
10000000000.0 -0.33990478515625 0.818359375
10100000000.0 -0.2288818359375 0.85894775390625
10200000000.0 -0.11029052734375 0.883514404296875
10300000000.0 0.011199951171875 0.890472412109375
10400000000.0 0.129547119140625 0.8797607421875
10500000000.0 0.246612548828125 0.854583740234375
10600000000.0 0.359619140625 0.813385009765625
10700000000.0 0.46588134765625 0.7572021484375
10800000000.0 0.562286376953125 0.68695068359375
10900000000.0 0.648651123046875 0.60577392578125
11000000000.0 0.72491455078125 0.51287841796875
11100000000.0 0.786376953125 0.410247802734375
11200000000.0 0.833343505859375 0.301422119140625
11300000000.0 0.865814208984375 0.186065673828125
11400000000.0 0.882598876953125 0.070831298828125
11500000000.0 0.88397216796875 -0.05029296875
11600000000.0 0.8681640625 -0.168670654296875
11700000000.0 0.836273193359375 -0.283538818359375
11800000000.0 0.790374755859375 -0.392181396484375
11900000000.0 0.730010986328125 -0.494720458984375
12000000000.0 0.656402587890625 -0.586151123046875
12100000000.0 0.57476806640625 -0.666748046875
12200000000.0 0.48248291015625 -0.739166259765625
12300000000.0 0.378753662109375 -0.80023193359375
12400000000.0 0.266448974609375 -0.845306396484375
12500000000.0 0.149322509765625 -0.87274169921875
12600000000.0 0.029449462890625 -0.88531494140625
12700000000.0 -0.0902099609375 -0.880859375
12800000000.0 -0.208465576171875 -0.860595703125
12900000000.0 -0.321685791015625 -0.8245849609375
13000000000.0 -0.429779052734375 -0.77288818359375
13100000000.0 -0.52850341796875 -0.708740234375
13200000000.0 -0.61865234375 -0.63092041015625
13300000000.0 -0.69708251953125 -0.54156494140625
13400000000.0 -0.7623291015625 -0.44354248046875
13500000000.0 -0.8145751953125 -0.33624267578125
13600000000.0 -0.85137939453125 -0.224639892578125
13700000000.0 -0.872833251953125 -0.107086181640625
13800000000.0 -0.877838134765625 0.010040283203125
13900000000.0 -0.867279052734375 0.126373291015625
14000000000.0 -0.841461181640625 0.2393798828125
14100000000.0 -0.803131103515625 0.344482421875
14200000000.0 -0.753936767578125 0.449188232421875
14300000000.0 -0.689117431640625 0.548248291015625
14400000000.0 -0.6080322265625 0.637725830078125
14500000000.0 -0.515655517578125 0.714630126953125
14600000000.0 -0.414581298828125 0.776397705078125
14700000000.0 -0.305511474609375 0.82427978515625
14800000000.0 -0.1922607421875 0.85809326171875
14900000000.0 -0.0736083984375 0.87518310546875
15000000000.0 0.04461669921875 0.8753662109375
15100000000.0 0.162445068359375 0.860565185546875
15200000000.0 0.276275634765625 0.83013916015625
15300000000.0 0.38580322265625 0.784332275390625
15400000000.0 0.487762451171875 0.7227783203125
15500000000.0 0.579498291015625 0.649688720703125
15600000000.0 0.66241455078125 0.563262939453125
15700000000.0 0.731689453125 0.46722412109375
15800000000.0 0.786407470703125 0.36279296875
15900000000.0 0.826507568359375 0.251708984375
16000000000.0 0.851226806640625 0.13836669921875
16100000000.0 0.861907958984375 0.022705078125
16200000000.0 0.8583984375 -0.093536376953125
16300000000.0 0.83868408203125 -0.210784912109375
16400000000.0 0.802032470703125 -0.326934814453125
16500000000.0 0.74945068359375 -0.434112548828125
16600000000.0 0.684539794921875 -0.53253173828125
16700000000.0 0.600006103515625 -0.623443603515625
16800000000.0 0.50811767578125 -0.6998291015625
16900000000.0 0.403656005859375 -0.763153076171875
17000000000.0 0.29345703125 -0.81121826171875
17100000000.0 0.1761474609375 -0.844146728515625
17200000000.0 0.0570068359375 -0.858978271484375
17300000000.0 -0.062774658203125 -0.857757568359375
17400000000.0 -0.18017578125 -0.84033203125
17500000000.0 -0.29583740234375 -0.80615234375
17600000000.0 -0.40606689453125 -0.756134033203125
17700000000.0 -0.5067138671875 -0.690673828125
17800000000.0 -0.595672607421875 -0.613311767578125
17900000000.0 -0.67474365234375 -0.5245361328125
18000000000.0 -0.739715576171875 -0.426513671875
18100000000.0 -0.791046142578125 -0.3214111328125
18200000000.0 -0.82843017578125 -0.20928955078125
18300000000.0 -0.851165771484375 -0.093109130859375
18400000000.0 -0.8580322265625 0.02520751953125
18500000000.0 -0.8482666015625 0.144287109375
18600000000.0 -0.820953369140625 0.2613525390625
18700000000.0 -0.7777099609375 0.373443603515625
18800000000.0 -0.718505859375 0.478271484375
18900000000.0 -0.647125244140625 0.57122802734375
19000000000.0 -0.560333251953125 0.657379150390625
19100000000.0 -0.465576171875 0.727325439453125
19200000000.0 -0.35888671875 0.78582763671875
19300000000.0 -0.24932861328125 0.827423095703125
19400000000.0 -0.131927490234375 0.854339599609375
19500000000.0 -0.012969970703125 0.863800048828125
19600000000.0 0.105224609375 0.858306884765625
19700000000.0 0.221893310546875 0.835174560546875
19800000000.0 0.334625244140625 0.79608154296875
19900000000.0 0.4395751953125 0.74298095703125
20000000000.0 0.536956787109375 0.676361083984375
20100000000.0 0.6220703125 0.5985107421875
20200000000.0 0.697052001953125 0.51007080078125
20300000000.0 0.76190185546875 0.41180419921875
20400000000.0 0.813446044921875 0.30633544921875
20500000000.0 0.85028076171875 0.192047119140625
20600000000.0 0.86944580078125 0.07208251953125
20700000000.0 0.872161865234375 -0.04644775390625
20800000000.0 0.858795166015625 -0.165557861328125
20900000000.0 0.827301025390625 -0.283050537109375
21000000000.0 0.781280517578125 -0.393157958984375
21100000000.0 0.71923828125 -0.496246337890625
21200000000.0 0.645294189453125 -0.589324951171875
21300000000.0 0.560455322265625 -0.6719970703125
21400000000.0 0.46221923828125 -0.74249267578125
21500000000.0 0.35894775390625 -0.79638671875
21600000000.0 0.24676513671875 -0.83868408203125
21700000000.0 0.1326904296875 -0.863800048828125
21800000000.0 0.0142822265625 -0.8741455078125
21900000000.0 -0.1021728515625 -0.86773681640625
22000000000.0 -0.218780517578125 -0.844879150390625
22100000000.0 -0.3258056640625 -0.80987548828125
22200000000.0 -0.428802490234375 -0.759185791015625
22300000000.0 -0.528228759765625 -0.697509765625
22400000000.0 -0.618133544921875 -0.62322998046875
22500000000.0 -0.694061279296875 -0.538543701171875
22600000000.0 -0.76275634765625 -0.4405517578125
22700000000.0 -0.8153076171875 -0.33355712890625
22800000000.0 -0.85205078125 -0.223419189453125
22900000000.0 -0.874542236328125 -0.107940673828125
23000000000.0 -0.880645751953125 0.0076904296875
23100000000.0 -0.871978759765625 0.124481201171875
23200000000.0 -0.848175048828125 0.23748779296875
23300000000.0 -0.80865478515625 0.34759521484375
23400000000.0 -0.755950927734375 0.45013427734375
23500000000.0 -0.690216064453125 0.545135498046875
23600000000.0 -0.61328125 0.63006591796875
23700000000.0 -0.52655029296875 0.703643798828125
23800000000.0 -0.43231201171875 0.76422119140625
23900000000.0 -0.32586669921875 0.814208984375
24000000000.0 -0.21929931640625 0.846771240234375
24100000000.0 -0.11029052734375 0.868560791015625
24200000000.0 -0.00250244140625 0.876495361328125
24300000000.0 0.111053466796875 0.87109375
24400000000.0 0.22198486328125 0.8511962890625
24500000000.0 0.329559326171875 0.818206787109375
24600000000.0 0.434906005859375 0.768798828125
24700000000.0 0.528961181640625 0.7064208984375
24800000000.0 0.6168212890625 0.630035400390625
24900000000.0 0.694488525390625 0.544342041015625
25000000000.0 0.760040283203125 0.449737548828125
25100000000.0 0.810943603515625 0.347686767578125
25200000000.0 0.84814453125 0.239501953125
25300000000.0 0.87091064453125 0.1279296875
25400000000.0 0.881500244140625 0.014495849609375
25500000000.0 0.874114990234375 -0.09814453125
25600000000.0 0.853424072265625 -0.208648681640625
25700000000.0 0.817901611328125 -0.317352294921875
25800000000.0 0.769256591796875 -0.41888427734375
25900000000.0 0.70928955078125 -0.511688232421875
26000000000.0 0.63861083984375 -0.5970458984375
26100000000.0 0.558685302734375 -0.67236328125
26200000000.0 0.47039794921875 -0.739501953125
26300000000.0 0.370880126953125 -0.79541015625
26400000000.0 0.265472412109375 -0.83819580078125
26500000000.0 0.155242919921875 -0.86639404296875
