!Created with skrf (http://scikit-rf.org).
# Hz S RI R 50.0 
!freq ReS11 ImS11
1000000000.0 0.882080078125 -0.19049072265625
1100000000.0 0.76629638671875 -0.49334716796875
1200000000.0 0.55523681640625 -0.73236083984375
1300000000.0 0.278167724609375 -0.881591796875
1400000000.0 -0.02984619140625 -0.9271240234375
1500000000.0 -0.33349609375 -0.867095947265625
1600000000.0 -0.599029541015625 -0.71112060546875
1700000000.0 -0.796875 -0.4766845703125
1800000000.0 -0.904266357421875 -0.190399169921875
1900000000.0 -0.909332275390625 0.114105224609375
2000000000.0 -0.813140869140625 0.401275634765625
2100000000.0 -0.6278076171875 0.638641357421875
2200000000.0 -0.373748779296875 0.798919677734375
2300000000.0 -0.083648681640625 0.86419677734375
2400000000.0 0.21044921875 0.8262939453125
2500000000.0 0.471771240234375 0.69110107421875
2600000000.0 0.66973876953125 0.47576904296875
2700000000.0 0.780181884765625 0.207427978515625
2800000000.0 0.78961181640625 -0.080413818359375
2900000000.0 0.698150634765625 -0.35076904296875
3000000000.0 0.51947021484375 -0.5697021484375
3100000000.0 0.279052734375 -0.7115478515625
3200000000.0 0.005401611328125 -0.7608642578125
3300000000.0 -0.265625 -0.711761474609375
3400000000.0 -0.500885009765625 -0.57269287109375
3500000000.0 -0.67230224609375 -0.363037109375
3600000000.0 -0.76153564453125 -0.110321044921875
3700000000.0 -0.760986328125 0.15692138671875
3800000000.0 -0.6715087890625 0.407073974609375
3900000000.0 -0.5048828125 0.61181640625
4000000000.0 -0.28167724609375 0.7501220703125
4100000000.0 -0.026214599609375 0.809417724609375
4200000000.0 0.233795166015625 0.78363037109375
4300000000.0 0.472320556640625 0.674835205078125
4400000000.0 0.6627197265625 0.49542236328125
4500000000.0 0.78594970703125 0.26519775390625
4600000000.0 0.830657958984375 0.0076904296875
4700000000.0 0.790313720703125 -0.252227783203125
4800000000.0 0.66717529296875 -0.48675537109375
4900000000.0 0.473663330078125 -0.668243408203125
5000000000.0 0.230316162109375 -0.776458740234375
5100000000.0 -0.036407470703125 -0.798309326171875
5200000000.0 -0.296539306640625 -0.727935791015625
5300000000.0 -0.5167236328125 -0.571563720703125
5400000000.0 -0.66888427734375 -0.346527099609375
5500000000.0 -0.730712890625 -0.083648681640625
5600000000.0 -0.695343017578125 0.18292236328125
5700000000.0 -0.56597900390625 0.41912841796875
5800000000.0 -0.360748291015625 0.589813232421875
5900000000.0 -0.109100341796875 0.67315673828125
6000000000.0 0.153656005859375 0.65966796875
6100000000.0 0.392333984375 0.548797607421875
6200000000.0 0.5693359375 0.36187744140625
6300000000.0 0.665252685546875 0.1263427734375
6400000000.0 0.670379638671875 -0.12298583984375
6500000000.0 0.589447021484375 -0.351593017578125
6600000000.0 0.43853759765625 -0.536285400390625
6700000000.0 0.235748291015625 -0.65789794921875
6800000000.0 0.007415771484375 -0.703887939453125
6900000000.0 -0.219970703125 -0.670684814453125
7000000000.0 -0.420166015625 -0.567291259765625
7100000000.0 -0.5736083984375 -0.408172607421875
7200000000.0 -0.66754150390625 -0.211212158203125
7300000000.0 -0.6900634765625 3.0517578125e-05
7400000000.0 -0.650543212890625 0.192962646484375
7500000000.0 -0.57464599609375 0.36602783203125
7600000000.0 -0.44891357421875 0.52862548828125
7700000000.0 -0.26416015625 0.6514892578125
7800000000.0 -0.038818359375 0.70684814453125
7900000000.0 0.197906494140625 0.6798095703125
8000000000.0 0.41522216796875 0.5704345703125
8100000000.0 0.583160400390625 0.390380859375
8200000000.0 0.67962646484375 0.159332275390625
8300000000.0 0.686553955078125 -0.09442138671875
8400000000.0 0.600616455078125 -0.333984375
8500000000.0 0.432708740234375 -0.52679443359375
8600000000.0 0.206634521484375 -0.644775390625
8700000000.0 -0.045379638671875 -0.672607421875
8800000000.0 -0.287200927734375 -0.60748291015625
8900000000.0 -0.486175537109375 -0.4613189697265625
9000000000.0 -0.6168212890625 -0.257568359375
9100000000.0 -0.666839599609375 -0.026123046875
9200000000.0 -0.634063720703125 0.204925537109375
9300000000.0 -0.5272216796875 0.40643310546875
9400000000.0 -0.359954833984375 0.558258056640625
9500000000.0 -0.15447998046875 0.644287109375
9600000000.0 0.063812255859375 0.657440185546875
9700000000.0 0.272735595703125 0.59930419921875
9800000000.0 0.4502410888671875 0.4773101806640625
9900000000.0 0.5777587890625 0.30389404296875
10000000000.0 0.64093017578125 0.101654052734375
10100000000.0 0.63568115234375 -0.11181640625
10200000000.0 0.560638427734375 -0.31201171875
10300000000.0 0.424652099609375 -0.4756011962890625
10400000000.0 0.2403564453125 -0.5858154296875
10500000000.0 0.030487060546875 -0.627685546875
10600000000.0 -0.18096923828125 -0.596435546875
10700000000.0 -0.3689117431640625 -0.4970855712890625
10800000000.0 -0.512420654296875 -0.340087890625
10900000000.0 -0.59332275390625 -0.14447021484375
11000000000.0 -0.602325439453125 0.064300537109375
11100000000.0 -0.543060302734375 0.260986328125
11200000000.0 -0.422698974609375 0.42547607421875
11300000000.0 -0.257781982421875 0.538909912109375
11400000000.0 -0.06793212890625 0.594635009765625
11500000000.0 0.129791259765625 0.586334228515625
11600000000.0 0.31414794921875 0.51727294921875
11700000000.0 0.4705810546875 0.3896026611328125
11800000000.0 0.5772705078125 0.216583251953125
11900000000.0 0.621246337890625 0.015625
12000000000.0 0.596221923828125 -0.188720703125
12100000000.0 0.5054931640625 -0.37640380859375
12200000000.0 0.3531494140625 -0.524261474609375
12300000000.0 0.158538818359375 -0.611663818359375
12400000000.0 -0.0538330078125 -0.62640380859375
12500000000.0 -0.257568359375 -0.56719970703125
12600000000.0 -0.4283294677734375 -0.4442596435546875
12700000000.0 -0.545623779296875 -0.271148681640625
12800000000.0 -0.596954345703125 -0.070037841796875
12900000000.0 -0.576385498046875 0.13494873046875
13000000000.0 -0.48638916015625 0.3206939697265625
13100000000.0 -0.3388671875 0.4616851806640625
13200000000.0 -0.15325927734375 0.54290771484375
13300000000.0 0.04827880859375 0.554443359375
13400000000.0 0.240447998046875 0.4945526123046875
13500000000.0 0.397918701171875 0.3726806640625
13600000000.0 0.50115966796875 0.203948974609375
13700000000.0 0.53936767578125 0.012542724609375
13800000000.0 0.508514404296875 -0.1796875
13900000000.0 0.4136505126953125 -0.3480987548828125
14000000000.0 0.268035888671875 -0.472320556640625
14100000000.0 0.089752197265625 -0.54058837890625
14200000000.0 -0.09912109375 -0.542999267578125
14300000000.0 -0.2764129638671875 -0.48358154296875
14400000000.0 -0.4235992431640625 -0.36871337890625
14500000000.0 -0.524200439453125 -0.212432861328125
14600000000.0 -0.56884765625 -0.031707763671875
14700000000.0 -0.552581787109375 0.15216064453125
14800000000.0 -0.478179931640625 0.322479248046875
14900000000.0 -0.3506011962890625 0.4595489501953125
15000000000.0 -0.1859130859375 0.548095703125
15100000000.0 0.000579833984375 0.5794677734375
15200000000.0 0.18792724609375 0.548065185546875
15300000000.0 0.35723876953125 0.4562835693359375
15400000000.0 0.487518310546875 0.3104400634765625
15500000000.0 0.562744140625 0.129730224609375
15600000000.0 0.573699951171875 -0.07037353515625
15700000000.0 0.515472412109375 -0.262725830078125
15800000000.0 0.39410400390625 -0.425872802734375
15900000000.0 0.221832275390625 -0.539031982421875
16000000000.0 0.020355224609375 -0.584808349609375
16100000000.0 -0.184600830078125 -0.55828857421875
16200000000.0 -0.3694000244140625 -0.4625701904296875
16300000000.0 -0.509918212890625 -0.307708740234375
16400000000.0 -0.58648681640625 -0.115936279296875
16500000000.0 -0.5926513671875 0.0909423828125
16600000000.0 -0.52606201171875 0.284759521484375
16700000000.0 -0.401123046875 0.442596435546875
16800000000.0 -0.2293701171875 0.547454833984375
16900000000.0 -0.037139892578125 0.587432861328125
17000000000.0 0.155975341796875 0.559356689453125
17100000000.0 0.3245849609375 0.4681243896484375
17200000000.0 0.4515838623046875 0.3292388916015625
17300000000.0 0.52239990234375 0.15618896484375
17400000000.0 0.530517578125 -0.026611328125
17500000000.0 0.475555419921875 -0.197296142578125
17600000000.0 0.3672943115234375 -0.3361358642578125
17700000000.0 0.2213897705078125 -0.4280242919921875
17800000000.0 0.056884765625 -0.4635009765625
17900000000.0 -0.1075592041015625 -0.4404296875
18000000000.0 -0.2498626708984375 -0.364288330078125
18100000000.0 -0.355621337890625 -0.2463226318359375
18200000000.0 -0.414825439453125 -0.1002044677734375
18300000000.0 -0.4197998046875 0.0560455322265625
18400000000.0 -0.3703765869140625 0.20263671875
18500000000.0 -0.2738800048828125 0.321258544921875
18600000000.0 -0.1410369873046875 0.3979339599609375
18700000000.0 0.0069580078125 0.42333984375
18800000000.0 0.1540069580078125 0.394805908203125
18900000000.0 0.27923583984375 0.31658935546875
19000000000.0 0.370147705078125 0.2041015625
19100000000.0 0.415069580078125 0.066436767578125
19200000000.0 0.4127044677734375 -0.0732421875
19300000000.0 0.361419677734375 -0.2037506103515625
19400000000.0 0.273834228515625 -0.3063201904296875
19500000000.0 0.158477783203125 -0.3760833740234375
19600000000.0 0.028472900390625 -0.4015045166015625
19700000000.0 -0.10150146484375 -0.386932373046875
19800000000.0 -0.2188262939453125 -0.3321380615234375
19900000000.0 -0.3134307861328125 -0.243438720703125
20000000000.0 -0.374603271484375 -0.1281280517578125
20100000000.0 -0.3993988037109375 0.0022125244140625
20200000000.0 -0.3812713623046875 0.1347808837890625
20300000000.0 -0.3188018798828125 0.2563629150390625
20400000000.0 -0.21771240234375 0.354248046875
20500000000.0 -0.087005615234375 0.4142303466796875
20600000000.0 0.0570831298828125 0.426727294921875
20700000000.0 0.2021942138671875 0.3912353515625
20800000000.0 0.3285064697265625 0.3058013916015625
20900000000.0 0.4183349609375 0.18035888671875
21000000000.0 0.4621124267578125 0.0308837890625
21100000000.0 0.450836181640625 -0.12713623046875
21200000000.0 0.38653564453125 -0.2715606689453125
21300000000.0 0.2781219482421875 -0.3877716064453125
21400000000.0 0.133209228515625 -0.458740234375
21500000000.0 -0.0244598388671875 -0.4748382568359375
21600000000.0 -0.1803131103515625 -0.439208984375
21700000000.0 -0.312652587890625 -0.3503265380859375
21800000000.0 -0.4072723388671875 -0.2220611572265625
21900000000.0 -0.450592041015625 -0.069610595703125
22000000000.0 -0.4391021728515625 0.0904388427734375
22100000000.0 -0.3709716796875 0.2323760986328125
22200000000.0 -0.256195068359375 0.343963623046875
22300000000.0 -0.1119537353515625 0.4062042236328125
22400000000.0 0.0474853515625 0.411407470703125
22500000000.0 0.2002410888671875 0.3602294921875
22600000000.0 0.321533203125 0.2552490234375
22700000000.0 0.39837646484375 0.1147613525390625
22800000000.0 0.41986083984375 -0.0464019775390625
22900000000.0 0.3819427490234375 -0.203155517578125
23000000000.0 0.2921295166015625 -0.3376007080078125
23100000000.0 0.159759521484375 -0.4322662353515625
23200000000.0 0.004608154296875 -0.4767303466796875
23300000000.0 -0.154815673828125 -0.4664459228515625
23400000000.0 -0.303466796875 -0.4059295654296875
23500000000.0 -0.424102783203125 -0.301025390625
23600000000.0 -0.504669189453125 -0.164764404296875
23700000000.0 -0.53985595703125 -0.01324462890625
23800000000.0 -0.52874755859375 0.139068603515625
23900000000.0 -0.4706268310546875 0.2837066650390625
24000000000.0 -0.3774871826171875 0.4009246826171875
24100000000.0 -0.25439453125 0.4894866943359375
24200000000.0 -0.11328125 0.537567138671875
24300000000.0 0.040496826171875 0.540740966796875
24400000000.0 0.186309814453125 0.49700927734375
24500000000.0 0.3116607666015625 0.4114990234375
24600000000.0 0.405303955078125 0.2888031005859375
24700000000.0 0.450653076171875 0.142242431640625
24800000000.0 0.4457550048828125 -0.0126495361328125
24900000000.0 0.387969970703125 -0.1551055908203125
25000000000.0 0.282928466796875 -0.2657928466796875
25100000000.0 0.1422882080078125 -0.330108642578125
25200000000.0 -0.0114593505859375 -0.334716796875
25300000000.0 -0.1563873291015625 -0.278228759765625
25400000000.0 -0.2625579833984375 -0.169036865234375
25500000000.0 -0.32135009765625 -0.0240936279296875
25600000000.0 -0.315216064453125 0.1311492919921875
25700000000.0 -0.2509918212890625 0.2698211669921875
25800000000.0 -0.1377105712890625 0.3751983642578125
25900000000.0 0.0071868896484375 0.4313812255859375
26000000000.0 0.16107177734375 0.43218994140625
26100000000.0 0.3050384521484375 0.381988525390625
26200000000.0 0.4255523681640625 0.2857666015625
26300000000.0 0.506591796875 0.16033935546875
26400000000.0 0.546783447265625 0.013336181640625
26500000000.0 0.539947509765625 -0.136871337890625
