!Created with skrf (http://scikit-rf.org).
# Hz S RI R 50.0 
!freq ReS11 ImS11
1000000000.0 0.644775390625 -0.646575927734375
1100000000.0 0.34295654296875 -0.85345458984375
1200000000.0 -0.011749267578125 -0.923248291015625
1300000000.0 -0.36322021484375 -0.84783935546875
1400000000.0 -0.6551513671875 -0.6416015625
1500000000.0 -0.842071533203125 -0.337158203125
1600000000.0 -0.894073486328125 0.01434326171875
1700000000.0 -0.8026123046875 0.356597900390625
1800000000.0 -0.581756591796875 0.632720947265625
1900000000.0 -0.268768310546875 0.793670654296875
2000000000.0 0.08056640625 0.8111572265625
2100000000.0 0.40234375 0.68402099609375
2200000000.0 0.6405029296875 0.436187744140625
2300000000.0 0.753814697265625 0.11370849609375
2400000000.0 0.719451904296875 -0.2237548828125
2500000000.0 0.54644775390625 -0.51251220703125
2600000000.0 0.270263671875 -0.6995849609375
2700000000.0 -0.055999755859375 -0.75360107421875
2800000000.0 -0.374176025390625 -0.66741943359375
2900000000.0 -0.626953125 -0.459075927734375
3000000000.0 -0.7718505859375 -0.16522216796875
3100000000.0 -0.784454345703125 0.160980224609375
3200000000.0 -0.664398193359375 0.464263916015625
3300000000.0 -0.432586669921875 0.694671630859375
3400000000.0 -0.127227783203125 0.813079833984375
3500000000.0 0.201507568359375 0.79827880859375
3600000000.0 0.496826171875 0.6505126953125
3700000000.0 0.706817626953125 0.39544677734375
3800000000.0 0.7940673828125 0.07470703125
3900000000.0 0.73919677734375 -0.25433349609375
4000000000.0 0.5491943359375 -0.52935791015625
4100000000.0 0.260345458984375 -0.69427490234375
4200000000.0 -0.0703125 -0.71759033203125
4300000000.0 -0.374481201171875 -0.595855712890625
4400000000.0 -0.5927734375 -0.35650634765625
4500000000.0 -0.683380126953125 -0.04931640625
4600000000.0 -0.63238525390625 0.262115478515625
4700000000.0 -0.45611572265625 0.516448974609375
4800000000.0 -0.195404052734375 0.671051025390625
4900000000.0 0.101165771484375 0.704864501953125
5000000000.0 0.3826904296875 0.618255615234375
5100000000.0 0.605224609375 0.42950439453125
5200000000.0 0.735504150390625 0.172088623046875
5300000000.0 0.758331298828125 -0.1136474609375
5400000000.0 0.67303466796875 -0.386138916015625
5500000000.0 0.492156982421875 -0.608154296875
5600000000.0 0.23944091796875 -0.747314453125
5700000000.0 -0.048187255859375 -0.781280517578125
5800000000.0 -0.330322265625 -0.702911376953125
5900000000.0 -0.562530517578125 -0.52166748046875
6000000000.0 -0.708465576171875 -0.25787353515625
6100000000.0 -0.735931396484375 0.04473876953125
6200000000.0 -0.63330078125 0.335296630859375
6300000000.0 -0.4154052734375 0.555694580078125
6400000000.0 -0.123931884765625 0.660369873046875
6500000000.0 0.181915283203125 0.627899169921875
6600000000.0 0.4403228759765625 0.465362548828125
6700000000.0 0.595855712890625 0.209228515625
6800000000.0 0.62152099609375 -0.08233642578125
6900000000.0 0.5208740234375 -0.3468017578125
7000000000.0 0.323974609375 -0.53778076171875
7100000000.0 0.07470703125 -0.626678466796875
7200000000.0 -0.181640625 -0.608001708984375
7300000000.0 -0.39996337890625 -0.4918670654296875
7400000000.0 -0.54901123046875 -0.314453125
7500000000.0 -0.6309814453125 -0.105499267578125
7600000000.0 -0.639190673828125 0.126129150390625
7700000000.0 -0.557403564453125 0.353759765625
7800000000.0 -0.390533447265625 0.537689208984375
7900000000.0 -0.16107177734375 0.64459228515625
8000000000.0 0.097503662109375 0.6541748046875
8100000000.0 0.343292236328125 0.560089111328125
8200000000.0 0.535736083984375 0.37091064453125
8300000000.0 0.63421630859375 0.113800048828125
8400000000.0 0.614776611328125 -0.164093017578125
8500000000.0 0.476898193359375 -0.4094390869140625
8600000000.0 0.24609375 -0.571624755859375
8700000000.0 -0.0308837890625 -0.618255615234375
8800000000.0 -0.297210693359375 -0.541290283203125
8900000000.0 -0.500946044921875 -0.360809326171875
9000000000.0 -0.606719970703125 -0.116302490234375
9100000000.0 -0.6021728515625 0.142822265625
9200000000.0 -0.4951019287109375 0.37359619140625
9300000000.0 -0.3096923828125 0.5386962890625
9400000000.0 -0.076446533203125 0.617218017578125
9500000000.0 0.165740966796875 0.599273681640625
9600000000.0 0.3797454833984375 0.4909210205078125
9700000000.0 0.5360107421875 0.3096923828125
9800000000.0 0.61175537109375 0.083038330078125
9900000000.0 0.594635009765625 -0.15802001953125
10000000000.0 0.484954833984375 -0.3734130859375
10100000000.0 0.29852294921875 -0.53173828125
10200000000.0 0.062347412109375 -0.60479736328125
10300000000.0 -0.185333251953125 -0.57684326171875
10400000000.0 -0.404571533203125 -0.45025634765625
10500000000.0 -0.552520751953125 -0.243865966796875
10600000000.0 -0.602569580078125 0.006317138671875
10700000000.0 -0.54510498046875 0.253326416015625
10800000000.0 -0.3913116455078125 0.4540557861328125
10900000000.0 -0.1702880859375 0.57232666015625
11000000000.0 0.0767822265625 0.588653564453125
11100000000.0 0.30377197265625 0.50390625
11200000000.0 0.4746246337890625 0.3379974365234375
11300000000.0 0.56341552734375 0.120452880859375
11400000000.0 0.5587158203125 -0.107940673828125
11500000000.0 0.465972900390625 -0.3161773681640625
11600000000.0 0.2989501953125 -0.4685211181640625
11700000000.0 0.088043212890625 -0.54229736328125
11800000000.0 -0.133941650390625 -0.5263671875
11900000000.0 -0.331451416015625 -0.4231414794921875
12000000000.0 -0.4718780517578125 -0.2476654052734375
12100000000.0 -0.527252197265625 -0.02947998046875
12200000000.0 -0.4891815185546875 0.1927947998046875
12300000000.0 -0.3621978759765625 0.3792266845703125
12400000000.0 -0.169219970703125 0.4976959228515625
12500000000.0 0.055999755859375 0.527130126953125
12600000000.0 0.2736053466796875 0.4598388671875
12700000000.0 0.445587158203125 0.309326171875
12800000000.0 0.541412353515625 0.101348876953125
12900000000.0 0.544921875 -0.12847900390625
13000000000.0 0.456512451171875 -0.3393096923828125
13100000000.0 0.291015625 -0.4988250732421875
13200000000.0 0.0753173828125 -0.5791015625
13300000000.0 -0.154296875 -0.5675048828125
13400000000.0 -0.3603973388671875 -0.4670867919921875
13500000000.0 -0.51129150390625 -0.292755126953125
13600000000.0 -0.581329345703125 -0.07421875
13700000000.0 -0.558380126953125 0.15618896484375
13800000000.0 -0.445343017578125 0.356781005859375
13900000000.0 -0.2614898681640625 0.4939727783203125
14000000000.0 -0.038116455078125 0.54425048828125
14100000000.0 0.18414306640625 0.496307373046875
14200000000.0 0.365509033203125 0.3626251220703125
14300000000.0 0.4715118408203125 0.166107177734375
14400000000.0 0.48455810546875 -0.052215576171875
14500000000.0 0.405517578125 -0.2515411376953125
14600000000.0 0.252349853515625 -0.3958587646484375
14700000000.0 0.0576171875 -0.4617919921875
14800000000.0 -0.1422576904296875 -0.4402923583984375
14900000000.0 -0.3106689453125 -0.34210205078125
15000000000.0 -0.423492431640625 -0.1876983642578125
15100000000.0 -0.463958740234375 -0.003509521484375
15200000000.0 -0.429901123046875 0.178131103515625
15300000000.0 -0.3276214599609375 0.3311767578125
15400000000.0 -0.1759033203125 0.429779052734375
15500000000.0 0.0020599365234375 0.464141845703125
15600000000.0 0.180694580078125 0.4254913330078125
15700000000.0 0.3312835693359375 0.3207550048828125
15800000000.0 0.42987060546875 0.1637725830078125
15900000000.0 0.458709716796875 -0.0222625732421875
16000000000.0 0.41168212890625 -0.2054443359375
16100000000.0 0.2936248779296875 -0.3578338623046875
16200000000.0 0.121368408203125 -0.45074462890625
16300000000.0 -0.07659912109375 -0.4662017822265625
16400000000.0 -0.2645416259765625 -0.39959716796875
16500000000.0 -0.410400390625 -0.2598724365234375
16600000000.0 -0.484832763671875 -0.0735931396484375
16700000000.0 -0.479217529296875 0.1270904541015625
16800000000.0 -0.390625 0.307830810546875
16900000000.0 -0.239837646484375 0.434295654296875
17000000000.0 -0.0518646240234375 0.48809814453125
17100000000.0 0.1373443603515625 0.4606781005859375
17200000000.0 0.2972564697265625 0.362884521484375
17300000000.0 0.4016876220703125 0.2099609375
17400000000.0 0.4342193603515625 0.0328216552734375
17500000000.0 0.391387939453125 -0.1370697021484375
17600000000.0 0.2848358154296875 -0.270843505859375
17700000000.0 0.136993408203125 -0.3470916748046875
17800000000.0 -0.0244903564453125 -0.3549957275390625
17900000000.0 -0.172271728515625 -0.295440673828125
18000000000.0 -0.2779388427734375 -0.1819000244140625
18100000000.0 -0.324859619140625 -0.036773681640625
18200000000.0 -0.307220458984375 0.113250732421875
18300000000.0 -0.2287139892578125 0.24056243896484375
18400000000.0 -0.104827880859375 0.3222198486328125
18500000000.0 0.0402984619140625 0.344635009765625
18600000000.0 0.1842803955078125 0.3048553466796875
18700000000.0 0.2979888916015625 0.21038818359375
18800000000.0 0.3646697998046875 0.07598876953125
18900000000.0 0.3701324462890625 -0.076324462890625
19000000000.0 0.3157958984375 -0.2156829833984375
19100000000.0 0.2076263427734375 -0.3252716064453125
19200000000.0 0.0669097900390625 -0.380767822265625
19300000000.0 -0.088226318359375 -0.37738037109375
19400000000.0 -0.227447509765625 -0.311920166015625
19500000000.0 -0.3310089111328125 -0.1990509033203125
19600000000.0 -0.3828887939453125 -0.0513153076171875
19700000000.0 -0.37384033203125 0.1033782958984375
19800000000.0 -0.303955078125 0.244537353515625
19900000000.0 -0.183929443359375 0.34771728515625
20000000000.0 -0.02996826171875 0.3967132568359375
20100000000.0 0.1298828125 0.3815765380859375
20200000000.0 0.2722320556640625 0.302886962890625
20300000000.0 0.3737335205078125 0.1719970703125
20400000000.0 0.414886474609375 0.0116729736328125
20500000000.0 0.388153076171875 -0.153656005859375
20600000000.0 0.29443359375 -0.2955322265625
20700000000.0 0.153228759765625 -0.38555908203125
20800000000.0 -0.01324462890625 -0.411712646484375
20900000000.0 -0.177337646484375 -0.3679351806640625
21000000000.0 -0.3075408935546875 -0.259857177734375
21100000000.0 -0.3827972412109375 -0.108856201171875
21200000000.0 -0.389129638671875 0.061309814453125
21300000000.0 -0.3220367431640625 0.217071533203125
21400000000.0 -0.1995391845703125 0.3332977294921875
21500000000.0 -0.0363616943359375 0.389434814453125
21600000000.0 0.134185791015625 0.3694610595703125
21700000000.0 0.28369140625 0.283111572265625
21800000000.0 0.3834991455078125 0.141571044921875
21900000000.0 0.4176788330078125 -0.0292816162109375
22000000000.0 0.378753662109375 -0.1971893310546875
22100000000.0 0.2767181396484375 -0.33837890625
22200000000.0 0.1277313232421875 -0.4241943359375
22300000000.0 -0.0445098876953125 -0.4443206787109375
22400000000.0 -0.2080535888671875 -0.3960723876953125
22500000000.0 -0.3361663818359375 -0.28619384765625
22600000000.0 -0.41162109375 -0.13543701171875
22700000000.0 -0.4176483154296875 0.0329132080078125
22800000000.0 -0.353546142578125 0.1853485107421875
22900000000.0 -0.231781005859375 0.2969970703125
23000000000.0 -0.07427978515625 0.3434600830078125
23100000000.0 0.08563232421875 0.3159942626953125
23200000000.0 0.2162322998046875 0.21836090087890625
23300000000.0 0.288543701171875 0.072540283203125
23400000000.0 0.283905029296875 -0.09100341796875
23500000000.0 0.2050323486328125 -0.23442840576171875
23600000000.0 0.0700225830078125 -0.3269195556640625
23700000000.0 -0.0922698974609375 -0.3521881103515625
23800000000.0 -0.250396728515625 -0.3077850341796875
23900000000.0 -0.37371826171875 -0.2008514404296875
24000000000.0 -0.4486083984375 -0.058135986328125
24100000000.0 -0.4636383056640625 0.1055755615234375
24200000000.0 -0.4204254150390625 0.260650634765625
24300000000.0 -0.32281494140625 0.38873291015625
24400000000.0 -0.189971923828125 0.4742584228515625
24500000000.0 -0.03704833984375 0.51031494140625
24600000000.0 0.1199493408203125 0.49102783203125
24700000000.0 0.2567596435546875 0.419677734375
24800000000.0 0.3620147705078125 0.3036956787109375
24900000000.0 0.4189453125 0.1589813232421875
25000000000.0 0.4175262451171875 0.005279541015625
25100000000.0 0.354644775390625 -0.1355133056640625
25200000000.0 0.24097442626953125 -0.23699951171875
25300000000.0 0.0938568115234375 -0.27996826171875
25400000000.0 -0.051910400390625 -0.2531890869140625
25500000000.0 -0.1741790771484375 -0.15993499755859375
25600000000.0 -0.23589324951171875 -0.021575927734375
25700000000.0 -0.22772979736328125 0.128265380859375
25800000000.0 -0.1497955322265625 0.259246826171875
25900000000.0 -0.0201416015625 0.342010498046875
26000000000.0 0.1320343017578125 0.3607177734375
26100000000.0 0.2783660888671875 0.3166656494140625
26200000000.0 0.397247314453125 0.2161865234375
26300000000.0 0.4668731689453125 0.0818634033203125
26400000000.0 0.4837799072265625 -0.0715789794921875
26500000000.0 0.4434967041015625 -0.218902587890625
