!Created with skrf (http://scikit-rf.org).
# Hz S RI R 50.0 
!freq ReS11 ImS11
1000000000.0 0.880462646484375 -0.1944580078125
1100000000.0 0.762725830078125 -0.497589111328125
1200000000.0 0.5491943359375 -0.7357177734375
1300000000.0 0.269927978515625 -0.883819580078125
1400000000.0 -0.040374755859375 -0.92755126953125
1500000000.0 -0.34552001953125 -0.86444091796875
1600000000.0 -0.61016845703125 -0.703643798828125
1700000000.0 -0.804779052734375 -0.464691162109375
1800000000.0 -0.90789794921875 -0.17626953125
1900000000.0 -0.909088134765625 0.12841796875
2000000000.0 -0.80926513671875 0.414306640625
2100000000.0 -0.62109375 0.649139404296875
2200000000.0 -0.366729736328125 0.80615234375
2300000000.0 -0.076690673828125 0.868255615234375
2400000000.0 0.215087890625 0.829010009765625
2500000000.0 0.47406005859375 0.694488525390625
2600000000.0 0.67010498046875 0.481475830078125
2700000000.0 0.780670166015625 0.216705322265625
2800000000.0 0.792938232421875 -0.067718505859375
2900000000.0 0.707366943359375 -0.336669921875
3000000000.0 0.53485107421875 -0.557830810546875
3100000000.0 0.2978515625 -0.704345703125
3200000000.0 0.026611328125 -0.75897216796875
3300000000.0 -0.2451171875 -0.716217041015625
3400000000.0 -0.4833984375 -0.5828857421875
3500000000.0 -0.66015625 -0.376922607421875
3600000000.0 -0.7550048828125 -0.124114990234375
3700000000.0 -0.757965087890625 0.144256591796875
3800000000.0 -0.670806884765625 0.3968505859375
3900000000.0 -0.5048828125 0.604705810546875
4000000000.0 -0.280029296875 0.744903564453125
4100000000.0 -0.02203369140625 0.803680419921875
4200000000.0 0.2406005859375 0.77459716796875
4300000000.0 0.47955322265625 0.661590576171875
4400000000.0 0.668975830078125 0.47711181640625
4500000000.0 0.788604736328125 0.240478515625
4600000000.0 0.824676513671875 -0.022705078125
4700000000.0 0.7728271484375 -0.28436279296875
4800000000.0 0.637298583984375 -0.515350341796875
4900000000.0 0.432098388671875 -0.6895751953125
5000000000.0 0.179168701171875 -0.784942626953125
5100000000.0 -0.091949462890625 -0.789154052734375
5200000000.0 -0.348419189453125 -0.69976806640625
5300000000.0 -0.558013916015625 -0.5269775390625
5400000000.0 -0.693206787109375 -0.29248046875
5500000000.0 -0.736328125 -0.02655029296875
5600000000.0 -0.682037353515625 0.235015869140625
5700000000.0 -0.539764404296875 0.457305908203125
5800000000.0 -0.330108642578125 0.6124267578125
5900000000.0 -0.082489013671875 0.682952880859375
6000000000.0 0.173675537109375 0.66143798828125
6100000000.0 0.403533935546875 0.547943115234375
6200000000.0 0.573455810546875 0.3619384765625
6300000000.0 0.6646728515625 0.1318359375
6400000000.0 0.6695556640625 -0.11175537109375
6500000000.0 0.5914306640625 -0.338653564453125
6600000000.0 0.442108154296875 -0.52313232421875
6700000000.0 0.2410888671875 -0.64495849609375
6800000000.0 0.01251220703125 -0.6917724609375
6900000000.0 -0.216552734375 -0.65948486328125
7000000000.0 -0.420013427734375 -0.5540771484375
7100000000.0 -0.57562255859375 -0.38983154296875
7200000000.0 -0.668243408203125 -0.18585205078125
7300000000.0 -0.688018798828125 0.0333251953125
7400000000.0 -0.639801025390625 0.23876953125
7500000000.0 -0.5423583984375 0.421051025390625
7600000000.0 -0.39044189453125 0.577392578125
7700000000.0 -0.184967041015625 0.68048095703125
7800000000.0 0.0504150390625 0.707427978515625
7900000000.0 0.284912109375 0.650543212890625
8000000000.0 0.48822021484375 0.51446533203125
8100000000.0 0.633148193359375 0.31396484375
8200000000.0 0.69940185546875 0.072906494140625
8300000000.0 0.675933837890625 -0.177581787109375
8400000000.0 0.564422607421875 -0.404144287109375
8500000000.0 0.37908935546875 -0.575775146484375
8600000000.0 0.14532470703125 -0.66943359375
8700000000.0 -0.104705810546875 -0.672637939453125
8800000000.0 -0.33673095703125 -0.587249755859375
8900000000.0 -0.52099609375 -0.427520751953125
9000000000.0 -0.635284423828125 -0.216766357421875
9100000000.0 -0.668731689453125 0.016357421875
9200000000.0 -0.62109375 0.24267578125
9300000000.0 -0.501800537109375 0.436004638671875
9400000000.0 -0.327911376953125 0.575775146484375
9500000000.0 -0.1202392578125 0.649169921875
9600000000.0 0.097198486328125 0.6502685546875
9700000000.0 0.300811767578125 0.581298828125
9800000000.0 0.4699554443359375 0.4508819580078125
9900000000.0 0.5872802734375 0.273681640625
10000000000.0 0.640625 0.06842041015625
10100000000.0 0.62420654296875 -0.1429443359375
10200000000.0 0.539306640625 -0.33740234375
10300000000.0 0.395660400390625 -0.4940338134765625
10400000000.0 0.2056884765625 -0.59405517578125
10500000000.0 -0.007049560546875 -0.62493896484375
10600000000.0 -0.217803955078125 -0.5823974609375
10700000000.0 -0.401947021484375 -0.4716644287109375
10800000000.0 -0.537506103515625 -0.3060302734375
10900000000.0 -0.609039306640625 -0.105804443359375
11000000000.0 -0.610870361328125 0.107391357421875
11100000000.0 -0.541900634765625 0.3087158203125
11200000000.0 -0.4097442626953125 0.4759979248046875
11300000000.0 -0.228851318359375 0.590484619140625
11400000000.0 -0.0194091796875 0.636932373046875
11500000000.0 0.193450927734375 0.61083984375
11600000000.0 0.3848876953125 0.514892578125
11700000000.0 0.532257080078125 0.361114501953125
11800000000.0 0.619293212890625 0.168548583984375
11900000000.0 0.637939453125 -0.03961181640625
12000000000.0 0.5892333984375 -0.24053955078125
12100000000.0 0.4793243408203125 -0.4163818359375
12200000000.0 0.315521240234375 -0.54852294921875
12300000000.0 0.114288330078125 -0.6173095703125
12400000000.0 -0.098236083984375 -0.61224365234375
12500000000.0 -0.294921875 -0.534637451171875
12600000000.0 -0.4522705078125 -0.3950347900390625
12700000000.0 -0.55084228515625 -0.210968017578125
12800000000.0 -0.57952880859375 -0.005645751953125
12900000000.0 -0.53521728515625 0.195343017578125
13000000000.0 -0.4243927001953125 0.3666229248046875
13100000000.0 -0.261993408203125 0.4873809814453125
13200000000.0 -0.069061279296875 0.54290771484375
13300000000.0 0.129150390625 0.527374267578125
13400000000.0 0.307647705078125 0.444427490234375
13500000000.0 0.4449615478515625 0.305908203125
13600000000.0 0.52484130859375 0.13031005859375
13700000000.0 0.539520263671875 -0.06036376953125
13800000000.0 0.489044189453125 -0.2429046630859375
13900000000.0 0.3811187744140625 -0.3964080810546875
14000000000.0 0.229461669921875 -0.50445556640625
14100000000.0 0.05206298828125 -0.55609130859375
14200000000.0 -0.1314697265625 -0.5469970703125
14300000000.0 -0.301177978515625 -0.4790496826171875
14400000000.0 -0.4396820068359375 -0.360626220703125
14500000000.0 -0.53265380859375 -0.204132080078125
14600000000.0 -0.570556640625 -0.02618408203125
14700000000.0 -0.549102783203125 0.154876708984375
14800000000.0 -0.4700927734375 0.319793701171875
14900000000.0 -0.3422088623046875 0.450439453125
15000000000.0 -0.175201416015625 0.53271484375
15100000000.0 0.01031494140625 0.554931640625
15200000000.0 0.19427490234375 0.512969970703125
15300000000.0 0.3544769287109375 0.4097137451171875
15400000000.0 0.4700469970703125 0.255615234375
15500000000.0 0.525848388671875 0.068511962890625
15600000000.0 0.511016845703125 -0.1285400390625
15700000000.0 0.4253082275390625 -0.3097686767578125
15800000000.0 0.2779693603515625 -0.4493865966796875
15900000000.0 0.088043212890625 -0.525665283203125
16000000000.0 -0.11871337890625 -0.526947021484375
16100000000.0 -0.3118896484375 -0.45166015625
16200000000.0 -0.463897705078125 -0.311309814453125
16300000000.0 -0.554290771484375 -0.126220703125
16400000000.0 -0.572540283203125 0.07720947265625
16500000000.0 -0.518310546875 0.271240234375
16600000000.0 -0.40185546875 0.432098388671875
16700000000.0 -0.240386962890625 0.541900634765625
16800000000.0 -0.054656982421875 0.590484619140625
16900000000.0 0.13360595703125 0.57501220703125
17000000000.0 0.30352783203125 0.5003662109375
17100000000.0 0.437652587890625 0.3766937255859375
17200000000.0 0.52337646484375 0.219329833984375
17300000000.0 0.553924560546875 0.04571533203125
17400000000.0 0.5277099609375 -0.125457763671875
17500000000.0 0.4494781494140625 -0.2769012451171875
17600000000.0 0.3287506103515625 -0.3928985595703125
17700000000.0 0.17999267578125 -0.462371826171875
17800000000.0 0.019500732421875 -0.479949951171875
17900000000.0 -0.1348114013671875 -0.445281982421875
18000000000.0 -0.2675628662109375 -0.3642425537109375
18100000000.0 -0.365692138671875 -0.2459869384765625
18200000000.0 -0.4189605712890625 -0.1033172607421875
18300000000.0 -0.4211273193359375 0.0482330322265625
18400000000.0 -0.3713226318359375 0.1902313232421875
18500000000.0 -0.276214599609375 0.3047943115234375
18600000000.0 -0.148406982421875 0.3778076171875
18700000000.0 -0.0047454833984375 0.4008941650390625
18800000000.0 0.1361083984375 0.3719635009765625
18900000000.0 0.2561492919921875 0.29583740234375
19000000000.0 0.3402252197265625 0.1833038330078125
19100000000.0 0.37835693359375 0.049896240234375
19200000000.0 0.366851806640625 -0.086639404296875
19300000000.0 0.3088531494140625 -0.20849609375
19400000000.0 0.2132110595703125 -0.3014068603515625
19500000000.0 0.0931549072265625 -0.354766845703125
19600000000.0 -0.0366668701171875 -0.3645477294921875
19700000000.0 -0.161651611328125 -0.3305206298828125
19800000000.0 -0.2682342529296875 -0.2570343017578125
19900000000.0 -0.3458709716796875 -0.152313232421875
20000000000.0 -0.3855438232421875 -0.0263824462890625
20100000000.0 -0.382080078125 0.107940673828125
20200000000.0 -0.3337860107421875 0.2362060546875
20300000000.0 -0.2439422607421875 0.344024658203125
20400000000.0 -0.1206817626953125 0.417724609375
20500000000.0 0.0230560302734375 0.446868896484375
20600000000.0 0.171478271484375 0.425811767578125
20700000000.0 0.306549072265625 0.355621337890625
20800000000.0 0.4128875732421875 0.2430267333984375
20900000000.0 0.4756927490234375 0.1002197265625
21000000000.0 0.4889068603515625 -0.05645751953125
21100000000.0 0.448699951171875 -0.20947265625
21200000000.0 0.3610382080078125 -0.34228515625
21300000000.0 0.2344818115234375 -0.4384613037109375
21400000000.0 0.0837860107421875 -0.488067626953125
21500000000.0 -0.074554443359375 -0.48590087890625
21600000000.0 -0.222900390625 -0.4315032958984375
21700000000.0 -0.344818115234375 -0.3320770263671875
21800000000.0 -0.4262237548828125 -0.197967529296875
21900000000.0 -0.4574737548828125 -0.044647216796875
22000000000.0 -0.435516357421875 0.1090850830078125
22100000000.0 -0.3615264892578125 0.2458953857421875
22200000000.0 -0.244171142578125 0.3479766845703125
22300000000.0 -0.0980377197265625 0.401947021484375
22400000000.0 0.05841064453125 0.3994903564453125
22500000000.0 0.2039794921875 0.34002685546875
22600000000.0 0.3187103271484375 0.2305145263671875
22700000000.0 0.38531494140625 0.085296630859375
22800000000.0 0.393890380859375 -0.07525634765625
22900000000.0 0.3432464599609375 -0.2291717529296875
23000000000.0 0.2396392822265625 -0.3547515869140625
23100000000.0 0.0977020263671875 -0.435394287109375
23200000000.0 -0.063385009765625 -0.4614715576171875
23300000000.0 -0.223480224609375 -0.43096923828125
23400000000.0 -0.363555908203125 -0.3490753173828125
23500000000.0 -0.46844482421875 -0.2270050048828125
23600000000.0 -0.528472900390625 -0.07952880859375
23700000000.0 -0.539520263671875 0.077239990234375
23800000000.0 -0.5032958984375 0.227569580078125
23900000000.0 -0.42510986328125 0.3586578369140625
24000000000.0 -0.3136749267578125 0.459320068359375
24100000000.0 -0.18017578125 0.52313232421875
24200000000.0 -0.034698486328125 0.546295166015625
24300000000.0 0.111572265625 0.52587890625
24400000000.0 0.2455902099609375 0.46148681640625
24500000000.0 0.3529205322265625 0.3579864501953125
24600000000.0 0.420928955078125 0.2249755859375
24700000000.0 0.44036865234375 0.0768890380859375
24800000000.0 0.4069671630859375 -0.0685882568359375
24900000000.0 0.32373046875 -0.1918792724609375
25000000000.0 0.20074462890625 -0.2748260498046875
25100000000.0 0.05596923828125 -0.3040313720703125
25200000000.0 -0.0885467529296875 -0.2741851806640625
25300000000.0 -0.20903778076171875 -0.188995361328125
25400000000.0 -0.2857666015625 -0.0632171630859375
25500000000.0 -0.30645751953125 0.0829925537109375
25600000000.0 -0.2687530517578125 0.225433349609375
25700000000.0 -0.180694580078125 0.343414306640625
25800000000.0 -0.05535888671875 0.421356201171875
25900000000.0 0.0885467529296875 0.45037841796875
26000000000.0 0.234405517578125 0.4293060302734375
26100000000.0 0.3650970458984375 0.3625946044921875
26200000000.0 0.468231201171875 0.25860595703125
26300000000.0 0.534942626953125 0.1280517578125
26400000000.0 0.560028076171875 -0.01544189453125
26500000000.0 0.541717529296875 -0.160247802734375
