!Created with skrf (http://scikit-rf.org).
# Hz S RI R 50.0 
!freq ReS11 ImS11
1000000000.0 0.54803466796875 -0.713836669921875
1100000000.0 0.218353271484375 -0.8804931640625
1200000000.0 -0.14849853515625 -0.896820068359375
1300000000.0 -0.48876953125 -0.762603759765625
1400000000.0 -0.74383544921875 -0.502349853515625
1500000000.0 -0.8695068359375 -0.161468505859375
1600000000.0 -0.84307861328125 0.19866943359375
1700000000.0 -0.672882080078125 0.513641357421875
1800000000.0 -0.385833740234375 0.727142333984375
1900000000.0 -0.03765869140625 0.79791259765625
2000000000.0 0.304443359375 0.712738037109375
2100000000.0 0.573455810546875 0.489410400390625
2200000000.0 0.7164306640625 0.172882080078125
2300000000.0 0.70428466796875 -0.17071533203125
2400000000.0 0.544097900390625 -0.47332763671875
2500000000.0 0.266204833984375 -0.672119140625
2600000000.0 -0.06982421875 -0.72662353515625
2700000000.0 -0.394561767578125 -0.627349853515625
2800000000.0 -0.642242431640625 -0.395416259765625
2900000000.0 -0.763641357421875 -0.079315185546875
3000000000.0 -0.736053466796875 0.257659912109375
3100000000.0 -0.566436767578125 0.54949951171875
3200000000.0 -0.288818359375 0.740142822265625
3300000000.0 0.042999267578125 0.7939453125
3400000000.0 0.365234375 0.701141357421875
3500000000.0 0.616180419921875 0.47998046875
3600000000.0 0.74725341796875 0.1734619140625
3700000000.0 0.73272705078125 -0.158294677734375
3800000000.0 0.57574462890625 -0.448333740234375
3900000000.0 0.309356689453125 -0.638336181640625
4000000000.0 -0.009979248046875 -0.690338134765625
4100000000.0 -0.315185546875 -0.596771240234375
4200000000.0 -0.54425048828125 -0.3812255859375
4300000000.0 -0.6536865234375 -0.091705322265625
4400000000.0 -0.626678466796875 0.211822509765625
4500000000.0 -0.4748382568359375 0.4705047607421875
4600000000.0 -0.23101806640625 0.63824462890625
4700000000.0 0.056610107421875 0.689300537109375
4800000000.0 0.33795166015625 0.618896484375
4900000000.0 0.565826416015625 0.442138671875
5000000000.0 0.704071044921875 0.189971923828125
5100000000.0 0.73138427734375 -0.096893310546875
5200000000.0 0.6429443359375 -0.372222900390625
5300000000.0 0.45147705078125 -0.591552734375
5400000000.0 0.186981201171875 -0.717437744140625
5500000000.0 -0.108642578125 -0.725250244140625
5600000000.0 -0.383270263671875 -0.61077880859375
5700000000.0 -0.586212158203125 -0.391571044921875
5800000000.0 -0.677398681640625 -0.10601806640625
5900000000.0 -0.636260986328125 0.189910888671875
6000000000.0 -0.4710540771484375 0.4364776611328125
6100000000.0 -0.217010498046875 0.583038330078125
6200000000.0 0.071014404296875 0.601287841796875
6300000000.0 0.332244873046875 0.491912841796875
6400000000.0 0.514251708984375 0.282867431640625
6500000000.0 0.584930419921875 0.020904541015625
6600000000.0 0.5362548828125 -0.240325927734375
6700000000.0 0.383544921875 -0.4518585205078125
6800000000.0 0.15936279296875 -0.5775146484375
6900000000.0 -0.093353271484375 -0.598175048828125
7000000000.0 -0.329254150390625 -0.51470947265625
7100000000.0 -0.509307861328125 -0.345703125
7200000000.0 -0.606658935546875 -0.12030029296875
7300000000.0 -0.6055908203125 0.123199462890625
7400000000.0 -0.51171875 0.342193603515625
7500000000.0 -0.345611572265625 0.51287841796875
7600000000.0 -0.117584228515625 0.612762451171875
7700000000.0 0.142333984375 0.609710693359375
7800000000.0 0.382537841796875 0.4928131103515625
7900000000.0 0.551666259765625 0.280181884765625
8000000000.0 0.61181640625 0.0126953125
8100000000.0 0.54840087890625 -0.254852294921875
8200000000.0 0.373870849609375 -0.4666290283203125
8300000000.0 0.1265869140625 -0.57861328125
8400000000.0 -0.1407470703125 -0.571319580078125
8500000000.0 -0.374298095703125 -0.4512481689453125
8600000000.0 -0.53076171875 -0.247467041015625
8700000000.0 -0.58599853515625 -0.002410888671875
8800000000.0 -0.535888671875 0.238494873046875
8900000000.0 -0.3948974609375 0.434234619140625
9000000000.0 -0.189971923828125 0.555450439453125
9100000000.0 0.043914794921875 0.584503173828125
9200000000.0 0.269134521484375 0.5184326171875
9300000000.0 0.4495697021484375 0.368072509765625
9400000000.0 0.555267333984375 0.157012939453125
9500000000.0 0.56640625 -0.080963134765625
9600000000.0 0.477752685546875 -0.3049774169921875
9700000000.0 0.3014984130859375 -0.473236083984375
9800000000.0 0.0679931640625 -0.551513671875
9900000000.0 -0.178436279296875 -0.520599365234375
10000000000.0 -0.3870391845703125 -0.384124755859375
10100000000.0 -0.51324462890625 -0.16986083984375
10200000000.0 -0.53021240234375 0.076263427734375
10300000000.0 -0.4367828369140625 0.30047607421875
10400000000.0 -0.256988525390625 0.4554595947265625
10500000000.0 -0.033721923828125 0.512237548828125
10600000000.0 0.1832427978515625 0.4660186767578125
10700000000.0 0.35064697265625 0.3353729248046875
10800000000.0 0.44073486328125 0.1547698974609375
10900000000.0 0.44671630859375 -0.0366363525390625
11000000000.0 0.3779449462890625 -0.2039794921875
11100000000.0 0.2543792724609375 -0.3248138427734375
11200000000.0 0.0995941162109375 -0.385467529296875
11300000000.0 -0.0606689453125 -0.3833160400390625
11400000000.0 -0.2068023681640625 -0.3240203857421875
11500000000.0 -0.3236083984375 -0.2151336669921875
11600000000.0 -0.39483642578125 -0.063995361328125
11700000000.0 -0.4006805419921875 0.1132354736328125
11800000000.0 -0.32843017578125 0.2862701416015625
11900000000.0 -0.18231201171875 0.4175567626953125
12000000000.0 0.0124359130859375 0.4744415283203125
12100000000.0 0.21734619140625 0.44122314453125
12200000000.0 0.391082763671875 0.3217926025390625
12300000000.0 0.49896240234375 0.1381988525390625
12400000000.0 0.519989013671875 -0.07476806640625
12500000000.0 0.4502105712890625 -0.2779083251953125
12600000000.0 0.3023223876953125 -0.4339447021484375
12700000000.0 0.1033935546875 -0.51458740234375
12800000000.0 -0.110809326171875 -0.505340576171875
12900000000.0 -0.3004913330078125 -0.4076995849609375
13000000000.0 -0.4308013916015625 -0.240631103515625
13100000000.0 -0.477447509765625 -0.0356292724609375
13200000000.0 -0.4322052001953125 0.1675872802734375
13300000000.0 -0.3054656982421875 0.3294830322265625
13400000000.0 -0.12322998046875 0.4193878173828125
13500000000.0 0.0769500732421875 0.42108154296875
13600000000.0 0.2551727294921875 0.337066650390625
13700000000.0 0.3780517578125 0.18658447265625
13800000000.0 0.423980712890625 0.000762939453125
13900000000.0 0.3875885009765625 -0.1846160888671875
14000000000.0 0.278411865234375 -0.336181640625
14100000000.0 0.1181640625 -0.4287109375
14200000000.0 -0.064788818359375 -0.4479217529296875
14300000000.0 -0.23931884765625 -0.392120361328125
14400000000.0 -0.377227783203125 -0.271514892578125
14500000000.0 -0.4560089111328125 -0.1056365966796875
14600000000.0 -0.4622802734375 0.07891845703125
14700000000.0 -0.394012451171875 0.2522430419921875
14800000000.0 -0.2583770751953125 0.3844146728515625
14900000000.0 -0.0783233642578125 0.449981689453125
15000000000.0 0.1158447265625 0.4335784912109375
15100000000.0 0.287261962890625 0.3339691162109375
15200000000.0 0.3996124267578125 0.167083740234375
15300000000.0 0.427276611328125 -0.034759521484375
15400000000.0 0.361480712890625 -0.2292938232421875
15500000000.0 0.2152862548828125 -0.37548828125
15600000000.0 0.019073486328125 -0.4412078857421875
15700000000.0 -0.185089111328125 -0.4136962890625
15800000000.0 -0.35614013671875 -0.3012847900390625
15900000000.0 -0.4612884521484375 -0.1288604736328125
16000000000.0 -0.484619140625 0.068695068359375
16100000000.0 -0.426025390625 0.255035400390625
16200000000.0 -0.300506591796875 0.399139404296875
16300000000.0 -0.13134765625 0.4812469482421875
16400000000.0 0.052734375 0.4911956787109375
16500000000.0 0.223602294921875 0.4303436279296875
16600000000.0 0.3565673828125 0.3102569580078125
16700000000.0 0.4320831298828125 0.1495819091796875
16800000000.0 0.4392547607421875 -0.026641845703125
16900000000.0 0.3764801025390625 -0.1912994384765625
17000000000.0 0.25238037109375 -0.316986083984375
17100000000.0 0.0869903564453125 -0.3809051513671875
17200000000.0 -0.0917510986328125 -0.3697357177734375
17300000000.0 -0.2506561279296875 -0.282135009765625
17400000000.0 -0.3574371337890625 -0.13153076171875
17500000000.0 -0.3876190185546875 0.0543670654296875
17600000000.0 -0.3309173583984375 0.2382659912109375
17700000000.0 -0.1951751708984375 0.38055419921875
17800000000.0 -0.0064544677734375 0.4489288330078125
17900000000.0 0.196685791015625 0.425811767578125
18000000000.0 0.3715667724609375 0.313720703125
18100000000.0 0.4809112548828125 0.134307861328125
18200000000.0 0.50213623046875 -0.076446533203125
18300000000.0 0.430511474609375 -0.27618408203125
18400000000.0 0.2814788818359375 -0.42633056640625
18500000000.0 0.0848846435546875 -0.4992523193359375
18600000000.0 -0.12109375 -0.4837493896484375
18700000000.0 -0.2987060546875 -0.386566162109375
18800000000.0 -0.41766357421875 -0.2290191650390625
18900000000.0 -0.4607391357421875 -0.042144775390625
19000000000.0 -0.425323486328125 0.1399688720703125
19100000000.0 -0.3224945068359375 0.2868804931640625
19200000000.0 -0.174591064453125 0.3756256103515625
19300000000.0 -0.010101318359375 0.39581298828125
19400000000.0 0.14178466796875 0.3490142822265625
19500000000.0 0.2563323974609375 0.248626708984375
19600000000.0 0.317047119140625 0.1156768798828125
19700000000.0 0.3174591064453125 -0.0248260498046875
19800000000.0 0.2618255615234375 -0.148590087890625
19900000000.0 0.16236114501953125 -0.23584747314453125
20000000000.0 0.037750244140625 -0.272705078125
20100000000.0 -0.0897064208984375 -0.25384521484375
20200000000.0 -0.197357177734375 -0.1823577880859375
20300000000.0 -0.264801025390625 -0.07073974609375
20400000000.0 -0.2781219482421875 0.061492919921875
20500000000.0 -0.23210906982421875 0.18924713134765625
20600000000.0 -0.132843017578125 0.287200927734375
20700000000.0 0.0020904541015625 0.334625244140625
20800000000.0 0.1480712890625 0.3200836181640625
20900000000.0 0.276763916015625 0.243682861328125
21000000000.0 0.3639068603515625 0.1190948486328125
21100000000.0 0.3917999267578125 -0.0323486328125
21200000000.0 0.356170654296875 -0.1836395263671875
21300000000.0 0.2616424560546875 -0.3077850341796875
21400000000.0 0.125396728515625 -0.38348388671875
21500000000.0 -0.0294647216796875 -0.3983917236328125
21600000000.0 -0.176666259765625 -0.3494415283203125
21700000000.0 -0.2904205322265625 -0.2454376220703125
21800000000.0 -0.3512115478515625 -0.10528564453125
21900000000.0 -0.347869873046875 0.0468597412109375
22000000000.0 -0.280517578125 0.1823883056640625
22100000000.0 -0.1613616943359375 0.2753753662109375
22200000000.0 -0.013092041015625 0.30633544921875
22300000000.0 0.1340484619140625 0.268035888671875
22400000000.0 0.24947357177734375 0.16709136962890625
22500000000.0 0.3083038330078125 0.0238494873046875
22600000000.0 0.297454833984375 -0.1320953369140625
22700000000.0 0.219024658203125 -0.268707275390625
22800000000.0 0.0890655517578125 -0.3590087890625
22900000000.0 -0.067138671875 -0.3870391845703125
23000000000.0 -0.220611572265625 -0.3485107421875
23100000000.0 -0.3449859619140625 -0.2526092529296875
23200000000.0 -0.4210052490234375 -0.1170501708984375
23300000000.0 -0.4383392333984375 0.0355682373046875
23400000000.0 -0.395843505859375 0.181243896484375
23500000000.0 -0.301116943359375 0.2964324951171875
23600000000.0 -0.1707916259765625 0.3627777099609375
23700000000.0 -0.027618408203125 0.3695068359375
23800000000.0 0.1015625 0.31524658203125
23900000000.0 0.19118499755859375 0.21128082275390625
24000000000.0 0.2214508056640625 0.07918548583984375
24100000000.0 0.18352508544921875 -0.04981231689453125
24200000000.0 0.08570098876953125 -0.142303466796875
24300000000.0 -0.04705810546875 -0.17218017578125
24400000000.0 -0.17800140380859375 -0.1301116943359375
24500000000.0 -0.273223876953125 -0.0279388427734375
24600000000.0 -0.3101043701171875 0.1089630126953125
24700000000.0 -0.281890869140625 0.249969482421875
24800000000.0 -0.19561767578125 0.367767333984375
24900000000.0 -0.067657470703125 0.4409332275390625
25000000000.0 0.079345703125 0.4588165283203125
25100000000.0 0.2223052978515625 0.4197235107421875
25200000000.0 0.3398590087890625 0.3302459716796875
25300000000.0 0.4154205322265625 0.2038421630859375
25400000000.0 0.4372100830078125 0.0589447021484375
25500000000.0 0.4008636474609375 -0.081451416015625
25600000000.0 0.311859130859375 -0.1942138671875
25700000000.0 0.18487548828125 -0.258026123046875
25800000000.0 0.04541015625 -0.258880615234375
25900000000.0 -0.0773162841796875 -0.19622039794921875
26000000000.0 -0.15386199951171875 -0.08412933349609375
26100000000.0 -0.16681671142578125 0.04984283447265625
26200000000.0 -0.11365509033203125 0.1734771728515625
26300000000.0 -0.00848388671875 0.25799560546875
26400000000.0 0.1241455078125 0.2864227294921875
26500000000.0 0.2576751708984375 0.254974365234375
