!Created with skrf (http://scikit-rf.org).
# Hz S RI R 50.0 
!freq ReS11 ImS11
30000.0 0.955413818359375 -0.00091552734375
31000.0 0.955474853515625 -0.0009765625
33000.0 0.95550537109375 -0.000885009765625
36000.0 0.955413818359375 -0.0009765625
41000.0 0.95526123046875 -0.0008544921875
48500.0 0.95550537109375 -0.000732421875
58000.0 0.95538330078125 -0.00054931640625
70000.0 0.95550537109375 -0.0006103515625
84000.0 0.955474853515625 -0.000457763671875
100000.0 0.95550537109375 -0.000640869140625
125000.0 0.95550537109375 -0.00067138671875
150000.0 0.9554443359375 -0.0006103515625
175000.0 0.95550537109375 -0.00079345703125
200000.0 0.9556884765625 -0.000732421875
225000.0 0.95538330078125 -0.00103759765625
250000.0 0.95550537109375 -0.00091552734375
275000.0 0.95562744140625 -0.00103759765625
300000.0 0.955596923828125 -0.001129150390625
325000.0 0.95550537109375 -0.001129150390625
350000.0 0.95574951171875 -0.001190185546875
375000.0 0.95562744140625 -0.001373291015625
400000.0 0.955596923828125 -0.001678466796875
425000.0 0.95562744140625 -0.00152587890625
450000.0 0.955474853515625 -0.001708984375
475000.0 0.9554443359375 -0.001617431640625
500000.0 0.955535888671875 -0.0018310546875
525000.0 0.955596923828125 -0.001983642578125
550000.0 0.955596923828125 -0.001922607421875
575000.0 0.955718994140625 -0.002349853515625
600000.0 0.955535888671875 -0.002197265625
625000.0 0.955352783203125 -0.002288818359375
650000.0 0.955657958984375 -0.002410888671875
675000.0 0.955474853515625 -0.002532958984375
700000.0 0.955596923828125 -0.002716064453125
725000.0 0.955596923828125 -0.002777099609375
750000.0 0.955352783203125 -0.002838134765625
775000.0 0.955474853515625 -0.00274658203125
800000.0 0.955657958984375 -0.003082275390625
825000.0 0.955474853515625 -0.00299072265625
850000.0 0.955535888671875 -0.003265380859375
875000.0 0.955596923828125 -0.00341796875
900000.0 0.955596923828125 -0.003509521484375
925000.0 0.955474853515625 -0.003509521484375
950000.0 0.95574951171875 -0.00360107421875
975000.0 0.955474853515625 -0.003570556640625
1000000.0 0.955474853515625 -0.003753662109375
1030000.0 0.955474853515625 -0.00372314453125
1060000.0 0.955413818359375 -0.004058837890625
1110000.0 0.955535888671875 -0.00421142578125
1170000.0 0.955474853515625 -0.004364013671875
1250000.0 0.955352783203125 -0.004608154296875
1350000.0 0.955535888671875 -0.005035400390625
1500000.0 0.955352783203125 -0.00567626953125
1700000.0 0.95556640625 -0.00634765625
1950000.0 0.955474853515625 -0.007232666015625
2250000.0 0.955352783203125 -0.00848388671875
2750000.0 0.955322265625 -0.01025390625
3500000.0 0.955322265625 -0.013092041015625
4500000.0 0.955413818359375 -0.016937255859375
6000000.0 0.955108642578125 -0.022613525390625
8000000.0 0.954803466796875 -0.030029296875
11000000.0 0.954498291015625 -0.041290283203125
15500000.0 0.95330810546875 -0.05792236328125
22000000.0 0.95135498046875 -0.0821533203125
30000000.0 0.94793701171875 -0.111602783203125
40000000.0 0.9422607421875 -0.148345947265625
52500000.0 0.933197021484375 -0.1934814453125
68000000.0 0.919525146484375 -0.248626708984375
86500000.0 0.898681640625 -0.31353759765625
106000000.0 0.872222900390625 -0.380035400390625
127500000.0 0.837188720703125 -0.450225830078125
152000000.0 0.789764404296875 -0.52655029296875
180000000.0 0.72723388671875 -0.607269287109375
214000000.0 0.641143798828125 -0.696075439453125
254000000.0 0.526580810546875 -0.784271240234375
300000000.0 0.3788798153400421 -0.8623339533805847
350000000.0 0.2071598917245865 -0.9165348410606384
400000000.0 0.02796190232038498 -0.9366022348403931
450000000.0 -0.1510009765625 -0.9217756390571594
500000000.0 -0.32353901863098145 -0.8736276626586914
550000000.0 -0.48295149207115173 -0.7927002906799316
600000000.0 -0.6236346364021301 -0.6835915446281433
650000000.0 -0.7404109239578247 -0.5490853786468506
700000000.0 -0.8289794921875 -0.39605712890625
750000000.0 -0.88629150390625 -0.22882080078125
800000000.0 -0.910888671875 -0.0543212890625
850000000.0 -0.901275634765625 0.12115478515625
900000000.0 -0.858184814453125 0.290557861328125
950000000.0 -0.783660888671875 0.448516845703125
1000000000.0 -0.68115234375 0.588592529296875
1050000000.0 -0.553802490234375 0.706024169921875
1100000000.0 -0.406982421875 0.796844482421875
1150000000.0 -0.24603271484375 0.8572998046875
1200000000.0 -0.07733154296875 0.886199951171875
1250000000.0 0.0927734375 0.882080078125
1300000000.0 0.2586669921875 0.845733642578125
1350000000.0 0.413330078125 0.77899169921875
1400000000.0 0.55242919921875 0.684234619140625
1450000000.0 0.670196533203125 0.565673828125
1500000000.0 0.762603759765625 0.42724609375
1550000000.0 0.8272705078125 0.2747802734375
1600000000.0 0.861541748046875 0.113555908203125
1650000000.0 0.864959716796875 -0.050323486328125
1700000000.0 0.837249755859375 -0.210845947265625
1750000000.0 0.780548095703125 -0.36279296875
1800000000.0 0.69659423828125 -0.500274658203125
1850000000.0 0.5892333984375 -0.61895751953125
1900000000.0 0.462127685546875 -0.71478271484375
1950000000.0 0.32025146484375 -0.784881591796875
2000000000.0 0.170013427734375 -0.8271484375
2050000000.0 0.01470947265625 -0.8404541015625
2100000000.0 -0.1387939453125 -0.824951171875
2150000000.0 -0.28582763671875 -0.7822265625
2200000000.0 -0.421142578125 -0.713409423828125
2250000000.0 -0.54095458984375 -0.621673583984375
2300000000.0 -0.640838623046875 -0.51104736328125
2350000000.0 -0.718231201171875 -0.38470458984375
2400000000.0 -0.771026611328125 -0.247833251953125
2450000000.0 -0.79791259765625 -0.10455322265625
2500000000.0 -0.798583984375 0.03912353515625
2550000000.0 -0.773162841796875 0.179779052734375
2600000000.0 -0.723480224609375 0.31243896484375
2650000000.0 -0.651336669921875 0.432464599609375
2700000000.0 -0.558502197265625 0.537139892578125
2750000000.0 -0.451812744140625 0.622039794921875
2800000000.0 -0.331512451171875 0.685699462890625
2850000000.0 -0.203155517578125 0.726409912109375
2900000000.0 -0.071136474609375 0.7435302734375
2950000000.0 0.060394287109375 0.73602294921875
3000000000.0 0.18743896484375 0.705718994140625
3050000000.0 0.305206298828125 0.653411865234375
3100000000.0 0.41064453125 0.581573486328125
3150000000.0 0.500091552734375 0.49285888671875
3200000000.0 0.57147216796875 0.390655517578125
3250000000.0 0.622283935546875 0.27886962890625
3300000000.0 0.65167236328125 0.160858154296875
3350000000.0 0.659515380859375 0.041168212890625
3400000000.0 0.645355224609375 -0.07659912109375
3450000000.0 0.610687255859375 -0.18829345703125
3500000000.0 0.556732177734375 -0.29095458984375
3550000000.0 0.4860076904296875 -0.3811798095703125
3600000000.0 0.40045166015625 -0.4563140869140625
3650000000.0 0.303466796875 -0.514068603515625
3700000000.0 0.19805908203125 -0.552734375
3750000000.0 0.087646484375 -0.571136474609375
3800000000.0 -0.024078369140625 -0.568328857421875
3850000000.0 -0.13330078125 -0.544464111328125
3900000000.0 -0.235748291015625 -0.4997711181640625
3950000000.0 -0.3282623291015625 -0.435546875
4000000000.0 -0.406219482421875 -0.353912353515625
4050000000.0 -0.4667205810546875 -0.2571563720703125
4100000000.0 -0.50616455078125 -0.14947509765625
4150000000.0 -0.52215576171875 -0.03448486328125
4200000000.0 -0.513519287109375 0.0826416015625
4250000000.0 -0.479034423828125 0.1963043212890625
4300000000.0 -0.41973876953125 0.3009033203125
4350000000.0 -0.3376922607421875 0.39093017578125
4400000000.0 -0.2363128662109375 0.4610443115234375
4450000000.0 -0.11981201171875 0.506927490234375
4500000000.0 0.005584716796875 0.525482177734375
4550000000.0 0.13348388671875 0.513946533203125
4600000000.0 0.257232666015625 0.4730224609375
4650000000.0 0.3692169189453125 0.403533935546875
4700000000.0 0.4633636474609375 0.308807373046875
4750000000.0 0.533660888671875 0.19329833984375
4800000000.0 0.576202392578125 0.063629150390625
4850000000.0 0.58758544921875 -0.073822021484375
4900000000.0 0.56732177734375 -0.211883544921875
4950000000.0 0.516021728515625 -0.3421630859375
5000000000.0 0.4362640380859375 -0.4585113525390625
5050000000.0 0.33209228515625 -0.55499267578125
5100000000.0 0.208953857421875 -0.626800537109375
5150000000.0 0.073150634765625 -0.669921875
5200000000.0 -0.069366455078125 -0.6832275390625
5250000000.0 -0.211090087890625 -0.6668701171875
5300000000.0 -0.346466064453125 -0.62109375
5350000000.0 -0.469451904296875 -0.549224853515625
5400000000.0 -0.575469970703125 -0.454559326171875
5450000000.0 -0.66021728515625 -0.340911865234375
5500000000.0 -0.721343994140625 -0.213897705078125
5550000000.0 -0.7574462890625 -0.07928466796875
5600000000.0 -0.7666015625 0.060760498046875
5650000000.0 -0.7509765625 0.19854736328125
5700000000.0 -0.710296630859375 0.330657958984375
5750000000.0 -0.646881103515625 0.453125
5800000000.0 -0.563140869140625 0.561248779296875
5850000000.0 -0.462615966796875 0.653106689453125
5900000000.0 -0.34820556640625 0.725341796875
5950000000.0 -0.223388671875 0.777374267578125
6000000000.0 -0.09197998046875 0.80682373046875
6050000000.0 0.042236328125 0.81414794921875
6100000000.0 0.175018310546875 0.79888916015625
6150000000.0 0.30316162109375 0.7615966796875
6200000000.0 0.4232177734375 0.704010009765625
6250000000.0 0.5323486328125 0.627655029296875
6300000000.0 0.626495361328125 0.53424072265625
6350000000.0 0.704315185546875 0.4263916015625
6400000000.0 0.76361083984375 0.307647705078125
6450000000.0 0.8023681640625 0.18072509765625
6500000000.0 0.81951904296875 0.048919677734375
6550000000.0 0.814788818359375 -0.0838623046875
6600000000.0 0.7880859375 -0.214141845703125
6650000000.0 0.73956298828125 -0.338470458984375
6700000000.0 0.671173095703125 -0.453094482421875
6750000000.0 0.5841064453125 -0.554229736328125
6800000000.0 0.4805908203125 -0.639678955078125
6850000000.0 0.364013671875 -0.7059326171875
6900000000.0 0.237701416015625 -0.751129150390625
6950000000.0 0.105133056640625 -0.773406982421875
7000000000.0 -0.029449462890625 -0.77227783203125
7050000000.0 -0.161651611328125 -0.747406005859375
7100000000.0 -0.287261962890625 -0.6986083984375
7150000000.0 -0.402191162109375 -0.627960205078125
7200000000.0 -0.50152587890625 -0.537322998046875
7250000000.0 -0.582794189453125 -0.429473876953125
7300000000.0 -0.641754150390625 -0.3079833984375
7350000000.0 -0.675933837890625 -0.177825927734375
7400000000.0 -0.683563232421875 -0.04302978515625
7450000000.0 -0.664276123046875 0.090179443359375
7500000000.0 -0.618011474609375 0.2164306640625
7550000000.0 -0.547027587890625 0.33001708984375
7600000000.0 -0.453643798828125 0.425933837890625
7650000000.0 -0.34222412109375 0.499298095703125
7700000000.0 -0.2177734375 0.5465087890625
7750000000.0 -0.08624267578125 0.56494140625
7800000000.0 0.04547119140625 0.55291748046875
7850000000.0 0.170440673828125 0.511322021484375
7900000000.0 0.2818450927734375 0.441986083984375
7950000000.0 0.373260498046875 0.3487548828125
8000000000.0 0.4396820068359375 0.2368011474609375
8050000000.0 0.47711181640625 0.112945556640625
8100000000.0 0.4833831787109375 -0.0157012939453125
8150000000.0 0.4585113525390625 -0.141357421875
8200000000.0 0.4042510986328125 -0.2565155029296875
8250000000.0 0.3242034912109375 -0.354644775390625
8300000000.0 0.2238922119140625 -0.4302215576171875
8350000000.0 0.1090850830078125 -0.4792633056640625
8400000000.0 -0.012786865234375 -0.500091552734375
8450000000.0 -0.1355133056640625 -0.4921875
8500000000.0 -0.2520294189453125 -0.4573211669921875
8550000000.0 -0.3574066162109375 -0.397613525390625
8600000000.0 -0.44647216796875 -0.317169189453125
8650000000.0 -0.5155029296875 -0.220245361328125
8700000000.0 -0.562286376953125 -0.11151123046875
8750000000.0 -0.585296630859375 0.003204345703125
8800000000.0 -0.5843505859375 0.11871337890625
8850000000.0 -0.56072998046875 0.22998046875
8900000000.0 -0.517181396484375 0.33294677734375
8950000000.0 -0.4567718505859375 0.4236602783203125
9000000000.0 -0.38299560546875 0.5013427734375
9050000000.0 -0.29925537109375 0.565093994140625
9100000000.0 -0.207305908203125 0.61431884765625
