!Created with skrf (http://scikit-rf.org).
# Hz S RI R 50.0 
!freq ReS11 ImS11
30000.0 0.18316650390625 -0.82745361328125
31000.0 0.15655517578125 -0.82763671875
33000.0 0.10546875 -0.82568359375
36000.0 0.0357666015625 -0.81793212890625
41000.0 -0.065185546875 -0.7962646484375
48500.0 -0.1856689453125 -0.7525634765625
58000.0 -0.2972412109375 -0.691070556640625
70000.0 -0.394012451171875 -0.61737060546875
84000.0 -0.467803955078125 -0.54327392578125
100000.0 -0.5220947265625 -0.47430419921875
125000.0 -0.57257080078125 -0.39312744140625
150000.0 -0.60205078125 -0.334228515625
175000.0 -0.62042236328125 -0.28997802734375
200000.0 -0.632476806640625 -0.2559814453125
225000.0 -0.64093017578125 -0.228607177734375
250000.0 -0.647125244140625 -0.206634521484375
275000.0 -0.651763916015625 -0.188262939453125
300000.0 -0.655426025390625 -0.1728515625
325000.0 -0.65802001953125 -0.15985107421875
350000.0 -0.660308837890625 -0.1485595703125
375000.0 -0.662109375 -0.13861083984375
400000.0 -0.6636962890625 -0.129913330078125
425000.0 -0.664794921875 -0.122283935546875
450000.0 -0.665740966796875 -0.11553955078125
475000.0 -0.666534423828125 -0.109283447265625
500000.0 -0.66741943359375 -0.103912353515625
525000.0 -0.6680908203125 -0.09881591796875
550000.0 -0.668609619140625 -0.0941162109375
575000.0 -0.6690673828125 -0.08990478515625
600000.0 -0.669525146484375 -0.086029052734375
625000.0 -0.66986083984375 -0.08251953125
650000.0 -0.670196533203125 -0.07916259765625
675000.0 -0.67059326171875 -0.076080322265625
700000.0 -0.670806884765625 -0.073211669921875
725000.0 -0.671142578125 -0.07061767578125
750000.0 -0.67132568359375 -0.067901611328125
775000.0 -0.671478271484375 -0.065765380859375
800000.0 -0.67156982421875 -0.063690185546875
825000.0 -0.6717529296875 -0.0615234375
850000.0 -0.671875 -0.0594482421875
875000.0 -0.672149658203125 -0.05767822265625
900000.0 -0.672149658203125 -0.0560302734375
925000.0 -0.672332763671875 -0.054290771484375
950000.0 -0.672393798828125 -0.052642822265625
975000.0 -0.67254638671875 -0.0511474609375
1000000.0 -0.672637939453125 -0.049835205078125
1030000.0 -0.672760009765625 -0.0482177734375
1060000.0 -0.672760009765625 -0.046600341796875
1110000.0 -0.67291259765625 -0.044097900390625
1170000.0 -0.673126220703125 -0.041534423828125
1250000.0 -0.6732177734375 -0.038421630859375
1350000.0 -0.67340087890625 -0.035125732421875
1500000.0 -0.67352294921875 -0.0306396484375
1700000.0 -0.6737060546875 -0.026031494140625
1950000.0 -0.6737060546875 -0.021148681640625
2250000.0 -0.673858642578125 -0.016815185546875
2750000.0 -0.67388916015625 -0.0111083984375
3500000.0 -0.673828125 -0.004669189453125
4500000.0 -0.673614501953125 0.001495361328125
6000000.0 -0.67333984375 0.008697509765625
8000000.0 -0.673095703125 0.0164794921875
11000000.0 -0.67242431640625 0.026611328125
15500000.0 -0.67132568359375 0.040374755859375
22000000.0 -0.66937255859375 0.058990478515625
30000000.0 -0.666595458984375 0.08135986328125
40000000.0 -0.66192626953125 0.10833740234375
52500000.0 -0.654754638671875 0.14154052734375
68000000.0 -0.64373779296875 0.18194580078125
86500000.0 -0.627593994140625 0.22808837890625
106000000.0 -0.606719970703125 0.27532958984375
127500000.0 -0.58013916015625 0.3253173828125
152000000.0 -0.545806884765625 0.379425048828125
180000000.0 -0.500640869140625 0.436431884765625
214000000.0 -0.4376678466796875 0.498077392578125
254000000.0 -0.35406494140625 0.55963134765625
300000000.0 -0.2489205151796341 0.6138695478439331
350000000.0 -0.1254986822605133 0.6498394012451172
400000000.0 0.0023759917821735144 0.662506639957428
450000000.0 0.12968355417251587 0.6502347588539124
500000000.0 0.2525370717048645 0.6135843992233276
550000000.0 0.36621013283729553 0.5547720789909363
600000000.0 0.4664277136325836 0.47484830021858215
650000000.0 0.5500012040138245 0.3774353861808777
700000000.0 0.613067626953125 0.266326904296875
750000000.0 0.6541748046875 0.144683837890625
800000000.0 0.671173095703125 0.017303466796875
850000000.0 0.66357421875 -0.111419677734375
900000000.0 0.63140869140625 -0.236480712890625
950000000.0 0.57598876953125 -0.353424072265625
1000000000.0 0.4988861083984375 -0.457733154296875
1050000000.0 0.403167724609375 -0.545654296875
1100000000.0 0.2919921875 -0.61370849609375
1150000000.0 0.169464111328125 -0.65948486328125
1200000000.0 0.03985595703125 -0.6806640625
1250000000.0 -0.09210205078125 -0.67669677734375
1300000000.0 -0.221038818359375 -0.647369384765625
1350000000.0 -0.342803955078125 -0.59344482421875
1400000000.0 -0.45184326171875 -0.51666259765625
1450000000.0 -0.544677734375 -0.41949462890625
1500000000.0 -0.617279052734375 -0.30584716796875
1550000000.0 -0.6663818359375 -0.1795654296875
1600000000.0 -0.69024658203125 -0.045654296875
1650000000.0 -0.687225341796875 0.091339111328125
1700000000.0 -0.657501220703125 0.225860595703125
1750000000.0 -0.601287841796875 0.352691650390625
1800000000.0 -0.520751953125 0.46673583984375
1850000000.0 -0.4183349609375 0.563201904296875
1900000000.0 -0.297882080078125 0.63800048828125
1950000000.0 -0.164093017578125 0.687744140625
2000000000.0 -0.02142333984375 0.709869384765625
2050000000.0 0.123779296875 0.702545166015625
2100000000.0 0.265777587890625 0.66595458984375
2150000000.0 0.398529052734375 0.600555419921875
2200000000.0 0.516693115234375 0.50885009765625
2250000000.0 0.614013671875 0.393890380859375
2300000000.0 0.6865234375 0.2598876953125
2350000000.0 0.730224609375 0.1126708984375
2400000000.0 0.742919921875 -0.041778564453125
2450000000.0 0.72308349609375 -0.19677734375
2500000000.0 0.671142578125 -0.34576416015625
2550000000.0 0.5887451171875 -0.481414794921875
2600000000.0 0.479217529296875 -0.597900390625
2650000000.0 0.347015380859375 -0.689483642578125
2700000000.0 0.199005126953125 -0.752288818359375
2750000000.0 0.037994384765625 -0.78240966796875
2800000000.0 -0.125091552734375 -0.778778076171875
2850000000.0 -0.28399658203125 -0.742218017578125
2900000000.0 -0.43243408203125 -0.672637939453125
2950000000.0 -0.563507080078125 -0.574737548828125
3000000000.0 -0.671722412109375 -0.45184326171875
3050000000.0 -0.752960205078125 -0.309844970703125
3100000000.0 -0.80364990234375 -0.1549072265625
3150000000.0 -0.822235107421875 0.0062255859375
3200000000.0 -0.80828857421875 0.167236328125
3250000000.0 -0.763458251953125 0.32171630859375
3300000000.0 -0.689971923828125 0.4630126953125
3350000000.0 -0.59100341796875 0.587066650390625
3400000000.0 -0.471282958984375 0.688873291015625
3450000000.0 -0.335845947265625 0.765472412109375
3500000000.0 -0.189605712890625 0.814971923828125
3550000000.0 -0.037933349609375 0.836334228515625
3600000000.0 0.113250732421875 0.8297119140625
3650000000.0 0.259307861328125 0.796112060546875
3700000000.0 0.39581298828125 0.737579345703125
3750000000.0 0.518585205078125 0.656402587890625
3800000000.0 0.624267578125 0.555999755859375
3850000000.0 0.7099609375 0.43951416015625
3900000000.0 0.773773193359375 0.311492919921875
3950000000.0 0.81439208984375 0.175323486328125
4000000000.0 0.8314208984375 0.035491943359375
4050000000.0 0.82440185546875 -0.104095458984375
4100000000.0 0.794586181640625 -0.23968505859375
4150000000.0 0.7430419921875 -0.36712646484375
4200000000.0 0.67144775390625 -0.484344482421875
4250000000.0 0.5826416015625 -0.58734130859375
4300000000.0 0.478546142578125 -0.67437744140625
4350000000.0 0.3621826171875 -0.743499755859375
4400000000.0 0.23583984375 -0.792999267578125
4450000000.0 0.103271484375 -0.821441650390625
4500000000.0 -0.03289794921875 -0.8275146484375
4550000000.0 -0.16864013671875 -0.811248779296875
4600000000.0 -0.2999267578125 -0.77239990234375
4650000000.0 -0.423065185546875 -0.71197509765625
4700000000.0 -0.5347900390625 -0.631378173828125
4750000000.0 -0.631103515625 -0.533233642578125
4800000000.0 -0.70928955078125 -0.42010498046875
4850000000.0 -0.767669677734375 -0.29547119140625
4900000000.0 -0.803466796875 -0.16278076171875
4950000000.0 -0.81646728515625 -0.025604248046875
5000000000.0 -0.805633544921875 0.111358642578125
5050000000.0 -0.771942138671875 0.244537353515625
5100000000.0 -0.71527099609375 0.3697509765625
5150000000.0 -0.6378173828125 0.4837646484375
5200000000.0 -0.5419921875 0.582122802734375
5250000000.0 -0.429779052734375 0.662200927734375
5300000000.0 -0.30511474609375 0.721435546875
5350000000.0 -0.171661376953125 0.757293701171875
5400000000.0 -0.03363037109375 0.76824951171875
5450000000.0 0.10467529296875 0.75341796875
5500000000.0 0.238555908203125 0.71270751953125
5550000000.0 0.361663818359375 0.64788818359375
5600000000.0 0.47113037109375 0.559051513671875
5650000000.0 0.56121826171875 0.450897216796875
5700000000.0 0.628082275390625 0.326507568359375
5750000000.0 0.668365478515625 0.191131591796875
5800000000.0 0.680999755859375 0.04931640625
5850000000.0 0.66339111328125 -0.092742919921875
5900000000.0 0.615570068359375 -0.2291259765625
5950000000.0 0.538330078125 -0.352447509765625
6000000000.0 0.434356689453125 -0.4561767578125
6050000000.0 0.308929443359375 -0.533538818359375
6100000000.0 0.1680908203125 -0.579742431640625
6150000000.0 0.019927978515625 -0.59149169921875
6200000000.0 -0.126983642578125 -0.567169189453125
6250000000.0 -0.263946533203125 -0.508087158203125
6300000000.0 -0.3818206787109375 -0.416961669921875
6350000000.0 -0.473724365234375 -0.300445556640625
6400000000.0 -0.533599853515625 -0.164886474609375
6450000000.0 -0.558624267578125 -0.019378662109375
6500000000.0 -0.547149658203125 0.126922607421875
6550000000.0 -0.500946044921875 0.26507568359375
6600000000.0 -0.4232940673828125 0.387359619140625
6650000000.0 -0.3199920654296875 0.486724853515625
6700000000.0 -0.196929931640625 0.558441162109375
6750000000.0 -0.062103271484375 0.599945068359375
6800000000.0 0.077362060546875 0.609344482421875
6850000000.0 0.214447021484375 0.587982177734375
6900000000.0 0.342529296875 0.537689208984375
6950000000.0 0.456146240234375 0.46185302734375
7000000000.0 0.55072021484375 0.3643798828125
7050000000.0 0.6234130859375 0.250030517578125
7100000000.0 0.670867919921875 0.12420654296875
7150000000.0 0.69207763671875 -0.008453369140625
7200000000.0 0.687286376953125 -0.1419677734375
7250000000.0 0.65679931640625 -0.271484375
7300000000.0 0.6024169921875 -0.392578125
7350000000.0 0.526641845703125 -0.501129150390625
7400000000.0 0.432464599609375 -0.593505859375
7450000000.0 0.32281494140625 -0.6668701171875
7500000000.0 0.201934814453125 -0.719451904296875
7550000000.0 0.074005126953125 -0.748626708984375
7600000000.0 -0.05694580078125 -0.754852294921875
7650000000.0 -0.186859130859375 -0.73736572265625
7700000000.0 -0.311279296875 -0.697357177734375
7750000000.0 -0.426483154296875 -0.635986328125
7800000000.0 -0.52886962890625 -0.5557861328125
7850000000.0 -0.614990234375 -0.459381103515625
7900000000.0 -0.683258056640625 -0.349365234375
7950000000.0 -0.73114013671875 -0.23004150390625
8000000000.0 -0.75714111328125 -0.10443115234375
8050000000.0 -0.76116943359375 0.0233154296875
8100000000.0 -0.74310302734375 0.1494140625
8150000000.0 -0.703277587890625 0.26971435546875
8200000000.0 -0.643157958984375 0.381072998046875
8250000000.0 -0.56488037109375 0.479644775390625
8300000000.0 -0.4703369140625 0.5621337890625
8350000000.0 -0.363006591796875 0.626251220703125
8400000000.0 -0.246337890625 0.669525146484375
8450000000.0 -0.12432861328125 0.69024658203125
8500000000.0 -0.0009765625 0.687469482421875
8550000000.0 0.11865234375 0.661651611328125
8600000000.0 0.230194091796875 0.612823486328125
8650000000.0 0.329254150390625 0.543426513671875
8700000000.0 0.4107666015625 0.4558563232421875
8750000000.0 0.4713897705078125 0.3539886474609375
8800000000.0 0.508087158203125 0.243072509765625
8850000000.0 0.51898193359375 0.12884521484375
8900000000.0 0.503814697265625 0.017578125
8950000000.0 0.464599609375 -0.0845184326171875
9000000000.0 0.40496826171875 -0.17193603515625
9050000000.0 0.32891845703125 -0.2411956787109375
9100000000.0 0.2413177490234375 -0.2897796630859375
