!Created with skrf (http://scikit-rf.org).
# Hz S RI R 50.0 
!freq ReS11 ImS11 ReS21 ImS21 ReS12 ImS12 ReS22 ImS22
30000.0 0.447967529296875 -0.21661376953125 0.005476474761962891 0.00511932373046875 0.005489349365234375 0.005123615264892578 0.448028564453125 -0.21710205078125
31000.0 0.4432373046875 -0.211456298828125 0.005637168884277344 0.005034446716308594 0.005638599395751953 0.005055904388427734 0.44317626953125 -0.212005615234375
33000.0 0.434722900390625 -0.201904296875 0.005924701690673828 0.004875659942626953 0.005934238433837891 0.004889488220214844 0.434722900390625 -0.20220947265625
36000.0 0.424285888671875 -0.1887969970703125 0.006293773651123047 0.004639148712158203 0.006296634674072266 0.004669189453125 0.4241485595703125 -0.1891326904296875
41000.0 0.41107177734375 -0.1699371337890625 0.006756305694580078 0.004282951354980469 0.006778240203857422 0.004301548004150391 0.410888671875 -0.1703338623046875
48500.0 0.3978424072265625 -0.1474151611328125 0.00726318359375 0.0038003921508789062 0.007277011871337891 0.0037994384765625 0.3975067138671875 -0.1477813720703125
58000.0 0.3873291015625 -0.125823974609375 0.007667064666748047 0.003300189971923828 0.0076808929443359375 0.0033011436462402344 0.386871337890625 -0.126068115234375
70000.0 0.379302978515625 -0.1059417724609375 0.007991313934326172 0.002808094024658203 0.007990360260009766 0.0028090476989746094 0.378936767578125 -0.1061553955078125
84000.0 0.3737335205078125 -0.0893402099609375 0.008198738098144531 0.0023856163024902344 0.008208274841308594 0.0023865699768066406 0.373321533203125 -0.0895538330078125
100000.0 0.36993408203125 -0.075714111328125 0.00835275650024414 0.0020208358764648438 0.008366107940673828 0.0020356178283691406 0.3695220947265625 -0.0759124755859375
125000.0 0.36651611328125 -0.06109619140625 0.008494377136230469 0.0016450881958007812 0.008492469787597656 0.00164794921875 0.36614990234375 -0.061279296875
150000.0 0.364654541015625 -0.05120849609375 0.008562088012695312 0.00136566162109375 0.008568763732910156 0.001373291015625 0.364105224609375 -0.051361083984375
175000.0 0.36346435546875 -0.044158935546875 0.008611679077148438 0.001178741455078125 0.008622169494628906 0.0011873245239257812 0.363006591796875 -0.044281005859375
200000.0 0.36273193359375 -0.038726806640625 0.008636474609375 0.0010328292846679688 0.008653640747070312 0.00103759765625 0.3621826171875 -0.038848876953125
225000.0 0.362152099609375 -0.03460693359375 0.008665084838867188 0.000911712646484375 0.008671760559082031 0.0009136199951171875 0.361724853515625 -0.034698486328125
250000.0 0.36181640625 -0.03118896484375 0.0086822509765625 0.000823974609375 0.008685111999511719 0.0008249282836914062 0.36138916015625 -0.03131103515625
275000.0 0.361541748046875 -0.0285491943359375 0.008690834045410156 0.0007457733154296875 0.008695125579833984 0.0007491111755371094 0.3610992431640625 -0.028564453125
300000.0 0.361236572265625 -0.026153564453125 0.008699417114257812 0.0006852149963378906 0.008701801300048828 0.0006866455078125 0.3607635498046875 -0.026275634765625
325000.0 0.3611297607421875 -0.0242156982421875 0.008702754974365234 0.0006308555603027344 0.008713245391845703 0.0006299018859863281 0.3607177734375 -0.0243072509765625
350000.0 0.361053466796875 -0.0225982666015625 0.008713722229003906 0.000583648681640625 0.00872659683227539 0.0005755424499511719 0.3604888916015625 -0.0227508544921875
375000.0 0.36083984375 -0.021240234375 0.008708953857421875 0.0005421638488769531 0.008719921112060547 0.00054168701171875 0.3604583740234375 -0.0212554931640625
400000.0 0.360809326171875 -0.02001953125 0.00871896743774414 0.0005130767822265625 0.008720874786376953 0.0005173683166503906 0.3603363037109375 -0.0200653076171875
425000.0 0.3607940673828125 -0.0189056396484375 0.00871419906616211 0.000476837158203125 0.008730888366699219 0.0004730224609375 0.3601837158203125 -0.0189361572265625
450000.0 0.360687255859375 -0.01788330078125 0.008728504180908203 0.00045108795166015625 0.008734703063964844 0.00044727325439453125 0.3602294921875 -0.01800537109375
475000.0 0.360626220703125 -0.01702880859375 0.00872182846069336 0.00041866302490234375 0.008730411529541016 0.0004215240478515625 0.360137939453125 -0.0170745849609375
500000.0 0.360565185546875 -0.0162811279296875 0.008728504180908203 0.0003952980041503906 0.008736610412597656 0.00039958953857421875 0.360076904296875 -0.016326904296875
525000.0 0.3605804443359375 -0.0155181884765625 0.008733749389648438 0.0003724098205566406 0.008733749389648438 0.0003714561462402344 0.3600921630859375 -0.0157012939453125
550000.0 0.3604888916015625 -0.014923095703125 0.008724689483642578 0.0003604888916015625 0.008738040924072266 0.00035381317138671875 0.3600616455078125 -0.015045166015625
575000.0 0.3604736328125 -0.0143585205078125 0.008730411529541016 0.00034046173095703125 0.008738517761230469 0.000335693359375 0.3599853515625 -0.0144195556640625
600000.0 0.3604888916015625 -0.0139007568359375 0.008733749389648438 0.0003228187561035156 0.00874185562133789 0.0003247261047363281 0.3600921630859375 -0.01397705078125
625000.0 0.3603363037109375 -0.013427734375 0.00872802734375 0.0003056526184082031 0.008741378784179688 0.0003070831298828125 0.360015869140625 -0.0134429931640625
650000.0 0.36041259765625 -0.012939453125 0.008737564086914062 0.0002913475036621094 0.008740901947021484 0.000293731689453125 0.359954833984375 -0.0130157470703125
675000.0 0.3603363037109375 -0.0125579833984375 0.008737564086914062 0.0002808570861816406 0.008746147155761719 0.0002779960632324219 0.35992431640625 -0.0126495361328125
700000.0 0.3603515625 -0.01226806640625 0.008731365203857422 0.0002779960632324219 0.008744239807128906 0.0002684593200683594 0.3599395751953125 -0.0123291015625
725000.0 0.360382080078125 -0.0118560791015625 0.008738517761230469 0.000255584716796875 0.008744239807128906 0.0002579689025878906 0.359893798828125 -0.0119171142578125
750000.0 0.3602752685546875 -0.0116119384765625 0.008733749389648438 0.0002465248107910156 0.008746147155761719 0.0002493858337402344 0.3599395751953125 -0.01165771484375
775000.0 0.3603057861328125 -0.01123046875 0.008740425109863281 0.00023365020751953125 0.008744239807128906 0.00023508071899414062 0.3598480224609375 -0.01129150390625
800000.0 0.3603363037109375 -0.0110321044921875 0.008740425109863281 0.00021886825561523438 0.008741378784179688 0.0002231597900390625 0.3598785400390625 -0.0111846923828125
825000.0 0.3603363037109375 -0.0107574462890625 0.00874185562133789 0.00021457672119140625 0.00874185562133789 0.00021409988403320312 0.35986328125 -0.0108642578125
850000.0 0.360321044921875 -0.010528564453125 0.008734703063964844 0.0002040863037109375 0.008746147155761719 0.00020360946655273438 0.3598175048828125 -0.01055908203125
875000.0 0.3603057861328125 -0.01025390625 0.00873422622680664 0.00019693374633789062 0.008746147155761719 0.00019693374633789062 0.359832763671875 -0.010406494140625
900000.0 0.3603057861328125 -0.0101165771484375 0.008738040924072266 0.00019359588623046875 0.008749008178710938 0.00019359588623046875 0.359832763671875 -0.0101776123046875
925000.0 0.3603057861328125 -0.0098876953125 0.00873422622680664 0.00018596649169921875 0.008752822875976562 0.00018072128295898438 0.359832763671875 -0.01007080078125
950000.0 0.360260009765625 -0.009765625 0.008737564086914062 0.00017404556274414062 0.008745193481445312 0.00017452239990234375 0.35986328125 -0.009765625
975000.0 0.3602142333984375 -0.0095367431640625 0.008733749389648438 0.00016880035400390625 0.008744239807128906 0.00017499923706054688 0.359771728515625 -0.0096282958984375
1000000.0 0.3602142333984375 -0.0093841552734375 0.008740425109863281 0.00016164779663085938 0.008742809295654297 0.00016355514526367188 0.359771728515625 -0.0094757080078125
1030000.0 0.3602142333984375 -0.009185791015625 0.008739471435546875 0.0001506805419921875 0.008740425109863281 0.000156402587890625 0.359771728515625 -0.009246826171875
1060000.0 0.36029052734375 -0.009063720703125 0.008738517761230469 0.0001506805419921875 0.008750438690185547 0.0001468658447265625 0.3597869873046875 -0.0092010498046875
1110000.0 0.3602142333984375 -0.0088348388671875 0.00874185562133789 0.0001354217529296875 0.008750438690185547 0.00013875961303710938 0.3597259521484375 -0.0089263916015625
1170000.0 0.360198974609375 -0.00860595703125 0.008740425109863281 0.00012731552124023438 0.008749008178710938 0.00012302398681640625 0.3598175048828125 -0.008575439453125
1250000.0 0.360198974609375 -0.00823974609375 0.008736133575439453 0.00011301040649414062 0.008747100830078125 0.00011348724365234375 0.3596954345703125 -0.008392333984375
1350000.0 0.360198974609375 -0.007965087890625 0.008739471435546875 8.869171142578125e-05 0.008755683898925781 9.202957153320312e-05 0.3597412109375 -0.00811767578125
1500000.0 0.360260009765625 -0.007659912109375 0.008742809295654297 6.628036499023438e-05 0.00875091552734375 7.486343383789062e-05 0.35968017578125 -0.0077056884765625
1700000.0 0.3601837158203125 -0.007415771484375 0.008736610412597656 3.7670135498046875e-05 0.008749008178710938 4.8160552978515625e-05 0.3596649169921875 -0.00750732421875
1950000.0 0.3601837158203125 -0.0071868896484375 0.008741378784179688 1.7642974853515625e-05 0.008752822875976562 2.193450927734375e-05 0.3596038818359375 -0.0072784423828125
2250000.0 0.360137939453125 -0.0072174072265625 0.008748054504394531 -4.76837158203125e-06 0.008745670318603516 -8.58306884765625e-06 0.359710693359375 -0.0073394775390625
2750000.0 0.3601837158203125 -0.007415771484375 0.00873565673828125 -4.673004150390625e-05 0.008746147155761719 -5.3882598876953125e-05 0.3596649169921875 -0.007598876953125
3500000.0 0.360137939453125 -0.0081024169921875 0.008736133575439453 -9.822845458984375e-05 0.008747100830078125 -9.1552734375e-05 0.359649658203125 -0.0081634521484375
4500000.0 0.360137939453125 -0.0093231201171875 0.008732795715332031 -0.00015687942504882812 0.00874471664428711 -0.00015354156494140625 0.3596649169921875 -0.0094451904296875
6000000.0 0.3600921630859375 -0.011444091796875 0.008730888366699219 -0.00023937225341796875 0.008742332458496094 -0.00023937225341796875 0.35955810546875 -0.0116424560546875
8000000.0 0.3600311279296875 -0.0145111083984375 0.00872182846069336 -0.0003376007080078125 0.00872802734375 -0.0003333091735839844 0.3594512939453125 -0.014678955078125
11000000.0 0.3598175048828125 -0.0192413330078125 0.008713245391845703 -0.0004668235778808594 0.00872182846069336 -0.0004639625549316406 0.35931396484375 -0.019622802734375
15500000.0 0.3591766357421875 -0.0266876220703125 0.008691787719726562 -0.0006837844848632812 0.00868844985961914 -0.0006766319274902344 0.3587799072265625 -0.027069091796875
22000000.0 0.35821533203125 -0.037567138671875 0.008663654327392578 -0.0009284019470214844 0.00866842269897461 -0.00095367431640625 0.357635498046875 -0.0380401611328125
30000000.0 0.35638427734375 -0.0508270263671875 0.008620738983154297 -0.0012912750244140625 0.008617877960205078 -0.0012698173522949219 0.355926513671875 -0.0514678955078125
40000000.0 0.353302001953125 -0.0674591064453125 0.008545398712158203 -0.0017008781433105469 0.008548736572265625 -0.0017008781433105469 0.352874755859375 -0.0683746337890625
52500000.0 0.348358154296875 -0.0880584716796875 0.00842905044555664 -0.0022220611572265625 0.008440017700195312 -0.0022220611572265625 0.3480377197265625 -0.0890045166015625
68000000.0 0.3405914306640625 -0.11309814453125 0.008246421813964844 -0.0028543472290039062 0.008257389068603516 -0.002857685089111328 0.3400421142578125 -0.1142120361328125
86500000.0 0.3289794921875 -0.141998291015625 0.007971763610839844 -0.0036077499389648438 0.0079803466796875 -0.0036067962646484375 0.32818603515625 -0.14337158203125
106000000.0 0.31414794921875 -0.1712188720703125 0.0075893402099609375 -0.0043735504150390625 0.007596015930175781 -0.00439143180847168 0.312896728515625 -0.172821044921875
127500000.0 0.294830322265625 -0.201171875 0.00708317756652832 -0.005201578140258789 0.0071086883544921875 -0.005190134048461914 0.29296875 -0.2031707763671875
152000000.0 0.26885986328125 -0.232635498046875 0.0063877105712890625 -0.006043910980224609 0.006379842758178711 -0.006047248840332031 0.26678466796875 -0.23504638671875
180000000.0 0.23480224609375 -0.2646026611328125 0.005453586578369141 -0.0068721771240234375 0.005458354949951172 -0.006873369216918945 0.23260498046875 -0.267333984375
214000000.0 0.188812255859375 -0.2972869873046875 0.0041768550872802734 -0.007675647735595703 0.004186391830444336 -0.007700443267822266 0.185791015625 -0.2995758056640625
254000000.0 0.12969970703125 -0.3245391845703125 0.0025682449340820312 -0.008330821990966797 0.0025506019592285156 -0.008341312408447266 0.1252899169921875 -0.3271942138671875
300000000.0 0.056210707873106 -0.34087586402893066 0.0005833877949044108 -0.008657975122332573 0.0005689992685802281 -0.008669543080031872 0.05147028714418411 -0.3439718186855316
350000000.0 -0.024535927921533585 -0.341047078371048 -0.0015641755890101194 -0.008498023264110088 -0.0015833773650228977 -0.008504425175487995 -0.0301608107984066 -0.34324729442596436
400000000.0 -0.1019991859793663 -0.32135453820228577 -0.0035970520693808794 -0.007788414601236582 -0.003609588835388422 -0.007802978157997131 -0.1086503118276596 -0.32334381341934204
450000000.0 -0.17246592044830322 -0.2843484878540039 -0.00535832392051816 -0.006628581788390875 -0.005390800070017576 -0.00662419805303216 -0.17946463823318481 -0.2854568362236023
500000000.0 -0.23102018237113953 -0.23258811235427856 -0.006775591988116503 -0.005071834661066532 -0.006805650889873505 -0.005067384801805019 -0.23854584991931915 -0.23254698514938354
550000000.0 -0.2748105227947235 -0.16866320371627808 -0.007761339657008648 -0.0032370786648243666 -0.007778557017445564 -0.0032281149178743362 -0.2828047573566437 -0.1675860583782196
600000000.0 -0.30217429995536804 -0.09722133725881577 -0.008268732577562332 -0.0012383632129058242 -0.008278444409370422 -0.001217153505422175 -0.3102739751338959 -0.09509879350662231
650000000.0 -0.3111368417739868 -0.0219758041203022 -0.00825568288564682 0.0008049545576795936 -0.008271747268736362 0.0008373581222258508 -0.31934723258018494 -0.01883947290480137
700000000.0 -0.30224609375 0.0521087646484375 -0.007758617401123047 0.0027701854705810547 -0.0077435970306396484 0.0027856826782226562 -0.3107147216796875 0.0561676025390625
750000000.0 -0.2762908935546875 0.121002197265625 -0.0068051815032958984 0.0045320987701416016 -0.006791830062866211 0.004576444625854492 -0.2844696044921875 0.125762939453125
800000000.0 -0.235443115234375 0.18079376220703125 -0.0054509639739990234 0.006005048751831055 -0.005456209182739258 0.0060272216796875 -0.24301910400390625 0.18642425537109375
850000000.0 -0.18207550048828125 0.22823333740234375 -0.003797292709350586 0.007086515426635742 -0.0037717819213867188 0.0071179866790771484 -0.1896514892578125 0.2347412109375
900000000.0 -0.1197052001953125 0.2607879638671875 -0.0019931793212890625 0.007745981216430664 -0.001934051513671875 0.007760763168334961 -0.127349853515625 0.26788330078125
950000000.0 -0.0523834228515625 0.277313232421875 -6.198883056640625e-05 0.00793600082397461 -1.5735626220703125e-05 0.007936477661132812 -0.059783935546875 0.2855682373046875
1000000000.0 0.015594482421875 0.27734375 0.001817464828491211 0.007664203643798828 0.0019145011901855469 0.007668018341064453 0.007965087890625 0.2862701416015625
1050000000.0 0.0805816650390625 0.261016845703125 0.0036215782165527344 0.00695037841796875 0.0036284923553466797 0.006941556930541992 0.07342529296875 0.2709808349609375
1100000000.0 0.13886260986328125 0.23023223876953125 0.005152702331542969 0.00585174560546875 0.005164146423339844 0.005795478820800781 0.13159942626953125 0.2415924072265625
1150000000.0 0.18706512451171875 0.18715667724609375 0.00633549690246582 0.004416227340698242 0.006356000900268555 0.00438690185546875 0.18000030517578125 0.199066162109375
1200000000.0 0.2226104736328125 0.134765625 0.007172107696533203 0.002752542495727539 0.007178306579589844 0.002701282501220703 0.21630096435546875 0.14797210693359375
1250000000.0 0.24387359619140625 0.07628631591796875 0.007578134536743164 0.0009486675262451172 0.007569551467895508 0.000888824462890625 0.2379302978515625 0.09059906005859375
1300000000.0 0.2502593994140625 0.0154571533203125 0.007536649703979492 -0.0008790493011474609 0.007544517517089844 -0.0009107589721679688 0.245086669921875 0.03079986572265625
1350000000.0 0.241790771484375 -0.0439300537109375 0.0070953369140625 -0.0026476383209228516 0.007061004638671875 -0.002676248550415039 0.23763275146484375 -0.02729034423828125
1400000000.0 0.21956634521484375 -0.09835052490234375 0.006205558776855469 -0.004207611083984375 0.006192445755004883 -0.004265785217285156 0.21608734130859375 -0.080535888671875
1450000000.0 0.1851654052734375 -0.1447601318359375 0.005007505416870117 -0.0055730342864990234 0.004979372024536133 -0.005616664886474609 0.1830596923828125 -0.1259918212890625
1500000000.0 0.14125823974609375 -0.18059539794921875 0.0035028457641601562 -0.006563663482666016 0.0034732818603515625 -0.006587028503417969 0.14060211181640625 -0.1602935791015625
1550000000.0 0.0908660888671875 -0.20392608642578125 0.0018143653869628906 -0.007199287414550781 0.0017790794372558594 -0.0072214603424072266 0.0917510986328125 -0.1826629638671875
1600000000.0 0.0374603271484375 -0.2138214111328125 2.9802322387695312e-05 -0.0074040889739990234 1.9311904907226562e-05 -0.007414102554321289 0.04048919677734375 -0.19106292724609375
1650000000.0 -0.01563262939453125 -0.20993804931640625 -0.0017256736755371094 -0.0071904659271240234 -0.0017540454864501953 -0.007170677185058594 -0.01068878173828125 -0.18598175048828125
1700000000.0 -0.06516265869140625 -0.1930694580078125 -0.0033888816833496094 -0.00653386116027832 -0.003409862518310547 -0.006509304046630859 -0.0571441650390625 -0.1683502197265625
1750000000.0 -0.1078338623046875 -0.1647491455078125 -0.004849910736083984 -0.005506753921508789 -0.0048558712005615234 -0.0054776668548583984 -0.09644317626953125 -0.13893890380859375
1800000000.0 -0.14104461669921875 -0.1270751953125 -0.006010770797729492 -0.0041811466217041016 -0.006017923355102539 -0.004137516021728516 -0.1260528564453125 -0.1009521484375
1850000000.0 -0.162750244140625 -0.08278656005859375 -0.006823539733886719 -0.002610921859741211 -0.006850719451904297 -0.00257110595703125 -0.14347076416015625 -0.057037353515625
1900000000.0 -0.171966552734375 -0.03499603271484375 -0.00722813606262207 -0.000873565673828125 -0.007230281829833984 -0.0008447170257568359 -0.148223876953125 -0.0102386474609375
1950000000.0 -0.1680908203125 0.01256561279296875 -0.007218360900878906 0.0009047985076904297 -0.007201671600341797 0.0009348392486572266 -0.1401214599609375 0.035308837890625
2000000000.0 -0.15161895751953125 0.05687713623046875 -0.006764411926269531 0.002614736557006836 -0.006755352020263672 0.002662181854248047 -0.11914443969726562 0.07651138305664062
2050000000.0 -0.12392044067382812 0.09479141235351562 -0.005927085876464844 0.004187107086181641 -0.005902528762817383 0.004201412200927734 -0.08800506591796875 0.11046218872070312
2100000000.0 -0.08720016479492188 0.12334823608398438 -0.004717826843261719 0.005474567413330078 -0.004698991775512695 0.005505800247192383 -0.04803466796875 0.1334991455078125
2150000000.0 -0.04390716552734375 0.14037322998046875 -0.003252744674682617 0.00644993782043457 -0.0032181739807128906 0.006467580795288086 -0.0023651123046875 0.145355224609375
2200000000.0 0.00270843505859375 0.14475250244140625 -0.0015740394592285156 0.007021427154541016 -0.0015325546264648438 0.007020711898803711 0.0443878173828125 0.14348602294921875
2250000000.0 0.04880523681640625 0.13585662841796875 0.0002086162567138672 0.007175445556640625 0.00023889541625976562 0.007170677185058594 0.0903167724609375 0.12798309326171875
