!Created with skrf (http://scikit-rf.org).
# Hz S RI R 50.0 
!freq ReS11 ImS11
1000000000.0 -0.257232666015625 0.865509033203125
1100000000.0 -0.093658447265625 0.89605712890625
1200000000.0 0.06744384765625 0.895538330078125
1300000000.0 0.221649169921875 0.86724853515625
1400000000.0 0.36578369140625 0.815216064453125
1500000000.0 0.496826171875 0.74029541015625
1600000000.0 0.610137939453125 0.64404296875
1700000000.0 0.705535888671875 0.535552978515625
1800000000.0 0.7828369140625 0.412017822265625
1900000000.0 0.83868408203125 0.27899169921875
2000000000.0 0.871826171875 0.139190673828125
2100000000.0 0.88153076171875 -0.003387451171875
2200000000.0 0.868194580078125 -0.146453857421875
2300000000.0 0.828216552734375 -0.28192138671875
2400000000.0 0.77496337890625 -0.409149169921875
2500000000.0 0.69891357421875 -0.52630615234375
2600000000.0 0.60540771484375 -0.629058837890625
2700000000.0 0.498016357421875 -0.7159423828125
2800000000.0 0.37811279296875 -0.784912109375
2900000000.0 0.249420166015625 -0.8326416015625
3000000000.0 0.115264892578125 -0.860198974609375
3100000000.0 -0.02081298828125 -0.86688232421875
3200000000.0 -0.157318115234375 -0.852630615234375
3300000000.0 -0.2891845703125 -0.816558837890625
3400000000.0 -0.413177490234375 -0.7598876953125
3500000000.0 -0.526397705078125 -0.684661865234375
3600000000.0 -0.62646484375 -0.59393310546875
3700000000.0 -0.71173095703125 -0.4876708984375
3800000000.0 -0.77813720703125 -0.36981201171875
3900000000.0 -0.8248291015625 -0.243621826171875
4000000000.0 -0.8519287109375 -0.112884521484375
4100000000.0 -0.85992431640625 0.0213623046875
4200000000.0 -0.847564697265625 0.15557861328125
4300000000.0 -0.811859130859375 0.2877197265625
4400000000.0 -0.755615234375 0.41082763671875
4500000000.0 -0.681640625 0.523529052734375
4600000000.0 -0.590911865234375 0.6239013671875
4700000000.0 -0.485595703125 0.70758056640625
4800000000.0 -0.36993408203125 0.77349853515625
4900000000.0 -0.245452880859375 0.82171630859375
5000000000.0 -0.11468505859375 0.850341796875
5100000000.0 0.019317626953125 0.85760498046875
5200000000.0 0.151580810546875 0.844024658203125
5300000000.0 0.280792236328125 0.810516357421875
5400000000.0 0.402618408203125 0.7586669921875
5500000000.0 0.516143798828125 0.687255859375
5600000000.0 0.615386962890625 0.5987548828125
5700000000.0 0.699859619140625 0.4974365234375
5800000000.0 0.768524169921875 0.3843994140625
5900000000.0 0.819183349609375 0.26092529296875
6000000000.0 0.848602294921875 0.13336181640625
6100000000.0 0.8582763671875 0.00146484375
6200000000.0 0.849517822265625 -0.127838134765625
6300000000.0 0.822845458984375 -0.25579833984375
6400000000.0 0.776031494140625 -0.3804931640625
6500000000.0 0.708709716796875 -0.4940185546875
6600000000.0 0.6258544921875 -0.595703125
6700000000.0 0.527740478515625 -0.684417724609375
6800000000.0 0.4176025390625 -0.75634765625
6900000000.0 0.298309326171875 -0.80889892578125
7000000000.0 0.173309326171875 -0.844085693359375
7100000000.0 0.04510498046875 -0.860321044921875
7200000000.0 -0.085357666015625 -0.85797119140625
7300000000.0 -0.2137451171875 -0.833984375
7400000000.0 -0.334991455078125 -0.792236328125
7500000000.0 -0.44927978515625 -0.733673095703125
7600000000.0 -0.55255126953125 -0.660430908203125
7700000000.0 -0.644195556640625 -0.569549560546875
7800000000.0 -0.719696044921875 -0.467803955078125
7900000000.0 -0.779327392578125 -0.356781005859375
8000000000.0 -0.822418212890625 -0.238494873046875
8100000000.0 -0.847930908203125 -0.114593505859375
8200000000.0 -0.853546142578125 0.011016845703125
8300000000.0 -0.84136962890625 0.134124755859375
8400000000.0 -0.812713623046875 0.254608154296875
8500000000.0 -0.769195556640625 0.3704833984375
8600000000.0 -0.707305908203125 0.48095703125
8700000000.0 -0.628326416015625 0.578765869140625
8800000000.0 -0.53631591796875 0.663421630859375
8900000000.0 -0.4329833984375 0.734405517578125
9000000000.0 -0.320220947265625 0.789398193359375
9100000000.0 -0.2015380859375 0.825592041015625
9200000000.0 -0.0780029296875 0.845245361328125
9300000000.0 0.046417236328125 0.846893310546875
9400000000.0 0.171356201171875 0.83026123046875
9500000000.0 0.291717529296875 0.79510498046875
9600000000.0 0.404571533203125 0.742431640625
9700000000.0 0.5091552734375 0.67401123046875
9800000000.0 0.602508544921875 0.591339111328125
9900000000.0 0.682861328125 0.49420166015625
10000000000.0 0.745880126953125 0.38897705078125
10100000000.0 0.79461669921875 0.273590087890625
10200000000.0 0.82568359375 0.15167236328125
10300000000.0 0.837921142578125 0.0283203125
10400000000.0 0.831298828125 -0.095123291015625
10500000000.0 0.808013916015625 -0.216094970703125
10600000000.0 0.768402099609375 -0.333984375
10700000000.0 0.7100830078125 -0.446990966796875
10800000000.0 0.6337890625 -0.54876708984375
10900000000.0 0.5433349609375 -0.63690185546875
11000000000.0 0.441314697265625 -0.71044921875
11100000000.0 0.3284912109375 -0.7686767578125
11200000000.0 0.208648681640625 -0.808135986328125
11300000000.0 0.084442138671875 -0.829986572265625
11400000000.0 -0.04119873046875 -0.83111572265625
11500000000.0 -0.165924072265625 -0.81591796875
11600000000.0 -0.28912353515625 -0.77996826171875
11700000000.0 -0.402374267578125 -0.726776123046875
11800000000.0 -0.50616455078125 -0.6568603515625
11900000000.0 -0.5980224609375 -0.5733642578125
12000000000.0 -0.677978515625 -0.475494384765625
12100000000.0 -0.74102783203125 -0.36663818359375
12200000000.0 -0.786865234375 -0.249420166015625
12300000000.0 -0.8138427734375 -0.127960205078125
12400000000.0 -0.82232666015625 -0.003204345703125
12500000000.0 -0.811920166015625 0.122039794921875
12600000000.0 -0.782958984375 0.241607666015625
12700000000.0 -0.73712158203125 0.355194091796875
12800000000.0 -0.67669677734375 0.461883544921875
12900000000.0 -0.59918212890625 0.56048583984375
13000000000.0 -0.505218505859375 0.646575927734375
13100000000.0 -0.399139404296875 0.7154541015625
13200000000.0 -0.28485107421875 0.767242431640625
13300000000.0 -0.163421630859375 0.80108642578125
13400000000.0 -0.0374755859375 0.815704345703125
13500000000.0 0.0888671875 0.810638427734375
13600000000.0 0.211395263671875 0.785675048828125
13700000000.0 0.329254150390625 0.743621826171875
13800000000.0 0.43951416015625 0.683013916015625
13900000000.0 0.538360595703125 0.606048583984375
14000000000.0 0.624664306640625 0.515228271484375
14100000000.0 0.696044921875 0.41058349609375
14200000000.0 0.7506103515625 0.298004150390625
14300000000.0 0.786346435546875 0.1766357421875
14400000000.0 0.80303955078125 0.052703857421875
14500000000.0 0.800079345703125 -0.072357177734375
14600000000.0 0.7779541015625 -0.194976806640625
14700000000.0 0.7359619140625 -0.312835693359375
14800000000.0 0.677459716796875 -0.419830322265625
14900000000.0 0.608001708984375 -0.518524169921875
15000000000.0 0.52191162109375 -0.609588623046875
15100000000.0 0.420318603515625 -0.68505859375
15200000000.0 0.306610107421875 -0.74298095703125
15300000000.0 0.187042236328125 -0.781280517578125
15400000000.0 0.062042236328125 -0.802001953125
15500000000.0 -0.063995361328125 -0.80108642578125
15600000000.0 -0.18719482421875 -0.78167724609375
15700000000.0 -0.305206298828125 -0.74261474609375
15800000000.0 -0.416717529296875 -0.68707275390625
15900000000.0 -0.517852783203125 -0.614990234375
16000000000.0 -0.606109619140625 -0.527252197265625
16100000000.0 -0.679046630859375 -0.42828369140625
16200000000.0 -0.736968994140625 -0.319000244140625
16300000000.0 -0.777801513671875 -0.202362060546875
16400000000.0 -0.799346923828125 -0.08245849609375
16500000000.0 -0.8018798828125 0.0404052734375
16600000000.0 -0.785919189453125 0.161163330078125
16700000000.0 -0.752288818359375 0.278106689453125
16800000000.0 -0.69989013671875 0.38922119140625
16900000000.0 -0.6346435546875 0.486572265625
17000000000.0 -0.556488037109375 0.5743408203125
17100000000.0 -0.4688720703125 0.651031494140625
17200000000.0 -0.36669921875 0.717437744140625
17300000000.0 -0.2545166015625 0.76580810546875
17400000000.0 -0.135101318359375 0.796112060546875
17500000000.0 -0.01409912109375 0.807342529296875
17600000000.0 0.10589599609375 0.800506591796875
17700000000.0 0.22418212890625 0.775421142578125
17800000000.0 0.338653564453125 0.732818603515625
17900000000.0 0.4429931640625 0.67340087890625
18000000000.0 0.538482666015625 0.5987548828125
18100000000.0 0.621185302734375 0.51043701171875
18200000000.0 0.6893310546875 0.412872314453125
18300000000.0 0.7421875 0.305419921875
18400000000.0 0.77825927734375 0.18988037109375
18500000000.0 0.795379638671875 0.0716552734375
18600000000.0 0.795928955078125 -0.048431396484375
18700000000.0 0.777740478515625 -0.16558837890625
18800000000.0 0.743011474609375 -0.27911376953125
18900000000.0 0.690338134765625 -0.387969970703125
19000000000.0 0.625396728515625 -0.4830322265625
19100000000.0 0.545135498046875 -0.5718994140625
19200000000.0 0.455535888671875 -0.645782470703125
19300000000.0 0.351226806640625 -0.707733154296875
19400000000.0 0.24127197265625 -0.75152587890625
19500000000.0 0.123992919921875 -0.779388427734375
19600000000.0 0.003692626953125 -0.786865234375
19700000000.0 -0.11614990234375 -0.777313232421875
19800000000.0 -0.231842041015625 -0.74957275390625
19900000000.0 -0.342620849609375 -0.70379638671875
20000000000.0 -0.443603515625 -0.6412353515625
20100000000.0 -0.53631591796875 -0.564208984375
20200000000.0 -0.61553955078125 -0.474761962890625
20300000000.0 -0.678802490234375 -0.374847412109375
20400000000.0 -0.72601318359375 -0.264556884765625
20500000000.0 -0.75543212890625 -0.149810791015625
20600000000.0 -0.768218994140625 -0.033233642578125
20700000000.0 -0.76171875 0.086578369140625
20800000000.0 -0.737091064453125 0.201812744140625
20900000000.0 -0.69561767578125 0.3106689453125
21000000000.0 -0.637939453125 0.413177490234375
21100000000.0 -0.56610107421875 0.50408935546875
21200000000.0 -0.482421875 0.583984375
21300000000.0 -0.384918212890625 0.64984130859375
21400000000.0 -0.282806396484375 0.701995849609375
21500000000.0 -0.167572021484375 0.73974609375
21600000000.0 -0.050048828125 0.755126953125
21700000000.0 0.070770263671875 0.753387451171875
21800000000.0 0.1875 0.7310791015625
21900000000.0 0.301116943359375 0.690948486328125
22000000000.0 0.4052734375 0.634796142578125
22100000000.0 0.500885009765625 0.559906005859375
22200000000.0 0.58331298828125 0.475128173828125
22300000000.0 0.649932861328125 0.37310791015625
22400000000.0 0.700347900390625 0.263275146484375
22500000000.0 0.73236083984375 0.145782470703125
22600000000.0 0.745452880859375 0.02655029296875
22700000000.0 0.739105224609375 -0.0926513671875
22800000000.0 0.713836669921875 -0.21142578125
22900000000.0 0.66888427734375 -0.322601318359375
23000000000.0 0.607757568359375 -0.426116943359375
23100000000.0 0.5303955078125 -0.516632080078125
23200000000.0 0.44073486328125 -0.594146728515625
23300000000.0 0.342315673828125 -0.65655517578125
23400000000.0 0.233245849609375 -0.70562744140625
23500000000.0 0.115875244140625 -0.7362060546875
23600000000.0 -0.005889892578125 -0.74664306640625
23700000000.0 -0.12725830078125 -0.7371826171875
23800000000.0 -0.24609375 -0.70843505859375
23900000000.0 -0.355682373046875 -0.65960693359375
24000000000.0 -0.45806884765625 -0.597015380859375
24100000000.0 -0.55010986328125 -0.514739990234375
24200000000.0 -0.62872314453125 -0.420013427734375
24300000000.0 -0.68804931640625 -0.316009521484375
24400000000.0 -0.73211669921875 -0.2037353515625
24500000000.0 -0.757568359375 -0.083953857421875
24600000000.0 -0.762603759765625 0.03717041015625
24700000000.0 -0.750091552734375 0.156158447265625
24800000000.0 -0.718048095703125 0.271026611328125
24900000000.0 -0.66748046875 0.38031005859375
25000000000.0 -0.600189208984375 0.481292724609375
25100000000.0 -0.5198974609375 0.568084716796875
25200000000.0 -0.426483154296875 0.642425537109375
25300000000.0 -0.326019287109375 0.7005615234375
25400000000.0 -0.213104248046875 0.744140625
25500000000.0 -0.101959228515625 0.771209716796875
25600000000.0 0.016845703125 0.781341552734375
25700000000.0 0.13372802734375 0.77130126953125
25800000000.0 0.24945068359375 0.74554443359375
25900000000.0 0.360992431640625 0.701263427734375
26000000000.0 0.463348388671875 0.6409912109375
26100000000.0 0.554046630859375 0.566986083984375
26200000000.0 0.63543701171875 0.478057861328125
26300000000.0 0.699371337890625 0.382171630859375
26400000000.0 0.751129150390625 0.274505615234375
26500000000.0 0.78448486328125 0.16143798828125
