!Created with skrf (http://scikit-rf.org).
# Hz S RI R 50.0 
!freq ReS11 ImS11
1000000000.0 -0.0859375 0.8802490234375
1100000000.0 0.09271240234375 0.876861572265625
1200000000.0 0.26177978515625 0.838043212890625
1300000000.0 0.4158935546875 0.768951416015625
1400000000.0 0.551544189453125 0.67523193359375
1500000000.0 0.665435791015625 0.5594482421875
1600000000.0 0.75341796875 0.425811767578125
1700000000.0 0.81549072265625 0.2818603515625
1800000000.0 0.85113525390625 0.129730224609375
1900000000.0 0.859466552734375 -0.02508544921875
2000000000.0 0.840118408203125 -0.178375244140625
2100000000.0 0.793304443359375 -0.324310302734375
2200000000.0 0.72344970703125 -0.458465576171875
2300000000.0 0.62969970703125 -0.58087158203125
2400000000.0 0.514892578125 -0.68145751953125
2500000000.0 0.387237548828125 -0.7589111328125
2600000000.0 0.24847412109375 -0.81304931640625
2700000000.0 0.10345458984375 -0.8426513671875
2800000000.0 -0.044891357421875 -0.84716796875
2900000000.0 -0.191070556640625 -0.82574462890625
3000000000.0 -0.331207275390625 -0.77880859375
3100000000.0 -0.459991455078125 -0.70947265625
3200000000.0 -0.57611083984375 -0.61907958984375
3300000000.0 -0.67401123046875 -0.509979248046875
3400000000.0 -0.75146484375 -0.385986328125
3500000000.0 -0.805572509765625 -0.25030517578125
3600000000.0 -0.835906982421875 -0.1090087890625
3700000000.0 -0.842498779296875 0.03643798828125
3800000000.0 -0.823577880859375 0.18017578125
3900000000.0 -0.780181884765625 0.317718505859375
4000000000.0 -0.7144775390625 0.44512939453125
4100000000.0 -0.628692626953125 0.561279296875
4200000000.0 -0.524993896484375 0.659759521484375
4300000000.0 -0.406097412109375 0.739166259765625
4400000000.0 -0.2764892578125 0.79766845703125
4500000000.0 -0.136749267578125 0.835784912109375
4600000000.0 0.008209228515625 0.84722900390625
4700000000.0 0.1513671875 0.832916259765625
4800000000.0 0.28826904296875 0.795135498046875
4900000000.0 0.41693115234375 0.735992431640625
5000000000.0 0.534637451171875 0.656829833984375
5100000000.0 0.6376953125 0.55859375
5200000000.0 0.721435546875 0.44482421875
5300000000.0 0.7855224609375 0.319000244140625
5400000000.0 0.828094482421875 0.185699462890625
5500000000.0 0.8486328125 0.046051025390625
5600000000.0 0.84381103515625 -0.0950927734375
5700000000.0 0.81646728515625 -0.23138427734375
5800000000.0 0.7679443359375 -0.361602783203125
5900000000.0 0.69921875 -0.48284912109375
6000000000.0 0.61065673828125 -0.590240478515625
6100000000.0 0.505859375 -0.68133544921875
6200000000.0 0.388916015625 -0.7540283203125
6300000000.0 0.262908935546875 -0.807220458984375
6400000000.0 0.129119873046875 -0.839111328125
6500000000.0 -0.00732421875 -0.84710693359375
6600000000.0 -0.14093017578125 -0.834197998046875
6700000000.0 -0.272857666015625 -0.8023681640625
6800000000.0 -0.4002685546875 -0.74853515625
6900000000.0 -0.516021728515625 -0.672210693359375
7000000000.0 -0.61602783203125 -0.579437255859375
7100000000.0 -0.699493408203125 -0.47247314453125
7200000000.0 -0.765960693359375 -0.35406494140625
7300000000.0 -0.812408447265625 -0.225830078125
7400000000.0 -0.83612060546875 -0.09320068359375
7500000000.0 -0.838653564453125 0.04052734375
7600000000.0 -0.820404052734375 0.171722412109375
7700000000.0 -0.78057861328125 0.301513671875
7800000000.0 -0.7210693359375 0.421630859375
7900000000.0 -0.64288330078125 0.529296875
8000000000.0 -0.54803466796875 0.624298095703125
8100000000.0 -0.440399169921875 0.703216552734375
8200000000.0 -0.3203125 0.763916015625
8300000000.0 -0.192779541015625 0.803741455078125
8400000000.0 -0.060394287109375 0.82208251953125
8500000000.0 0.07244873046875 0.819610595703125
8600000000.0 0.203369140625 0.7955322265625
8700000000.0 0.328125 0.750213623046875
8800000000.0 0.443511962890625 0.684906005859375
8900000000.0 0.547698974609375 0.6038818359375
9000000000.0 0.640411376953125 0.507659912109375
9100000000.0 0.716339111328125 0.39306640625
9200000000.0 0.770050048828125 0.267333984375
9300000000.0 0.80194091796875 0.134002685546875
9400000000.0 0.8115234375 -0.001983642578125
9500000000.0 0.79888916015625 -0.1370849609375
9600000000.0 0.762725830078125 -0.268341064453125
9700000000.0 0.7047119140625 -0.391571044921875
9800000000.0 0.628204345703125 -0.5028076171875
9900000000.0 0.53326416015625 -0.601531982421875
10000000000.0 0.42303466796875 -0.681396484375
10100000000.0 0.3011474609375 -0.74163818359375
10200000000.0 0.170806884765625 -0.780853271484375
10300000000.0 0.03643798828125 -0.796905517578125
10400000000.0 -0.1007080078125 -0.79058837890625
10500000000.0 -0.233062744140625 -0.7598876953125
10600000000.0 -0.35791015625 -0.707183837890625
10700000000.0 -0.47149658203125 -0.635223388671875
10800000000.0 -0.5721435546875 -0.544769287109375
10900000000.0 -0.65521240234375 -0.438018798828125
11000000000.0 -0.71734619140625 -0.320281982421875
11100000000.0 -0.7607421875 -0.195281982421875
11200000000.0 -0.783447265625 -0.062835693359375
11300000000.0 -0.783416748046875 0.0712890625
11400000000.0 -0.758575439453125 0.206329345703125
11500000000.0 -0.711456298828125 0.331512451171875
11600000000.0 -0.64404296875 0.446868896484375
11700000000.0 -0.557647705078125 0.550323486328125
11800000000.0 -0.45428466796875 0.636871337890625
11900000000.0 -0.3380126953125 0.703369140625
12000000000.0 -0.213897705078125 0.74981689453125
12100000000.0 -0.082061767578125 0.7745361328125
12200000000.0 0.051422119140625 0.776275634765625
12300000000.0 0.182861328125 0.754547119140625
12400000000.0 0.30810546875 0.711273193359375
12500000000.0 0.423828125 0.64825439453125
12600000000.0 0.5269775390625 0.565582275390625
12700000000.0 0.614776611328125 0.466949462890625
12800000000.0 0.68426513671875 0.355133056640625
12900000000.0 0.733551025390625 0.232513427734375
13000000000.0 0.761505126953125 0.105682373046875
13100000000.0 0.767333984375 -0.025665283203125
13200000000.0 0.7503662109375 -0.154327392578125
13300000000.0 0.712921142578125 -0.2769775390625
13400000000.0 0.6571044921875 -0.39105224609375
13500000000.0 0.58538818359375 -0.49560546875
13600000000.0 0.493560791015625 -0.59002685546875
13700000000.0 0.38677978515625 -0.66510009765625
13800000000.0 0.268463134765625 -0.72052001953125
13900000000.0 0.142974853515625 -0.755401611328125
14000000000.0 0.014190673828125 -0.76776123046875
14100000000.0 -0.1148681640625 -0.75982666015625
14200000000.0 -0.23974609375 -0.72900390625
14300000000.0 -0.356414794921875 -0.679351806640625
14400000000.0 -0.46368408203125 -0.6103515625
14500000000.0 -0.557281494140625 -0.524932861328125
14600000000.0 -0.63623046875 -0.42462158203125
14700000000.0 -0.69671630859375 -0.315093994140625
14800000000.0 -0.73883056640625 -0.196014404296875
14900000000.0 -0.75946044921875 -0.072357177734375
15000000000.0 -0.760467529296875 0.05194091796875
15100000000.0 -0.740478515625 0.1756591796875
15200000000.0 -0.7015380859375 0.29278564453125
15300000000.0 -0.6427001953125 0.40289306640625
15400000000.0 -0.56829833984375 0.4986572265625
15500000000.0 -0.479400634765625 0.582855224609375
15600000000.0 -0.379547119140625 0.650054931640625
15700000000.0 -0.2703857421875 0.702606201171875
15800000000.0 -0.15313720703125 0.737396240234375
15900000000.0 -0.031158447265625 0.751953125
16000000000.0 0.092498779296875 0.74652099609375
16100000000.0 0.21405029296875 0.719879150390625
16200000000.0 0.32769775390625 0.6734619140625
16300000000.0 0.431732177734375 0.608978271484375
16400000000.0 0.52490234375 0.52777099609375
16500000000.0 0.602020263671875 0.433807373046875
16600000000.0 0.664276123046875 0.32733154296875
16700000000.0 0.705322265625 0.21258544921875
16800000000.0 0.727874755859375 0.09417724609375
16900000000.0 0.732025146484375 -0.02850341796875
17000000000.0 0.714569091796875 -0.149627685546875
17100000000.0 0.67608642578125 -0.2672119140625
17200000000.0 0.619842529296875 -0.373809814453125
17300000000.0 0.546295166015625 -0.47161865234375
17400000000.0 0.45843505859375 -0.554473876953125
17500000000.0 0.35693359375 -0.62158203125
17600000000.0 0.245330810546875 -0.669586181640625
17700000000.0 0.128265380859375 -0.69842529296875
17800000000.0 0.00958251953125 -0.707305908203125
17900000000.0 -0.109375 -0.697052001953125
18000000000.0 -0.22418212890625 -0.6683349609375
18100000000.0 -0.33355712890625 -0.62139892578125
18200000000.0 -0.435455322265625 -0.55426025390625
18300000000.0 -0.523468017578125 -0.470855712890625
18400000000.0 -0.595916748046875 -0.3746337890625
18500000000.0 -0.6517333984375 -0.267181396484375
18600000000.0 -0.686798095703125 -0.152313232421875
18700000000.0 -0.702667236328125 -0.03216552734375
18800000000.0 -0.697052001953125 0.088134765625
18900000000.0 -0.6724853515625 0.203094482421875
19000000000.0 -0.626861572265625 0.31634521484375
19100000000.0 -0.564727783203125 0.416259765625
19200000000.0 -0.484100341796875 0.5072021484375
19300000000.0 -0.39306640625 0.58087158203125
19400000000.0 -0.287994384765625 0.63983154296875
19500000000.0 -0.17608642578125 0.678070068359375
19600000000.0 -0.05975341796875 0.6990966796875
19700000000.0 0.058258056640625 0.69879150390625
19800000000.0 0.175140380859375 0.67864990234375
19900000000.0 0.28570556640625 0.6400146484375
20000000000.0 0.388946533203125 0.583526611328125
20100000000.0 0.478729248046875 0.51214599609375
20200000000.0 0.556396484375 0.4273681640625
20300000000.0 0.62152099609375 0.330078125
20400000000.0 0.67022705078125 0.22418212890625
20500000000.0 0.7003173828125 0.109405517578125
20600000000.0 0.708892822265625 -0.010223388671875
20700000000.0 0.698333740234375 -0.12652587890625
20800000000.0 0.668701171875 -0.240692138671875
20900000000.0 0.61895751953125 -0.3492431640625
21000000000.0 0.553314208984375 -0.4459228515625
21100000000.0 0.471893310546875 -0.53094482421875
21200000000.0 0.37835693359375 -0.600982666015625
21300000000.0 0.27685546875 -0.6553955078125
21400000000.0 0.164154052734375 -0.691864013671875
21500000000.0 0.050689697265625 -0.707733154296875
21600000000.0 -0.0655517578125 -0.70794677734375
21700000000.0 -0.178466796875 -0.6871337890625
21800000000.0 -0.28741455078125 -0.649200439453125
21900000000.0 -0.38751220703125 -0.59429931640625
22000000000.0 -0.478515625 -0.52239990234375
22100000000.0 -0.5531005859375 -0.439239501953125
22200000000.0 -0.614990234375 -0.3436279296875
22300000000.0 -0.66058349609375 -0.242401123046875
22400000000.0 -0.689849853515625 -0.136322021484375
22500000000.0 -0.70361328125 -0.027313232421875
22600000000.0 -0.699188232421875 0.08526611328125
22700000000.0 -0.676300048828125 0.197357177734375
22800000000.0 -0.634765625 0.301666259765625
22900000000.0 -0.5772705078125 0.39892578125
23000000000.0 -0.50421142578125 0.484161376953125
23100000000.0 -0.4195556640625 0.557220458984375
23200000000.0 -0.323974609375 0.61517333984375
23300000000.0 -0.219085693359375 0.6573486328125
23400000000.0 -0.11041259765625 0.680755615234375
23500000000.0 -0.00030517578125 0.686279296875
23600000000.0 0.109283447265625 0.67529296875
23700000000.0 0.216064453125 0.6451416015625
23800000000.0 0.3157958984375 0.59735107421875
23900000000.0 0.4085693359375 0.53533935546875
24000000000.0 0.4870452880859375 0.4562225341796875
24100000000.0 0.551055908203125 0.369659423828125
24200000000.0 0.598846435546875 0.272003173828125
24300000000.0 0.631591796875 0.16619873046875
24400000000.0 0.643829345703125 0.056732177734375
24500000000.0 0.637359619140625 -0.050140380859375
24600000000.0 0.615081787109375 -0.15478515625
24700000000.0 0.574737548828125 -0.25457763671875
24800000000.0 0.5198974609375 -0.34844970703125
24900000000.0 0.449615478515625 -0.4318695068359375
25000000000.0 0.36492919921875 -0.500518798828125
25100000000.0 0.26702880859375 -0.55426025390625
25200000000.0 0.162109375 -0.588165283203125
25300000000.0 0.050567626953125 -0.60235595703125
25400000000.0 -0.056182861328125 -0.59613037109375
25500000000.0 -0.1666259765625 -0.568939208984375
25600000000.0 -0.266387939453125 -0.522918701171875
25700000000.0 -0.3579254150390625 -0.46075439453125
25800000000.0 -0.4343109130859375 -0.3807830810546875
25900000000.0 -0.4941864013671875 -0.288482666015625
26000000000.0 -0.5357666015625 -0.18682861328125
26100000000.0 -0.558135986328125 -0.077484130859375
26200000000.0 -0.55731201171875 0.03082275390625
26300000000.0 -0.53759765625 0.14031982421875
26400000000.0 -0.4962921142578125 0.2401580810546875
26500000000.0 -0.436981201171875 0.330902099609375
