!Created with skrf (http://scikit-rf.org).
# Hz S RI R 50.0 
!freq ReS11 ImS11
1000000000.0 0.6448974609375 -0.647308349609375
1100000000.0 0.342529296875 -0.855438232421875
1200000000.0 -0.01434326171875 -0.924835205078125
1300000000.0 -0.367340087890625 -0.848114013671875
1400000000.0 -0.66021728515625 -0.640106201171875
1500000000.0 -0.847076416015625 -0.334808349609375
1600000000.0 -0.897735595703125 0.017669677734375
1700000000.0 -0.8052978515625 0.359710693359375
1800000000.0 -0.58428955078125 0.634674072265625
1900000000.0 -0.273040771484375 0.79595947265625
2000000000.0 0.074493408203125 0.816253662109375
2100000000.0 0.397308349609375 0.692779541015625
2200000000.0 0.63812255859375 0.44793701171875
2300000000.0 0.753143310546875 0.12713623046875
2400000000.0 0.72308349609375 -0.21026611328125
2500000000.0 0.553924560546875 -0.501861572265625
2600000000.0 0.27838134765625 -0.693603515625
2700000000.0 -0.05108642578125 -0.75091552734375
2800000000.0 -0.37384033203125 -0.66302490234375
2900000000.0 -0.629425048828125 -0.448486328125
3000000000.0 -0.77166748046875 -0.146881103515625
3100000000.0 -0.7763671875 0.186187744140625
3200000000.0 -0.643218994140625 0.49127197265625
3300000000.0 -0.396942138671875 0.71484375
3400000000.0 -0.0809326171875 0.81842041015625
3500000000.0 0.25042724609375 0.7840576171875
3600000000.0 0.538818359375 0.617523193359375
3700000000.0 0.733734130859375 0.346771240234375
3800000000.0 0.7989501953125 0.019561767578125
3900000000.0 0.721771240234375 -0.304718017578125
4000000000.0 0.51556396484375 -0.565521240234375
4100000000.0 0.219390869140625 -0.71282958984375
4200000000.0 -0.108673095703125 -0.718841552734375
4300000000.0 -0.404205322265625 -0.58441162109375
4400000000.0 -0.610382080078125 -0.33935546875
4500000000.0 -0.69073486328125 -0.033905029296875
4600000000.0 -0.63397216796875 0.2718505859375
4700000000.0 -0.457366943359375 0.521453857421875
4800000000.0 -0.19708251953125 0.6732177734375
4900000000.0 0.09832763671875 0.7054443359375
5000000000.0 0.37896728515625 0.61773681640625
5100000000.0 0.6007080078125 0.428009033203125
5200000000.0 0.73077392578125 0.168243408203125
5300000000.0 0.750946044921875 -0.12164306640625
5400000000.0 0.6595458984375 -0.39715576171875
5500000000.0 0.466522216796875 -0.61859130859375
5600000000.0 0.202545166015625 -0.750274658203125
5700000000.0 -0.094512939453125 -0.770263671875
5800000000.0 -0.378692626953125 -0.672119140625
5900000000.0 -0.602691650390625 -0.4671630859375
6000000000.0 -0.726226806640625 -0.187103271484375
6100000000.0 -0.724395751953125 0.12060546875
6200000000.0 -0.594390869140625 0.399932861328125
6300000000.0 -0.359344482421875 0.59814453125
6400000000.0 -0.063934326171875 0.67596435546875
6500000000.0 0.232330322265625 0.619476318359375
6600000000.0 0.470916748046875 0.443695068359375
6700000000.0 0.606964111328125 0.187347412109375
6800000000.0 0.61907958984375 -0.095947265625
6900000000.0 0.511444091796875 -0.35003662109375
7000000000.0 0.31292724609375 -0.5291748046875
7100000000.0 0.066864013671875 -0.608062744140625
7200000000.0 -0.18316650390625 -0.580718994140625
7300000000.0 -0.3907318115234375 -0.45867919921875
7400000000.0 -0.5262451171875 -0.2821044921875
7500000000.0 -0.600921630859375 -0.080596923828125
7600000000.0 -0.60675048828125 0.148712158203125
7700000000.0 -0.517486572265625 0.376129150390625
7800000000.0 -0.338104248046875 0.55438232421875
7900000000.0 -0.0968017578125 0.64715576171875
8000000000.0 0.16632080078125 0.634796142578125
8100000000.0 0.405975341796875 0.51470947265625
8200000000.0 0.57818603515625 0.303497314453125
8300000000.0 0.647705078125 0.036163330078125
8400000000.0 0.597869873046875 -0.238555908203125
8500000000.0 0.43524169921875 -0.467193603515625
8600000000.0 0.190643310546875 -0.604400634765625
8700000000.0 -0.087554931640625 -0.623504638671875
8800000000.0 -0.344024658203125 -0.523468017578125
8900000000.0 -0.53125 -0.3284912109375
9000000000.0 -0.618377685546875 -0.07855224609375
9100000000.0 -0.596527099609375 0.17950439453125
9200000000.0 -0.4753265380859375 0.40191650390625
9300000000.0 -0.279815673828125 0.55523681640625
9400000000.0 -0.044281005859375 0.619415283203125
9500000000.0 0.1951904296875 0.58795166015625
9600000000.0 0.40283203125 0.467987060546875
9700000000.0 0.548492431640625 0.27838134765625
9800000000.0 0.61053466796875 0.04705810546875
9900000000.0 0.578857421875 -0.19158935546875
10000000000.0 0.4554901123046875 -0.4011688232421875
10100000000.0 0.2574462890625 -0.54669189453125
10200000000.0 0.015380859375 -0.60260009765625
10300000000.0 -0.2320556640625 -0.5545654296875
10400000000.0 -0.4402008056640625 -0.4086761474609375
10500000000.0 -0.5703125 -0.188232421875
10600000000.0 -0.596282958984375 0.066741943359375
10700000000.0 -0.513427734375 0.308013916015625
10800000000.0 -0.338470458984375 0.4900665283203125
10900000000.0 -0.10791015625 0.580169677734375
11000000000.0 0.132965087890625 0.564910888671875
11100000000.0 0.3386077880859375 0.4560699462890625
11200000000.0 0.4762115478515625 0.2810516357421875
11300000000.0 0.532470703125 0.07550048828125
11400000000.0 0.50830078125 -0.127685546875
11500000000.0 0.4140625 -0.3040924072265625
11600000000.0 0.2617340087890625 -0.4336700439453125
11700000000.0 0.068817138671875 -0.4965972900390625
11800000000.0 -0.1373138427734375 -0.477996826171875
11900000000.0 -0.3216094970703125 -0.37542724609375
12000000000.0 -0.4488983154296875 -0.203460693359375
12100000000.0 -0.49346923828125 0.0085906982421875
12200000000.0 -0.444549560546875 0.221893310546875
12300000000.0 -0.3096923828125 0.39642333984375
12400000000.0 -0.112884521484375 0.4992523193359375
12500000000.0 0.10992431640625 0.51055908203125
12600000000.0 0.3183746337890625 0.4288330078125
12700000000.0 0.4757843017578125 0.2683868408203125
12800000000.0 0.554718017578125 0.0570068359375
12900000000.0 0.54217529296875 -0.169097900390625
13000000000.0 0.4398956298828125 -0.3723602294921875
13100000000.0 0.26470947265625 -0.5189208984375
13200000000.0 0.044708251953125 -0.584503173828125
13300000000.0 -0.184539794921875 -0.557220458984375
13400000000.0 -0.384552001953125 -0.4399566650390625
13500000000.0 -0.521514892578125 -0.251495361328125
13600000000.0 -0.570343017578125 -0.022918701171875
13700000000.0 -0.520843505859375 0.20654296875
13800000000.0 -0.38018798828125 0.3940582275390625
13900000000.0 -0.17449951171875 0.50469970703125
14000000000.0 0.057098388671875 0.517364501953125
14100000000.0 0.2697601318359375 0.4305572509765625
14200000000.0 0.4222564697265625 0.263824462890625
14300000000.0 0.4875946044921875 0.052001953125
14400000000.0 0.457672119140625 -0.1629486083984375
14500000000.0 0.3434600830078125 -0.341156005859375
14600000000.0 0.1703948974609375 -0.4538726806640625
14700000000.0 -0.0283050537109375 -0.4856719970703125
14800000000.0 -0.2191619873046875 -0.4371795654296875
14900000000.0 -0.371978759765625 -0.320648193359375
15000000000.0 -0.4662017822265625 -0.1576080322265625
15100000000.0 -0.4906768798828125 0.026153564453125
15200000000.0 -0.4441680908203125 0.2032012939453125
15300000000.0 -0.335174560546875 0.3480987548828125
15400000000.0 -0.179840087890625 0.440155029296875
15500000000.0 -0.000701904296875 0.465667724609375
15600000000.0 0.1744537353515625 0.41888427734375
15700000000.0 0.3184356689453125 0.3055267333984375
15800000000.0 0.4048004150390625 0.141448974609375
15900000000.0 0.415283203125 -0.0466766357421875
16000000000.0 0.3434906005859375 -0.224639892578125
16100000000.0 0.19921875 -0.356048583984375
16200000000.0 0.008758544921875 -0.412078857421875
16300000000.0 -0.1890106201171875 -0.3766632080078125
16400000000.0 -0.35205078125 -0.256744384765625
16500000000.0 -0.445648193359375 -0.0768280029296875
16600000000.0 -0.4512176513671875 0.1248016357421875
16700000000.0 -0.3712158203125 0.3074798583984375
16800000000.0 -0.22430419921875 0.4382781982421875
16900000000.0 -0.0399017333984375 0.496185302734375
17000000000.0 0.1483001708984375 0.4760894775390625
17100000000.0 0.3099212646484375 0.3853607177734375
17200000000.0 0.4212799072265625 0.24249267578125
17300000000.0 0.4686126708984375 0.07183837890625
17400000000.0 0.4478759765625 -0.1000518798828125
17500000000.0 0.3650360107421875 -0.24786376953125
17600000000.0 0.234954833984375 -0.3503265380859375
17700000000.0 0.078765869140625 -0.394012451171875
17800000000.0 -0.079071044921875 -0.3740234375
17900000000.0 -0.2134857177734375 -0.294921875
18000000000.0 -0.3039398193359375 -0.17108154296875
18100000000.0 -0.3359527587890625 -0.02349853515625
18200000000.0 -0.305206298828125 0.1222076416015625
18300000000.0 -0.21765899658203125 0.2410430908203125
18400000000.0 -0.0889434814453125 0.311920166015625
18500000000.0 0.057586669921875 0.3216400146484375
18600000000.0 0.19500732421875 0.268096923828125
18700000000.0 0.297454833984375 0.16021728515625
18800000000.0 0.344818115234375 0.0175933837890625
18900000000.0 0.3270263671875 -0.1336822509765625
19000000000.0 0.246307373046875 -0.2650299072265625
19100000000.0 0.11688232421875 -0.3517608642578125
19200000000.0 -0.0385284423828125 -0.37786865234375
19300000000.0 -0.1922760009765625 -0.33837890625
19400000000.0 -0.31842041015625 -0.2401885986328125
19500000000.0 -0.396392822265625 -0.0991668701171875
19600000000.0 -0.413909912109375 0.06219482421875
19700000000.0 -0.3679656982421875 0.2192535400390625
19800000000.0 -0.2642974853515625 0.3482818603515625
19900000000.0 -0.118133544921875 0.4290313720703125
20000000000.0 0.049224853515625 0.448211669921875
20100000000.0 0.2124481201171875 0.401458740234375
20200000000.0 0.3453369140625 0.2954254150390625
20300000000.0 0.427764892578125 0.145782470703125
20400000000.0 0.4455718994140625 -0.02362060546875
20500000000.0 0.3966217041015625 -0.1862335205078125
20600000000.0 0.287841796875 -0.3162384033203125
20700000000.0 0.137908935546875 -0.39166259765625
20800000000.0 -0.0291290283203125 -0.4007568359375
20900000000.0 -0.184539794921875 -0.34173583984375
21000000000.0 -0.3012237548828125 -0.2236328125
21100000000.0 -0.3574981689453125 -0.068389892578125
21200000000.0 -0.3419189453125 0.0961761474609375
21300000000.0 -0.257537841796875 0.2382965087890625
21400000000.0 -0.119140625 0.3303070068359375
21500000000.0 0.046142578125 0.3531341552734375
21600000000.0 0.2058868408203125 0.301727294921875
21700000000.0 0.328460693359375 0.186309814453125
21800000000.0 0.3909759521484375 0.02813720703125
21900000000.0 0.3812255859375 -0.141815185546875
22000000000.0 0.301727294921875 -0.2928314208984375
22100000000.0 0.1683197021484375 -0.398406982421875
22200000000.0 0.0046539306640625 -0.441375732421875
22300000000.0 -0.161468505859375 -0.4164886474609375
22400000000.0 -0.3031463623046875 -0.3293914794921875
22500000000.0 -0.3986358642578125 -0.1953582763671875
22600000000.0 -0.4332733154296875 -0.0363922119140625
22700000000.0 -0.4024505615234375 0.1215667724609375
22800000000.0 -0.3111572265625 0.2521514892578125
22900000000.0 -0.17578125 0.3332977294921875
23000000000.0 -0.01934814453125 0.349395751953125
23100000000.0 0.128173828125 0.2959442138671875
23200000000.0 0.2369384765625 0.18251800537109375
23300000000.0 0.282989501953125 0.0311126708984375
23400000000.0 0.2547607421875 -0.12579345703125
23500000000.0 0.1572113037109375 -0.25439453125
23600000000.0 0.0105133056640625 -0.3261871337890625
23700000000.0 -0.15386962890625 -0.32684326171875
23800000000.0 -0.3040313720703125 -0.2576446533203125
23900000000.0 -0.4129486083984375 -0.133087158203125
24000000000.0 -0.46441650390625 0.0234527587890625
24100000000.0 -0.4535980224609375 0.186981201171875
24200000000.0 -0.3843994140625 0.33465576171875
24300000000.0 -0.268280029296875 0.44696044921875
24400000000.0 -0.12139892578125 0.51104736328125
24500000000.0 0.0364990234375 0.5203857421875
24600000000.0 0.1868896484375 0.475494384765625
24700000000.0 0.3112030029296875 0.381561279296875
24800000000.0 0.393341064453125 0.2501373291015625
24900000000.0 0.4206390380859375 0.09814453125
25000000000.0 0.3865966796875 -0.051055908203125
25100000000.0 0.2960052490234375 -0.1725616455078125
25200000000.0 0.163055419921875 -0.24326324462890625
25300000000.0 0.013641357421875 -0.2475738525390625
25400000000.0 -0.12076568603515625 -0.1834259033203125
25500000000.0 -0.20946502685546875 -0.0640411376953125
25600000000.0 -0.2324066162109375 0.0822601318359375
25700000000.0 -0.1862945556640625 0.223388671875
25800000000.0 -0.0818634033203125 0.32977294921875
25900000000.0 0.0579986572265625 0.381744384765625
26000000000.0 0.2079925537109375 0.3723907470703125
26100000000.0 0.3424835205078125 0.3055419921875
26200000000.0 0.4423828125 0.1929473876953125
26300000000.0 0.494598388671875 0.051513671875
26400000000.0 0.4927215576171875 -0.09881591796875
26500000000.0 0.4371795654296875 -0.2384796142578125
