!Created with skrf (http://scikit-rf.org).
# Hz S RI R 50.0 
!freq ReS11 ImS11
1000000000.0 0.615875244140625 0.611785888671875
1100000000.0 0.765045166015625 0.415313720703125
1200000000.0 0.85150146484375 0.1905517578125
1300000000.0 0.872802734375 -0.04425048828125
1400000000.0 0.832489013671875 -0.2723388671875
1500000000.0 0.736328125 -0.480072021484375
1600000000.0 0.59136962890625 -0.654815673828125
1700000000.0 0.4080810546875 -0.785797119140625
1800000000.0 0.1990966796875 -0.86553955078125
1900000000.0 -0.021453857421875 -0.890838623046875
2000000000.0 -0.24114990234375 -0.861846923828125
2100000000.0 -0.44647216796875 -0.779632568359375
2200000000.0 -0.62481689453125 -0.649810791015625
2300000000.0 -0.7626953125 -0.480194091796875
2400000000.0 -0.85723876953125 -0.283294677734375
2500000000.0 -0.901824951171875 -0.070465087890625
2600000000.0 -0.893402099609375 0.146942138671875
2700000000.0 -0.832244873046875 0.355010986328125
2800000000.0 -0.723907470703125 0.541534423828125
2900000000.0 -0.575286865234375 0.696929931640625
3000000000.0 -0.394561767578125 0.8128662109375
3100000000.0 -0.19073486328125 0.882476806640625
3200000000.0 0.02581787109375 0.8997802734375
3300000000.0 0.23736572265625 0.86279296875
3400000000.0 0.432342529296875 0.77838134765625
3500000000.0 0.601715087890625 0.65045166015625
3600000000.0 0.734710693359375 0.4849853515625
3700000000.0 0.8231201171875 0.293975830078125
3800000000.0 0.86358642578125 0.0872802734375
3900000000.0 0.852935791015625 -0.1229248046875
4000000000.0 0.7923583984375 -0.322113037109375
4100000000.0 0.68115234375 -0.50128173828125
4200000000.0 0.53155517578125 -0.646728515625
4300000000.0 0.35137939453125 -0.7501220703125
4400000000.0 0.152130126953125 -0.8055419921875
4500000000.0 -0.0545654296875 -0.80841064453125
4600000000.0 -0.254425048828125 -0.7587890625
4700000000.0 -0.434051513671875 -0.661285400390625
4800000000.0 -0.5833740234375 -0.521331787109375
4900000000.0 -0.691009521484375 -0.34783935546875
5000000000.0 -0.749053955078125 -0.153472900390625
5100000000.0 -0.75482177734375 0.047271728515625
5200000000.0 -0.70904541015625 0.24237060546875
5300000000.0 -0.614715576171875 0.418121337890625
5400000000.0 -0.47821044921875 0.562469482421875
5500000000.0 -0.30950927734375 0.6650390625
5600000000.0 -0.122222900390625 0.719451904296875
5700000000.0 0.07171630859375 0.724365234375
5800000000.0 0.259429931640625 0.67913818359375
5900000000.0 0.427642822265625 0.586578369140625
6000000000.0 0.563140869140625 0.45751953125
6100000000.0 0.66192626953125 0.29705810546875
6200000000.0 0.718994140625 0.12274169921875
6300000000.0 0.733551025390625 -0.06390380859375
6400000000.0 0.69708251953125 -0.2490234375
6500000000.0 0.615509033203125 -0.41387939453125
6600000000.0 0.498321533203125 -0.552947998046875
6700000000.0 0.35107421875 -0.6595458984375
6800000000.0 0.183685302734375 -0.726776123046875
6900000000.0 0.0068359375 -0.750640869140625
7000000000.0 -0.169189453125 -0.733154296875
7100000000.0 -0.33514404296875 -0.675628662109375
7200000000.0 -0.483978271484375 -0.58209228515625
7300000000.0 -0.605987548828125 -0.455841064453125
7400000000.0 -0.694244384765625 -0.30645751953125
7500000000.0 -0.746124267578125 -0.142364501953125
7600000000.0 -0.759552001953125 0.0294189453125
7700000000.0 -0.733062744140625 0.200469970703125
7800000000.0 -0.6683349609375 0.36065673828125
7900000000.0 -0.568603515625 0.50128173828125
8000000000.0 -0.438812255859375 0.616180419921875
8100000000.0 -0.286712646484375 0.699310302734375
8200000000.0 -0.11767578125 0.74560546875
8300000000.0 0.05767822265625 0.750762939453125
8400000000.0 0.229827880859375 0.714599609375
8500000000.0 0.38922119140625 0.639373779296875
8600000000.0 0.527557373046875 0.52789306640625
8700000000.0 0.63616943359375 0.38543701171875
8800000000.0 0.707275390625 0.219329833984375
8900000000.0 0.736541748046875 0.0404052734375
9000000000.0 0.721099853515625 -0.140533447265625
9100000000.0 0.661529541015625 -0.313568115234375
9200000000.0 0.5609130859375 -0.465057373046875
9300000000.0 0.42755126953125 -0.587890625
9400000000.0 0.26959228515625 -0.67779541015625
9500000000.0 0.08795166015625 -0.72601318359375
9600000000.0 -0.101837158203125 -0.723876953125
9700000000.0 -0.283203125 -0.671783447265625
9800000000.0 -0.444244384765625 -0.57568359375
9900000000.0 -0.57501220703125 -0.443359375
10000000000.0 -0.6688232421875 -0.2806396484375
10100000000.0 -0.716705322265625 -0.10211181640625
10200000000.0 -0.718292236328125 0.08135986328125
10300000000.0 -0.673004150390625 0.259490966796875
10400000000.0 -0.58648681640625 0.41888427734375
10500000000.0 -0.463226318359375 0.5511474609375
10600000000.0 -0.311309814453125 0.648101806640625
10700000000.0 -0.14190673828125 0.703216552734375
10800000000.0 0.034576416015625 0.71502685546875
10900000000.0 0.207672119140625 0.684295654296875
11000000000.0 0.3681640625 0.612091064453125
11100000000.0 0.503753662109375 0.50299072265625
11200000000.0 0.60821533203125 0.36590576171875
11300000000.0 0.67657470703125 0.208770751953125
11400000000.0 0.70458984375 0.0404052734375
11500000000.0 0.691741943359375 -0.131072998046875
11600000000.0 0.63720703125 -0.292236328125
11700000000.0 0.546142578125 -0.434478759765625
11800000000.0 0.42498779296875 -0.54986572265625
11900000000.0 0.279815673828125 -0.633331298828125
12000000000.0 0.1181640625 -0.677734375
12100000000.0 -0.046630859375 -0.6822509765625
12200000000.0 -0.20770263671875 -0.64666748046875
12300000000.0 -0.35345458984375 -0.5743408203125
12400000000.0 -0.476470947265625 -0.4700164794921875
12500000000.0 -0.571533203125 -0.34161376953125
12600000000.0 -0.637451171875 -0.195159912109375
12700000000.0 -0.664794921875 -0.03216552734375
12800000000.0 -0.648834228515625 0.1328125
12900000000.0 -0.591796875 0.28729248046875
13000000000.0 -0.4973907470703125 0.423065185546875
13100000000.0 -0.372894287109375 0.52911376953125
13200000000.0 -0.22723388671875 0.601165771484375
13300000000.0 -0.068145751953125 0.634490966796875
13400000000.0 0.094482421875 0.62652587890625
13500000000.0 0.248779296875 0.5784912109375
13600000000.0 0.38458251953125 0.492584228515625
13700000000.0 0.4944305419921875 0.3770294189453125
13800000000.0 0.571258544921875 0.236968994140625
13900000000.0 0.609710693359375 0.08270263671875
14000000000.0 0.60791015625 -0.074951171875
14100000000.0 0.56683349609375 -0.228240966796875
14200000000.0 0.4888458251953125 -0.36370849609375
14300000000.0 0.379730224609375 -0.47503662109375
14400000000.0 0.2476806640625 -0.55450439453125
14500000000.0 0.100830078125 -0.59796142578125
14600000000.0 -0.0523681640625 -0.603729248046875
14700000000.0 -0.200103759765625 -0.572235107421875
14800000000.0 -0.3350830078125 -0.504425048828125
14900000000.0 -0.4472198486328125 -0.4073638916015625
15000000000.0 -0.532440185546875 -0.286956787109375
15100000000.0 -0.5848388671875 -0.149261474609375
15200000000.0 -0.6026611328125 -0.00518798828125
15300000000.0 -0.584228515625 0.138702392578125
15400000000.0 -0.53289794921875 0.269378662109375
15500000000.0 -0.4530792236328125 0.3847808837890625
15600000000.0 -0.351470947265625 0.475433349609375
15700000000.0 -0.2330322265625 0.54461669921875
15800000000.0 -0.098236083984375 0.585296630859375
15900000000.0 0.043792724609375 0.5902099609375
16000000000.0 0.18310546875 0.56060791015625
16100000000.0 0.3109588623046875 0.497314453125
16200000000.0 0.417816162109375 0.405303955078125
16300000000.0 0.498046875 0.2906341552734375
16400000000.0 0.5499267578125 0.1595458984375
16500000000.0 0.56689453125 0.020965576171875
16600000000.0 0.551727294921875 -0.117950439453125
16700000000.0 0.5003662109375 -0.248382568359375
16800000000.0 0.420654296875 -0.3614959716796875
16900000000.0 0.3141021728515625 -0.452239990234375
17000000000.0 0.189697265625 -0.5137939453125
17100000000.0 0.052642822265625 -0.543487548828125
17200000000.0 -0.08599853515625 -0.53643798828125
17300000000.0 -0.21832275390625 -0.4966888427734375
17400000000.0 -0.3360443115234375 -0.4253082275390625
17500000000.0 -0.43365478515625 -0.3261260986328125
17600000000.0 -0.50396728515625 -0.20562744140625
17700000000.0 -0.54071044921875 -0.072174072265625
17800000000.0 -0.54290771484375 0.0654296875
17900000000.0 -0.51263427734375 0.199859619140625
18000000000.0 -0.448822021484375 0.322540283203125
18100000000.0 -0.35614013671875 0.4257965087890625
18200000000.0 -0.24237060546875 0.50311279296875
18300000000.0 -0.11273193359375 0.550048828125
18400000000.0 0.024322509765625 0.56304931640625
18500000000.0 0.15814208984375 0.5419921875
18600000000.0 0.2850494384765625 0.4896697998046875
18700000000.0 0.39361572265625 0.410736083984375
18800000000.0 0.48236083984375 0.307342529296875
18900000000.0 0.5440673828125 0.1832275390625
19000000000.0 0.575531005859375 0.049774169921875
19100000000.0 0.57232666015625 -0.092041015625
19200000000.0 0.536346435546875 -0.226043701171875
19300000000.0 0.4650115966796875 -0.34967041015625
19400000000.0 0.36810302734375 -0.45037841796875
19500000000.0 0.247833251953125 -0.526947021484375
19600000000.0 0.112457275390625 -0.5689697265625
19700000000.0 -0.02972412109375 -0.578826904296875
19800000000.0 -0.1690673828125 -0.553009033203125
19900000000.0 -0.2983856201171875 -0.49371337890625
20000000000.0 -0.4080963134765625 -0.403411865234375
20100000000.0 -0.4949493408203125 -0.2889251708984375
20200000000.0 -0.55059814453125 -0.1573486328125
20300000000.0 -0.57086181640625 -0.016510009765625
20400000000.0 -0.55517578125 0.126800537109375
20500000000.0 -0.504608154296875 0.2611083984375
20600000000.0 -0.4245758056640625 0.3774871826171875
20700000000.0 -0.3157806396484375 0.4728546142578125
20800000000.0 -0.18719482421875 0.5369873046875
20900000000.0 -0.04779052734375 0.566650390625
21000000000.0 0.09619140625 0.562286376953125
21100000000.0 0.233917236328125 0.520904541015625
21200000000.0 0.356414794921875 0.4481201171875
21300000000.0 0.4596405029296875 0.3447113037109375
21400000000.0 0.530609130859375 0.221771240234375
21500000000.0 0.57110595703125 0.086517333984375
21600000000.0 0.57568359375 -0.057220458984375
21700000000.0 0.54736328125 -0.193389892578125
21800000000.0 0.4874420166015625 -0.31915283203125
21900000000.0 0.4027557373046875 -0.4259796142578125
22000000000.0 0.29266357421875 -0.511688232421875
22100000000.0 0.1668701171875 -0.5721435546875
22200000000.0 0.029022216796875 -0.59893798828125
22300000000.0 -0.11334228515625 -0.59185791015625
22400000000.0 -0.247772216796875 -0.552764892578125
22500000000.0 -0.3661346435546875 -0.4821319580078125
22600000000.0 -0.468414306640625 -0.3861083984375
22700000000.0 -0.543121337890625 -0.2681884765625
22800000000.0 -0.587677001953125 -0.138885498046875
22900000000.0 -0.601287841796875 -0.00201416015625
23000000000.0 -0.582305908203125 0.132110595703125
23100000000.0 -0.533905029296875 0.25885009765625
23200000000.0 -0.4573974609375 0.369110107421875
23300000000.0 -0.35577392578125 0.45947265625
23400000000.0 -0.237884521484375 0.521575927734375
23500000000.0 -0.1090087890625 0.553955078125
23600000000.0 0.023468017578125 0.55535888671875
23700000000.0 0.152130126953125 0.5228271484375
23800000000.0 0.26812744140625 0.4589385986328125
23900000000.0 0.366424560546875 0.3702545166015625
24000000000.0 0.4359130859375 0.256683349609375
24100000000.0 0.474273681640625 0.132965087890625
24200000000.0 0.4770660400390625 0.00177001953125
24300000000.0 0.4468994140625 -0.126312255859375
24400000000.0 0.3807830810546875 -0.2413482666015625
24500000000.0 0.285858154296875 -0.3317108154296875
24600000000.0 0.1712188720703125 -0.392791748046875
24700000000.0 0.04168701171875 -0.4188385009765625
24800000000.0 -0.0867919921875 -0.407989501953125
24900000000.0 -0.2046661376953125 -0.3615264892578125
25000000000.0 -0.3043365478515625 -0.2848358154296875
25100000000.0 -0.38262939453125 -0.1853790283203125
25200000000.0 -0.4320220947265625 -0.0658721923828125
25300000000.0 -0.447845458984375 0.0652923583984375
25400000000.0 -0.4214019775390625 0.197601318359375
25500000000.0 -0.3637542724609375 0.319061279296875
25600000000.0 -0.2722320556640625 0.4196624755859375
25700000000.0 -0.159698486328125 0.4903106689453125
25800000000.0 -0.031494140625 0.530975341796875
25900000000.0 0.103790283203125 0.5377197265625
26000000000.0 0.235015869140625 0.51068115234375
26100000000.0 0.354705810546875 0.4537811279296875
26200000000.0 0.4595184326171875 0.368438720703125
26300000000.0 0.538848876953125 0.264739990234375
26400000000.0 0.594451904296875 0.142730712890625
26500000000.0 0.61968994140625 0.012786865234375
