!Created with skrf (http://scikit-rf.org).
# Hz S RI R 50.0 
!freq ReS11 ImS11
1000000000.0 -0.08837890625 0.8809814453125
1100000000.0 0.0926513671875 0.8760986328125
1200000000.0 0.261077880859375 0.837982177734375
1300000000.0 0.4150390625 0.76995849609375
1400000000.0 0.5501708984375 0.6759033203125
1500000000.0 0.663604736328125 0.560638427734375
1600000000.0 0.7528076171875 0.4283447265625
1700000000.0 0.81597900390625 0.28363037109375
1800000000.0 0.851654052734375 0.131317138671875
1900000000.0 0.85968017578125 -0.023468017578125
2000000000.0 0.840362548828125 -0.1759033203125
2100000000.0 0.79437255859375 -0.32177734375
2200000000.0 0.724517822265625 -0.4571533203125
2300000000.0 0.631591796875 -0.57904052734375
2400000000.0 0.51580810546875 -0.67919921875
2500000000.0 0.38873291015625 -0.75665283203125
2600000000.0 0.250152587890625 -0.811859130859375
2700000000.0 0.10430908203125 -0.84210205078125
2800000000.0 -0.044189453125 -0.846466064453125
2900000000.0 -0.190948486328125 -0.824951171875
3000000000.0 -0.33154296875 -0.7781982421875
3100000000.0 -0.461578369140625 -0.7078857421875
3200000000.0 -0.57708740234375 -0.616424560546875
3300000000.0 -0.674774169921875 -0.5067138671875
3400000000.0 -0.751922607421875 -0.382080078125
3500000000.0 -0.8062744140625 -0.2464599609375
3600000000.0 -0.83642578125 -0.1036376953125
3700000000.0 -0.8411865234375 0.04180908203125
3800000000.0 -0.821380615234375 0.185455322265625
3900000000.0 -0.777435302734375 0.323333740234375
4000000000.0 -0.710540771484375 0.45111083984375
4100000000.0 -0.623504638671875 0.565277099609375
4200000000.0 -0.51837158203125 0.662689208984375
4300000000.0 -0.39923095703125 0.740570068359375
4400000000.0 -0.26995849609375 0.798431396484375
4500000000.0 -0.130401611328125 0.835723876953125
4600000000.0 0.01422119140625 0.84503173828125
4700000000.0 0.15618896484375 0.8302001953125
4800000000.0 0.292816162109375 0.792266845703125
4900000000.0 0.421112060546875 0.731964111328125
5000000000.0 0.537200927734375 0.65155029296875
5100000000.0 0.638153076171875 0.5531005859375
5200000000.0 0.721099853515625 0.4395751953125
5300000000.0 0.784149169921875 0.314117431640625
5400000000.0 0.8253173828125 0.17999267578125
5500000000.0 0.843505859375 0.041259765625
5600000000.0 0.83868408203125 -0.0987548828125
5700000000.0 0.810638427734375 -0.235595703125
5800000000.0 0.760955810546875 -0.365570068359375
5900000000.0 0.690277099609375 -0.485931396484375
6000000000.0 0.600799560546875 -0.5924072265625
6100000000.0 0.49493408203125 -0.6824951171875
6200000000.0 0.375946044921875 -0.7537841796875
6300000000.0 0.2470703125 -0.80438232421875
6400000000.0 0.112060546875 -0.8328857421875
6500000000.0 -0.025177001953125 -0.839080810546875
6600000000.0 -0.16064453125 -0.822723388671875
6700000000.0 -0.292144775390625 -0.78692626953125
6800000000.0 -0.41937255859375 -0.72869873046875
6900000000.0 -0.53369140625 -0.648193359375
7000000000.0 -0.632171630859375 -0.550537109375
7100000000.0 -0.712738037109375 -0.43853759765625
7200000000.0 -0.773895263671875 -0.31561279296875
7300000000.0 -0.8138427734375 -0.18463134765625
7400000000.0 -0.831787109375 -0.049285888671875
7500000000.0 -0.827545166015625 0.087066650390625
7600000000.0 -0.801025390625 0.22039794921875
7700000000.0 -0.75384521484375 0.34747314453125
7800000000.0 -0.685577392578125 0.464691162109375
7900000000.0 -0.5997314453125 0.569091796875
8000000000.0 -0.498321533203125 0.65814208984375
8100000000.0 -0.38385009765625 0.729339599609375
8200000000.0 -0.259368896484375 0.780914306640625
8300000000.0 -0.128204345703125 0.81103515625
8400000000.0 0.006011962890625 0.819580078125
8500000000.0 0.139251708984375 0.805938720703125
8600000000.0 0.268310546875 0.7705078125
8700000000.0 0.38958740234375 0.714752197265625
8800000000.0 0.499298095703125 0.639892578125
8900000000.0 0.595062255859375 0.54998779296875
9000000000.0 0.677764892578125 0.44659423828125
9100000000.0 0.743896484375 0.3272705078125
9200000000.0 0.7872314453125 0.197296142578125
9300000000.0 0.80706787109375 0.062286376953125
9400000000.0 0.804168701171875 -0.07366943359375
9500000000.0 0.77862548828125 -0.207061767578125
9600000000.0 0.730865478515625 -0.334442138671875
9700000000.0 0.6624755859375 -0.45184326171875
9800000000.0 0.575347900390625 -0.55621337890625
9900000000.0 0.471710205078125 -0.64453125
10000000000.0 0.3546142578125 -0.713775634765625
10100000000.0 0.2271728515625 -0.7618408203125
10200000000.0 0.09344482421875 -0.7879638671875
10300000000.0 -0.04315185546875 -0.790740966796875
10400000000.0 -0.177947998046875 -0.770233154296875
10500000000.0 -0.307769775390625 -0.72674560546875
10600000000.0 -0.42724609375 -0.6611328125
10700000000.0 -0.53448486328125 -0.5762939453125
10800000000.0 -0.625030517578125 -0.474945068359375
10900000000.0 -0.69482421875 -0.359649658203125
11000000000.0 -0.745635986328125 -0.2340087890625
11100000000.0 -0.773773193359375 -0.1031494140625
11200000000.0 -0.7806396484375 0.0302734375
11300000000.0 -0.765289306640625 0.16473388671875
11400000000.0 -0.726226806640625 0.2958984375
11500000000.0 -0.66375732421875 0.41754150390625
11600000000.0 -0.580718994140625 0.5260009765625
11700000000.0 -0.4808349609375 0.61767578125
11800000000.0 -0.3670654296875 0.690826416015625
11900000000.0 -0.2427978515625 0.74298095703125
12000000000.0 -0.1119384765625 0.7728271484375
12100000000.0 0.021697998046875 0.779998779296875
12200000000.0 0.15411376953125 0.76422119140625
12300000000.0 0.281585693359375 0.72637939453125
12400000000.0 0.400299072265625 0.667694091796875
12500000000.0 0.507080078125 0.58984375
12600000000.0 0.59912109375 0.495361328125
12700000000.0 0.67352294921875 0.3870849609375
12800000000.0 0.728240966796875 0.267791748046875
12900000000.0 0.76214599609375 0.141510009765625
13000000000.0 0.77398681640625 0.011627197265625
13100000000.0 0.7640380859375 -0.118011474609375
13200000000.0 0.73260498046875 -0.243499755859375
13300000000.0 0.68072509765625 -0.361053466796875
13400000000.0 0.611480712890625 -0.466888427734375
13500000000.0 0.527923583984375 -0.561126708984375
13600000000.0 0.4290771484375 -0.6431884765625
13700000000.0 0.3155517578125 -0.707427978515625
13800000000.0 0.192535400390625 -0.7503662109375
13900000000.0 0.06475830078125 -0.77142333984375
14000000000.0 -0.064178466796875 -0.770843505859375
14100000000.0 -0.190673828125 -0.749237060546875
14200000000.0 -0.311370849609375 -0.70697021484375
14300000000.0 -0.423004150390625 -0.64556884765625
14400000000.0 -0.5228271484375 -0.566925048828125
14500000000.0 -0.608062744140625 -0.47320556640625
14600000000.0 -0.6768798828125 -0.367279052734375
14700000000.0 -0.7269287109375 -0.25164794921875
14800000000.0 -0.757415771484375 -0.130126953125
14900000000.0 -0.76763916015625 -0.005584716796875
15000000000.0 -0.757537841796875 0.11846923828125
15100000000.0 -0.727325439453125 0.238800048828125
15200000000.0 -0.678314208984375 0.352569580078125
15300000000.0 -0.61163330078125 0.455535888671875
15400000000.0 -0.5301513671875 0.5469970703125
15500000000.0 -0.43292236328125 0.62274169921875
15600000000.0 -0.32745361328125 0.681182861328125
15700000000.0 -0.216064453125 0.723663330078125
15800000000.0 -0.098907470703125 0.7486572265625
15900000000.0 0.023345947265625 0.755584716796875
16000000000.0 0.145782470703125 0.741241455078125
16100000000.0 0.263671875 0.706390380859375
16200000000.0 0.37408447265625 0.651947021484375
16300000000.0 0.473785400390625 0.580474853515625
16400000000.0 0.55999755859375 0.4937744140625
16500000000.0 0.63079833984375 0.39404296875
16600000000.0 0.684051513671875 0.28411865234375
16700000000.0 0.7186279296875 0.16693115234375
16800000000.0 0.733001708984375 0.045501708984375
16900000000.0 0.727081298828125 -0.07647705078125
17000000000.0 0.7010498046875 -0.19598388671875
17100000000.0 0.655181884765625 -0.308807373046875
17200000000.0 0.591339111328125 -0.4124755859375
17300000000.0 0.51123046875 -0.503814697265625
17400000000.0 0.416961669921875 -0.580108642578125
17500000000.0 0.311279296875 -0.639251708984375
17600000000.0 0.197662353515625 -0.679443359375
17700000000.0 0.079559326171875 -0.699737548828125
17800000000.0 -0.039520263671875 -0.700286865234375
17900000000.0 -0.1563720703125 -0.681884765625
18000000000.0 -0.269775390625 -0.645477294921875
18100000000.0 -0.376678466796875 -0.589752197265625
18200000000.0 -0.472900390625 -0.515838623046875
18300000000.0 -0.554779052734375 -0.425994873046875
18400000000.0 -0.619659423828125 -0.323333740234375
18500000000.0 -0.6656494140625 -0.211517333984375
18600000000.0 -0.691497802734375 -0.093841552734375
18700000000.0 -0.696990966796875 0.025909423828125
18800000000.0 -0.6820068359375 0.14459228515625
18900000000.0 -0.647247314453125 0.25860595703125
19000000000.0 -0.5938720703125 0.3646240234375
19100000000.0 -0.52337646484375 0.460113525390625
19200000000.0 -0.43817138671875 0.541717529296875
19300000000.0 -0.34039306640625 0.6077880859375
19400000000.0 -0.23345947265625 0.65618896484375
19500000000.0 -0.119964599609375 0.685821533203125
19600000000.0 -0.00341796875 0.696014404296875
19700000000.0 0.1126708984375 0.6864013671875
19800000000.0 0.22503662109375 0.657318115234375
19900000000.0 0.33026123046875 0.610137939453125
20000000000.0 0.4251708984375 0.547119140625
20100000000.0 0.5081787109375 0.4705810546875
20200000000.0 0.578155517578125 0.382476806640625
20300000000.0 0.6361083984375 0.28326416015625
20400000000.0 0.67559814453125 0.174591064453125
20500000000.0 0.69744873046875 0.059356689453125
20600000000.0 0.698272705078125 -0.057159423828125
20700000000.0 0.6776123046875 -0.173065185546875
20800000000.0 0.639251708984375 -0.284454345703125
20900000000.0 0.58343505859375 -0.3856201171875
21000000000.0 0.511627197265625 -0.47711181640625
21100000000.0 0.4254150390625 -0.553558349609375
21200000000.0 0.32696533203125 -0.61688232421875
21300000000.0 0.22021484375 -0.661712646484375
21400000000.0 0.10833740234375 -0.688568115234375
21500000000.0 -0.0064697265625 -0.696624755859375
21600000000.0 -0.12078857421875 -0.685546875
21700000000.0 -0.23114013671875 -0.65576171875
21800000000.0 -0.334808349609375 -0.608428955078125
21900000000.0 -0.428802490234375 -0.545257568359375
22000000000.0 -0.510528564453125 -0.467498779296875
22100000000.0 -0.57806396484375 -0.37847900390625
22200000000.0 -0.629302978515625 -0.281005859375
22300000000.0 -0.664642333984375 -0.17816162109375
22400000000.0 -0.685211181640625 -0.072235107421875
22500000000.0 -0.689117431640625 0.037078857421875
22600000000.0 -0.675201416015625 0.14654541015625
22700000000.0 -0.6429443359375 0.252716064453125
22800000000.0 -0.593231201171875 0.3516845703125
22900000000.0 -0.52886962890625 0.44091796875
23000000000.0 -0.450439453125 0.517822265625
23100000000.0 -0.361236572265625 0.58062744140625
23200000000.0 -0.263336181640625 0.628143310546875
23300000000.0 -0.15936279296875 0.6588134765625
23400000000.0 -0.052032470703125 0.67254638671875
23500000000.0 0.0557861328125 0.668365478515625
23600000000.0 0.160888671875 0.64630126953125
23700000000.0 0.260833740234375 0.60736083984375
23800000000.0 0.352569580078125 0.5526123046875
23900000000.0 0.433837890625 0.4838409423828125
24000000000.0 0.502288818359375 0.40203857421875
24100000000.0 0.555816650390625 0.310211181640625
24200000000.0 0.59295654296875 0.2105712890625
24300000000.0 0.611724853515625 0.106292724609375
24400000000.0 0.612091064453125 0.000823974609375
24500000000.0 0.59429931640625 -0.10211181640625
24600000000.0 0.560089111328125 -0.199127197265625
24700000000.0 0.511627197265625 -0.289154052734375
24800000000.0 0.448699951171875 -0.3714447021484375
24900000000.0 0.3705902099609375 -0.44287109375
25000000000.0 0.2787322998046875 -0.4990997314453125
25100000000.0 0.177490234375 -0.536376953125
25200000000.0 0.070587158203125 -0.55364990234375
25300000000.0 -0.03753662109375 -0.549591064453125
25400000000.0 -0.142822265625 -0.525146484375
25500000000.0 -0.241302490234375 -0.480560302734375
25600000000.0 -0.3288726806640625 -0.4181365966796875
25700000000.0 -0.402984619140625 -0.3398284912109375
25800000000.0 -0.459716796875 -0.2488250732421875
25900000000.0 -0.4976043701171875 -0.148956298828125
26000000000.0 -0.514404296875 -0.04364013671875
26100000000.0 -0.510498046875 0.06231689453125
26200000000.0 -0.4857940673828125 0.1654510498046875
26300000000.0 -0.4414825439453125 0.2606964111328125
26400000000.0 -0.379058837890625 0.3449859619140625
26500000000.0 -0.3022613525390625 0.4144439697265625
