!Created with skrf (http://scikit-rf.org).
# Hz S RI R 50.0 
!freq ReS11 ImS11
1000000000.0 -0.170257568359375 0.87548828125
1100000000.0 0.000396728515625 0.88916015625
1200000000.0 0.165130615234375 0.87030029296875
1300000000.0 0.319915771484375 0.82257080078125
1400000000.0 0.460784912109375 0.750244140625
1500000000.0 0.58447265625 0.655364990234375
1600000000.0 0.68658447265625 0.540496826171875
1700000000.0 0.7674560546875 0.414581298828125
1800000000.0 0.825927734375 0.275604248046875
1900000000.0 0.859771728515625 0.130218505859375
2000000000.0 0.868194580078125 -0.018157958984375
2100000000.0 0.850860595703125 -0.164398193359375
2200000000.0 0.81097412109375 -0.30511474609375
2300000000.0 0.743316650390625 -0.438720703125
2400000000.0 0.659759521484375 -0.55487060546875
2500000000.0 0.5570068359375 -0.65582275390625
2600000000.0 0.4390869140625 -0.73785400390625
2700000000.0 0.31048583984375 -0.79931640625
2800000000.0 0.173248291015625 -0.8389892578125
2900000000.0 0.0318603515625 -0.8548583984375
3000000000.0 -0.10986328125 -0.8466796875
3100000000.0 -0.24713134765625 -0.81622314453125
3200000000.0 -0.37884521484375 -0.7640380859375
3300000000.0 -0.49932861328125 -0.6904296875
3400000000.0 -0.60546875 -0.598114013671875
3500000000.0 -0.69464111328125 -0.489471435546875
3600000000.0 -0.7646484375 -0.369140625
3700000000.0 -0.814971923828125 -0.2379150390625
3800000000.0 -0.842071533203125 -0.10101318359375
3900000000.0 -0.8460693359375 0.037841796875
4000000000.0 -0.827880859375 0.175018310546875
4100000000.0 -0.78887939453125 0.3079833984375
4200000000.0 -0.728668212890625 0.431732177734375
4300000000.0 -0.65045166015625 0.545440673828125
4400000000.0 -0.551361083984375 0.64642333984375
4500000000.0 -0.4376220703125 0.727264404296875
4600000000.0 -0.31292724609375 0.788970947265625
4700000000.0 -0.1800537109375 0.828582763671875
4800000000.0 -0.0440673828125 0.84613037109375
4900000000.0 0.092864990234375 0.842193603515625
5000000000.0 0.228057861328125 0.817108154296875
5100000000.0 0.357452392578125 0.76953125
5200000000.0 0.476226806640625 0.70208740234375
5300000000.0 0.583099365234375 0.6165771484375
5400000000.0 0.674713134765625 0.5164794921875
5500000000.0 0.750030517578125 0.4017333984375
5600000000.0 0.80401611328125 0.276153564453125
5700000000.0 0.8372802734375 0.145355224609375
5800000000.0 0.850433349609375 0.011077880859375
5900000000.0 0.842193603515625 -0.124969482421875
6000000000.0 0.811370849609375 -0.25616455078125
6100000000.0 0.759857177734375 -0.3809814453125
6200000000.0 0.69134521484375 -0.4952392578125
6300000000.0 0.6064453125 -0.597747802734375
6400000000.0 0.50616455078125 -0.685638427734375
6500000000.0 0.394683837890625 -0.756256103515625
6600000000.0 0.272064208984375 -0.81005859375
6700000000.0 0.14068603515625 -0.842987060546875
6800000000.0 0.006988525390625 -0.854156494140625
6900000000.0 -0.126190185546875 -0.84295654296875
7000000000.0 -0.254791259765625 -0.812164306640625
7100000000.0 -0.376708984375 -0.762603759765625
7200000000.0 -0.490631103515625 -0.69525146484375
7300000000.0 -0.59222412109375 -0.609771728515625
7400000000.0 -0.677734375 -0.5111083984375
7500000000.0 -0.747161865234375 -0.40118408203125
7600000000.0 -0.799285888671875 -0.282684326171875
7700000000.0 -0.83209228515625 -0.15631103515625
7800000000.0 -0.8448486328125 -0.0277099609375
7900000000.0 -0.837310791015625 0.1007080078125
8000000000.0 -0.810943603515625 0.2266845703125
8100000000.0 -0.766143798828125 0.347686767578125
8200000000.0 -0.702545166015625 0.46002197265625
8300000000.0 -0.623291015625 0.560333251953125
8400000000.0 -0.52935791015625 0.647613525390625
8500000000.0 -0.424713134765625 0.71929931640625
8600000000.0 -0.311492919921875 0.77423095703125
8700000000.0 -0.192169189453125 0.8126220703125
8800000000.0 -0.064910888671875 0.8333740234375
8900000000.0 0.065673828125 0.8330078125
9000000000.0 0.193603515625 0.811981201171875
9100000000.0 0.316131591796875 0.770294189453125
9200000000.0 0.43072509765625 0.710601806640625
9300000000.0 0.5350341796875 0.633941650390625
9400000000.0 0.626983642578125 0.54180908203125
9500000000.0 0.703155517578125 0.4371337890625
9600000000.0 0.76104736328125 0.32159423828125
9700000000.0 0.80035400390625 0.198150634765625
9800000000.0 0.820404052734375 0.071014404296875
9900000000.0 0.820404052734375 -0.059967041015625
10000000000.0 0.79937744140625 -0.18646240234375
10100000000.0 0.7587890625 -0.30987548828125
10200000000.0 0.69915771484375 -0.42572021484375
10300000000.0 0.622711181640625 -0.52960205078125
10400000000.0 0.529632568359375 -0.620880126953125
10500000000.0 0.423675537109375 -0.695159912109375
10600000000.0 0.30792236328125 -0.75146484375
10700000000.0 0.185577392578125 -0.790008544921875
10800000000.0 0.058197021484375 -0.809722900390625
10900000000.0 -0.0721435546875 -0.808868408203125
11000000000.0 -0.200469970703125 -0.786407470703125
11100000000.0 -0.32501220703125 -0.743927001953125
11200000000.0 -0.440216064453125 -0.68060302734375
11300000000.0 -0.543182373046875 -0.600677490234375
11400000000.0 -0.632354736328125 -0.50360107421875
11500000000.0 -0.70355224609375 -0.395965576171875
11600000000.0 -0.757476806640625 -0.276275634765625
11700000000.0 -0.791290283203125 -0.151092529296875
11800000000.0 -0.8037109375 -0.021484375
11900000000.0 -0.795379638671875 0.106689453125
12000000000.0 -0.767547607421875 0.2332763671875
12100000000.0 -0.718505859375 0.354156494140625
12200000000.0 -0.65069580078125 0.465301513671875
12300000000.0 -0.565948486328125 0.5626220703125
12400000000.0 -0.466796875 0.6453857421875
12500000000.0 -0.35565185546875 0.712066650390625
12600000000.0 -0.2359619140625 0.7581787109375
12700000000.0 -0.109832763671875 0.784515380859375
12800000000.0 0.017578125 0.789825439453125
12900000000.0 0.144378662109375 0.774658203125
13000000000.0 0.26556396484375 0.74127197265625
13100000000.0 0.382049560546875 0.689605712890625
13200000000.0 0.490142822265625 0.619781494140625
13300000000.0 0.585662841796875 0.531463623046875
13400000000.0 0.665130615234375 0.427154541015625
13500000000.0 0.725433349609375 0.31298828125
13600000000.0 0.765533447265625 0.189422607421875
13700000000.0 0.785552978515625 0.063079833984375
13800000000.0 0.78448486328125 -0.06610107421875
13900000000.0 0.762481689453125 -0.193023681640625
14000000000.0 0.720123291015625 -0.313934326171875
14100000000.0 0.65875244140625 -0.4285888671875
14200000000.0 0.579833984375 -0.529205322265625
14300000000.0 0.4857177734375 -0.615997314453125
14400000000.0 0.3795166015625 -0.686065673828125
14500000000.0 0.2635498046875 -0.73760986328125
14600000000.0 0.139892578125 -0.770416259765625
14700000000.0 0.01373291015625 -0.782745361328125
14800000000.0 -0.112762451171875 -0.7733154296875
14900000000.0 -0.23443603515625 -0.7447509765625
15000000000.0 -0.350250244140625 -0.69744873046875
15100000000.0 -0.455718994140625 -0.631866455078125
15200000000.0 -0.54925537109375 -0.552734375
15300000000.0 -0.630706787109375 -0.460662841796875
15400000000.0 -0.69818115234375 -0.35711669921875
15500000000.0 -0.748199462890625 -0.240264892578125
15600000000.0 -0.776641845703125 -0.11962890625
15700000000.0 -0.785858154296875 0.005340576171875
15800000000.0 -0.774810791015625 0.1297607421875
15900000000.0 -0.744781494140625 0.249053955078125
16000000000.0 -0.696044921875 0.363250732421875
16100000000.0 -0.63006591796875 0.467926025390625
16200000000.0 -0.548675537109375 0.56011962890625
16300000000.0 -0.454864501953125 0.638092041015625
16400000000.0 -0.349395751953125 0.6998291015625
16500000000.0 -0.237274169921875 0.7459716796875
16600000000.0 -0.11566162109375 0.772216796875
16700000000.0 0.004730224609375 0.779388427734375
16800000000.0 0.1256103515625 0.767303466796875
16900000000.0 0.2425537109375 0.73907470703125
17000000000.0 0.35400390625 0.690673828125
17100000000.0 0.455230712890625 0.62493896484375
17200000000.0 0.54473876953125 0.54595947265625
17300000000.0 0.6217041015625 0.4527587890625
17400000000.0 0.6826171875 0.3507080078125
17500000000.0 0.727203369140625 0.241790771484375
17600000000.0 0.755706787109375 0.1270751953125
17700000000.0 0.7669677734375 0.006317138671875
17800000000.0 0.757904052734375 -0.1163330078125
17900000000.0 0.727447509765625 -0.2347412109375
18000000000.0 0.679443359375 -0.3463134765625
18100000000.0 0.614654541015625 -0.448516845703125
18200000000.0 0.533905029296875 -0.538970947265625
18300000000.0 0.43994140625 -0.614959716796875
18400000000.0 0.33502197265625 -0.675537109375
18500000000.0 0.221099853515625 -0.71905517578125
18600000000.0 0.103759765625 -0.7431640625
18700000000.0 -0.01788330078125 -0.747467041015625
18800000000.0 -0.13714599609375 -0.73291015625
18900000000.0 -0.25341796875 -0.70050048828125
19000000000.0 -0.36114501953125 -0.647918701171875
19100000000.0 -0.45965576171875 -0.580596923828125
19200000000.0 -0.54473876953125 -0.496307373046875
19300000000.0 -0.61676025390625 -0.401397705078125
19400000000.0 -0.670989990234375 -0.2947998046875
19500000000.0 -0.70745849609375 -0.185211181640625
19600000000.0 -0.7275390625 -0.067901611328125
19700000000.0 -0.72998046875 0.04888916015625
19800000000.0 -0.713287353515625 0.16766357421875
19900000000.0 -0.676849365234375 0.281341552734375
20000000000.0 -0.619720458984375 0.38873291015625
20100000000.0 -0.5484619140625 0.485565185546875
20200000000.0 -0.462554931640625 0.568511962890625
20300000000.0 -0.363250732421875 0.6353759765625
20400000000.0 -0.253570556640625 0.68597412109375
20500000000.0 -0.13702392578125 0.718017578125
20600000000.0 -0.01971435546875 0.7298583984375
20700000000.0 0.1004638671875 0.72412109375
20800000000.0 0.21783447265625 0.697601318359375
20900000000.0 0.327789306640625 0.65203857421875
21000000000.0 0.43060302734375 0.590087890625
21100000000.0 0.521026611328125 0.51080322265625
21200000000.0 0.59649658203125 0.41998291015625
21300000000.0 0.658782958984375 0.314788818359375
21400000000.0 0.699920654296875 0.20404052734375
21500000000.0 0.723907470703125 0.0894775390625
21600000000.0 0.727874755859375 -0.030853271484375
21700000000.0 0.714813232421875 -0.145843505859375
21800000000.0 0.683990478515625 -0.25872802734375
21900000000.0 0.635772705078125 -0.3668212890625
22000000000.0 0.569366455078125 -0.465240478515625
22100000000.0 0.489013671875 -0.5552978515625
22200000000.0 0.39532470703125 -0.628082275390625
22300000000.0 0.2864990234375 -0.685089111328125
22400000000.0 0.17315673828125 -0.72503662109375
22500000000.0 0.0572509765625 -0.741455078125
22600000000.0 -0.06390380859375 -0.745147705078125
22700000000.0 -0.182037353515625 -0.725677490234375
22800000000.0 -0.294403076171875 -0.68927001953125
22900000000.0 -0.4002685546875 -0.634490966796875
23000000000.0 -0.494873046875 -0.5653076171875
23100000000.0 -0.57891845703125 -0.480865478515625
23200000000.0 -0.646942138671875 -0.3858642578125
23300000000.0 -0.698822021484375 -0.2806396484375
23400000000.0 -0.73504638671875 -0.169769287109375
23500000000.0 -0.75311279296875 -0.05426025390625
23600000000.0 -0.752960205078125 0.06170654296875
23700000000.0 -0.735870361328125 0.174163818359375
23800000000.0 -0.70281982421875 0.28070068359375
23900000000.0 -0.6519775390625 0.385406494140625
24000000000.0 -0.59051513671875 0.477813720703125
24100000000.0 -0.514495849609375 0.5645751953125
24200000000.0 -0.4276123046875 0.637481689453125
24300000000.0 -0.32635498046875 0.69610595703125
24400000000.0 -0.2196044921875 0.737701416015625
24500000000.0 -0.10809326171875 0.76361083984375
24600000000.0 0.008331298828125 0.77154541015625
24700000000.0 0.120086669921875 0.761444091796875
24800000000.0 0.232025146484375 0.73394775390625
24900000000.0 0.339111328125 0.69140625
25000000000.0 0.438629150390625 0.633880615234375
25100000000.0 0.525848388671875 0.56207275390625
25200000000.0 0.60235595703125 0.477813720703125
25300000000.0 0.664581298828125 0.384490966796875
25400000000.0 0.715606689453125 0.281768798828125
25500000000.0 0.74652099609375 0.1756591796875
25600000000.0 0.76300048828125 0.06536865234375
25700000000.0 0.76177978515625 -0.04779052734375
25800000000.0 0.745635986328125 -0.15753173828125
25900000000.0 0.71435546875 -0.2623291015625
26000000000.0 0.668731689453125 -0.362579345703125
26100000000.0 0.6090087890625 -0.4547119140625
26200000000.0 0.536834716796875 -0.539947509765625
26300000000.0 0.450408935546875 -0.6121826171875
26400000000.0 0.3544921875 -0.671661376953125
26500000000.0 0.2510986328125 -0.715087890625
