!Created with skrf (http://scikit-rf.org).
# Hz S RI R 50.0 
!freq ReS11 ImS11
1000000000.0 0.490264892578125 -0.742401123046875
1100000000.0 0.153717041015625 -0.883331298828125
1200000000.0 -0.21112060546875 -0.872894287109375
1300000000.0 -0.53924560546875 -0.71234130859375
1400000000.0 -0.770660400390625 -0.430877685546875
1500000000.0 -0.863433837890625 -0.078521728515625
1600000000.0 -0.800445556640625 0.278900146484375
1700000000.0 -0.592132568359375 0.57452392578125
1800000000.0 -0.2777099609375 0.75103759765625
1900000000.0 0.080322265625 0.771636962890625
2000000000.0 0.407806396484375 0.632171630859375
2100000000.0 0.63580322265625 0.364715576171875
2200000000.0 0.7191162109375 0.025146484375
2300000000.0 0.642181396484375 -0.313018798828125
2400000000.0 0.422515869140625 -0.577484130859375
2500000000.0 0.109466552734375 -0.713623046875
2600000000.0 -0.229278564453125 -0.695281982421875
2700000000.0 -0.522857666015625 -0.53021240234375
2800000000.0 -0.71417236328125 -0.254058837890625
2900000000.0 -0.766845703125 0.076904296875
3000000000.0 -0.670806884765625 0.39874267578125
3100000000.0 -0.44476318359375 0.647003173828125
3200000000.0 -0.134002685546875 0.77325439453125
3300000000.0 0.20068359375 0.75335693359375
3400000000.0 0.493560791015625 0.5902099609375
3500000000.0 0.6854248046875 0.315948486328125
3600000000.0 0.736053466796875 -0.0150146484375
3700000000.0 0.6329345703125 -0.3314208984375
3800000000.0 0.399810791015625 -0.56536865234375
3900000000.0 0.090545654296875 -0.6669921875
4000000000.0 -0.229248046875 -0.616241455078125
4100000000.0 -0.4859466552734375 -0.4287872314453125
4200000000.0 -0.627410888671875 -0.1502685546875
4300000000.0 -0.63018798828125 0.15594482421875
4400000000.0 -0.501007080078125 0.428009033203125
4500000000.0 -0.271209716796875 0.615447998046875
4600000000.0 0.012603759765625 0.68829345703125
4700000000.0 0.29815673828125 0.637481689453125
4800000000.0 0.535400390625 0.47735595703125
4900000000.0 0.68865966796875 0.237762451171875
5000000000.0 0.735870361328125 -0.042694091796875
5100000000.0 0.669189453125 -0.320098876953125
5200000000.0 0.497406005859375 -0.549285888671875
5300000000.0 0.24749755859375 -0.691925048828125
5400000000.0 -0.04107666015625 -0.721923828125
5500000000.0 -0.31817626953125 -0.630767822265625
5600000000.0 -0.534027099609375 -0.4305419921875
5700000000.0 -0.643280029296875 -0.154144287109375
5800000000.0 -0.61810302734375 0.142669677734375
5900000000.0 -0.4623870849609375 0.394439697265625
6000000000.0 -0.21099853515625 0.54656982421875
6100000000.0 0.07867431640625 0.56475830078125
6200000000.0 0.3387603759765625 0.4499664306640625
6300000000.0 0.514617919921875 0.231903076171875
6400000000.0 0.5709228515625 -0.0352783203125
6500000000.0 0.505035400390625 -0.29144287109375
6600000000.0 0.3396148681640625 -0.4907989501953125
6700000000.0 0.10858154296875 -0.60040283203125
6800000000.0 -0.14337158203125 -0.60467529296875
6900000000.0 -0.37237548828125 -0.505889892578125
7000000000.0 -0.5400390625 -0.32623291015625
7100000000.0 -0.622039794921875 -0.097381591796875
7200000000.0 -0.607147216796875 0.144439697265625
7300000000.0 -0.49609375 0.3560333251953125
7400000000.0 -0.31988525390625 0.5
7500000000.0 -0.1109619140625 0.57696533203125
7600000000.0 0.130584716796875 0.5745849609375
7700000000.0 0.36444091796875 0.4615478515625
7800000000.0 0.529022216796875 0.245269775390625
7900000000.0 0.57550048828125 -0.028656005859375
8000000000.0 0.4884796142578125 -0.29376220703125
8100000000.0 0.288848876953125 -0.486114501953125
8200000000.0 0.027923583984375 -0.563232421875
8300000000.0 -0.234375 -0.515106201171875
8400000000.0 -0.4428253173828125 -0.3584747314453125
8500000000.0 -0.55926513671875 -0.132568359375
8600000000.0 -0.568267822265625 0.115325927734375
8700000000.0 -0.4752044677734375 0.3388214111328125
8800000000.0 -0.301849365234375 0.502288818359375
8900000000.0 -0.078948974609375 0.581512451171875
9000000000.0 0.15655517578125 0.564910888671875
9100000000.0 0.365631103515625 0.453887939453125
9200000000.0 0.512908935546875 0.26690673828125
9300000000.0 0.57122802734375 0.032989501953125
9400000000.0 0.52703857421875 -0.206146240234375
9500000000.0 0.384002685546875 -0.406158447265625
9600000000.0 0.16522216796875 -0.526092529296875
9700000000.0 -0.085540771484375 -0.5369873046875
9800000000.0 -0.3151092529296875 -0.4344024658203125
9900000000.0 -0.473388671875 -0.24078369140625
10000000000.0 -0.5263671875 0.00360107421875
10100000000.0 -0.4624176025390625 0.240264892578125
10200000000.0 -0.3011474609375 0.4182891845703125
10300000000.0 -0.0814208984375 0.502655029296875
10400000000.0 0.1443023681640625 0.4797210693359375
10500000000.0 0.3314208984375 0.362762451171875
10600000000.0 0.4438323974609375 0.1817779541015625
10700000000.0 0.4649658203125 -0.0225067138671875
10800000000.0 0.3991241455078125 -0.206817626953125
10900000000.0 0.269195556640625 -0.3400115966796875
11000000000.0 0.1049957275390625 -0.40655517578125
11100000000.0 -0.06744384765625 -0.403076171875
11200000000.0 -0.2191925048828125 -0.3334197998046875
11300000000.0 -0.329833984375 -0.21533203125
11400000000.0 -0.387969970703125 -0.0650177001953125
11500000000.0 -0.38824462890625 0.095703125
11600000000.0 -0.3271331787109375 0.2530975341796875
11700000000.0 -0.2004241943359375 0.380767822265625
11800000000.0 -0.0217437744140625 0.4474945068359375
11900000000.0 0.17657470703125 0.4293060302734375
12000000000.0 0.3515625 0.32476806640625
12100000000.0 0.4675445556640625 0.1508331298828125
12200000000.0 0.4963531494140625 -0.058624267578125
12300000000.0 0.4323883056640625 -0.2626190185546875
12400000000.0 0.287078857421875 -0.419403076171875
12500000000.0 0.088775634765625 -0.498260498046875
12600000000.0 -0.123992919921875 -0.48687744140625
12700000000.0 -0.3100433349609375 -0.385986328125
12800000000.0 -0.43463134765625 -0.216461181640625
12900000000.0 -0.4736328125 -0.0116119384765625
13000000000.0 -0.4201507568359375 0.1898040771484375
13100000000.0 -0.285369873046875 0.3451995849609375
13200000000.0 -0.0978851318359375 0.4260406494140625
13300000000.0 0.1050872802734375 0.416290283203125
13400000000.0 0.2822418212890625 0.31805419921875
13500000000.0 0.3970947265625 0.1535491943359375
13600000000.0 0.427032470703125 -0.0447845458984375
13700000000.0 0.36895751953125 -0.2345123291015625
13800000000.0 0.2344970703125 -0.3812408447265625
13900000000.0 0.049896240234375 -0.45721435546875
14000000000.0 -0.1496429443359375 -0.4480438232421875
14100000000.0 -0.328369140625 -0.35772705078125
14200000000.0 -0.4542388916015625 -0.19921875
14300000000.0 -0.504852294921875 -0.002716064453125
14400000000.0 -0.4701080322265625 0.200836181640625
14500000000.0 -0.3533477783203125 0.374664306640625
14600000000.0 -0.17352294921875 0.486297607421875
14700000000.0 0.040374755859375 0.512725830078125
14800000000.0 0.2479400634765625 0.446533203125
14900000000.0 0.4103546142578125 0.29486083984375
15000000000.0 0.4903564453125 0.0858612060546875
15100000000.0 0.47088623046875 -0.136932373046875
15200000000.0 0.3539581298828125 -0.32806396484375
15300000000.0 0.1672821044921875 -0.4453887939453125
15400000000.0 -0.0499267578125 -0.4693145751953125
15500000000.0 -0.2511749267578125 -0.394378662109375
15600000000.0 -0.3953704833984375 -0.244140625
15700000000.0 -0.4588775634765625 -0.0493621826171875
15800000000.0 -0.4332427978515625 0.14947509765625
15900000000.0 -0.3278656005859375 0.3142852783203125
16000000000.0 -0.16546630859375 0.4183197021484375
16100000000.0 0.0244598388671875 0.4431304931640625
16200000000.0 0.2036590576171875 0.3867950439453125
16300000000.0 0.3414154052734375 0.26123046875
16400000000.0 0.4147491455078125 0.0888824462890625
16500000000.0 0.4083709716796875 -0.0969696044921875
16600000000.0 0.3253936767578125 -0.2649078369140625
16700000000.0 0.1754913330078125 -0.3828125
16800000000.0 -0.01129150390625 -0.4264068603515625
16900000000.0 -0.201873779296875 -0.3861846923828125
17000000000.0 -0.3593292236328125 -0.26812744140625
17100000000.0 -0.454376220703125 -0.09271240234375
17200000000.0 -0.46533203125 0.111297607421875
17300000000.0 -0.3891448974609375 0.3009490966796875
17400000000.0 -0.23785400390625 0.4432373046875
17500000000.0 -0.040863037109375 0.510101318359375
17600000000.0 0.1657867431640625 0.4883270263671875
17700000000.0 0.34521484375 0.38189697265625
17800000000.0 0.463836669921875 0.2104644775390625
17900000000.0 0.49737548828125 0.007843017578125
18000000000.0 0.4442138671875 -0.1872100830078125
18100000000.0 0.3166351318359375 -0.3383026123046875
18200000000.0 0.1402435302734375 -0.4180908203125
18300000000.0 -0.047454833984375 -0.4147796630859375
18400000000.0 -0.2100982666015625 -0.3343658447265625
18500000000.0 -0.318939208984375 -0.196533203125
18600000000.0 -0.3537139892578125 -0.0316314697265625
18700000000.0 -0.3155517578125 0.12652587890625
18800000000.0 -0.21520233154296875 0.24649810791015625
18900000000.0 -0.0791168212890625 0.3066253662109375
19000000000.0 0.0664825439453125 0.3038330078125
19100000000.0 0.190093994140625 0.23789215087890625
19200000000.0 0.27264404296875 0.130889892578125
19300000000.0 0.29766845703125 0.0010986328125
19400000000.0 0.2682952880859375 -0.1222381591796875
19500000000.0 0.1907806396484375 -0.22211456298828125
19600000000.0 0.0807342529296875 -0.2768096923828125
19700000000.0 -0.0410919189453125 -0.2837677001953125
19800000000.0 -0.1537017822265625 -0.24015045166015625
19900000000.0 -0.23949432373046875 -0.15473175048828125
20000000000.0 -0.2822723388671875 -0.0401153564453125
20100000000.0 -0.27734375 0.084075927734375
20200000000.0 -0.2211761474609375 0.19663238525390625
20300000000.0 -0.1204681396484375 0.276947021484375
20400000000.0 0.007598876953125 0.3105621337890625
20500000000.0 0.141204833984375 0.2866668701171875
20600000000.0 0.2527923583984375 0.2066802978515625
20700000000.0 0.323760986328125 0.0865325927734375
20800000000.0 0.3369140625 -0.0554046630859375
20900000000.0 0.28668212890625 -0.1917724609375
21000000000.0 0.18389892578125 -0.2933807373046875
21100000000.0 0.04608154296875 -0.3424835205078125
21200000000.0 -0.10003662109375 -0.3269195556640625
21300000000.0 -0.2230224609375 -0.2519378662109375
21400000000.0 -0.3048858642578125 -0.1297760009765625
21500000000.0 -0.3227081298828125 0.0185546875
21600000000.0 -0.27630615234375 0.1558685302734375
21700000000.0 -0.1716461181640625 0.262054443359375
21800000000.0 -0.03192138671875 0.31060791015625
21900000000.0 0.1168212890625 0.292694091796875
22000000000.0 0.24239349365234375 0.21331024169921875
22100000000.0 0.3233642578125 0.0832672119140625
22200000000.0 0.34112548828125 -0.0667724609375
22300000000.0 0.2914886474609375 -0.21197509765625
22400000000.0 0.1873931884765625 -0.3245849609375
22500000000.0 0.04718017578125 -0.381591796875
22600000000.0 -0.1063079833984375 -0.378631591796875
22700000000.0 -0.243011474609375 -0.3114013671875
22800000000.0 -0.33880615234375 -0.1971435546875
22900000000.0 -0.3782806396484375 -0.0527496337890625
23000000000.0 -0.353240966796875 0.09130859375
23100000000.0 -0.2709503173828125 0.2097625732421875
23200000000.0 -0.1459808349609375 0.2773284912109375
23300000000.0 -0.0045166015625 0.28070068359375
23400000000.0 0.11809539794921875 0.2164154052734375
23500000000.0 0.19329833984375 0.10175323486328125
23600000000.0 0.20169830322265625 -0.03453826904296875
23700000000.0 0.13983154296875 -0.15845489501953125
23800000000.0 0.02364349365234375 -0.23773193359375
23900000000.0 -0.114349365234375 -0.24904632568359375
24000000000.0 -0.2472381591796875 -0.19803619384765625
24100000000.0 -0.3448333740234375 -0.0887298583984375
24200000000.0 -0.389556884765625 0.050994873046875
24300000000.0 -0.3713226318359375 0.1962738037109375
24400000000.0 -0.3005828857421875 0.3233642578125
24500000000.0 -0.1877593994140625 0.41619873046875
24600000000.0 -0.0479583740234375 0.4603729248046875
24700000000.0 0.0943603515625 0.4517822265625
24800000000.0 0.2261199951171875 0.3918914794921875
24900000000.0 0.32745361328125 0.28997802734375
25000000000.0 0.3834686279296875 0.1600494384765625
25100000000.0 0.3834228515625 0.019744873046875
25200000000.0 0.328826904296875 -0.1066436767578125
25300000000.0 0.22649383544921875 -0.19721221923828125
25400000000.0 0.1013336181640625 -0.233184814453125
25500000000.0 -0.03009796142578125 -0.20563507080078125
25600000000.0 -0.12850189208984375 -0.12090301513671875
25700000000.0 -0.1750030517578125 -0.000762939453125
25800000000.0 -0.1553802490234375 0.127960205078125
25900000000.0 -0.0753326416015625 0.23223876953125
26000000000.0 0.044769287109375 0.2877044677734375
26100000000.0 0.177825927734375 0.2855072021484375
26200000000.0 0.300079345703125 0.224212646484375
26300000000.0 0.38525390625 0.1210784912109375
26400000000.0 0.425201416015625 -0.010406494140625
26500000000.0 0.4112548828125 -0.1456451416015625
