!Created with skrf (http://scikit-rf.org).
# Hz S RI R 50.0 
!freq ReS11 ImS11
30000.0 0.308380126953125 -0.3856201171875
31000.0 0.2977752685546875 -0.379119873046875
33000.0 0.2787322998046875 -0.366180419921875
36000.0 0.254425048828125 -0.3476409912109375
41000.0 0.2225494384765625 -0.3190765380859375
48500.0 0.1890411376953125 -0.2823486328125
58000.0 0.161651611328125 -0.24493408203125
70000.0 0.1402587890625 -0.208770751953125
84000.0 0.1252288818359375 -0.177459716796875
100000.0 0.1145477294921875 -0.1510772705078125
125000.0 0.10516738891601562 -0.12245941162109375
150000.0 0.099945068359375 -0.10284042358398438
175000.0 0.09670257568359375 -0.08858489990234375
200000.0 0.0946044921875 -0.077789306640625
225000.0 0.093109130859375 -0.06929779052734375
250000.0 0.092071533203125 -0.062496185302734375
275000.0 0.09124755859375 -0.056919097900390625
300000.0 0.09063720703125 -0.05222320556640625
325000.0 0.09018325805664062 -0.04827880859375
350000.0 0.08983230590820312 -0.04486083984375
375000.0 0.08952713012695312 -0.04190826416015625
400000.0 0.08926773071289062 -0.039302825927734375
425000.0 0.0890655517578125 -0.03704071044921875
450000.0 0.088897705078125 -0.034992218017578125
475000.0 0.08872604370117188 -0.033184051513671875
500000.0 0.0886077880859375 -0.031543731689453125
525000.0 0.0885009765625 -0.030071258544921875
550000.0 0.08840560913085938 -0.02870941162109375
575000.0 0.08831787109375 -0.0274810791015625
600000.0 0.08825302124023438 -0.026348114013671875
625000.0 0.08817291259765625 -0.02530670166015625
650000.0 0.08813095092773438 -0.024356842041015625
675000.0 0.08805465698242188 -0.023468017578125
700000.0 0.08801651000976562 -0.022670745849609375
725000.0 0.08797073364257812 -0.021869659423828125
750000.0 0.08794784545898438 -0.021167755126953125
775000.0 0.08790969848632812 -0.0204925537109375
800000.0 0.08787918090820312 -0.019878387451171875
825000.0 0.0878448486328125 -0.0193023681640625
850000.0 0.08780288696289062 -0.018733978271484375
875000.0 0.08779525756835938 -0.018207550048828125
900000.0 0.08777236938476562 -0.017726898193359375
925000.0 0.08775711059570312 -0.017246246337890625
950000.0 0.08771133422851562 -0.016811370849609375
975000.0 0.08770370483398438 -0.016376495361328125
1000000.0 0.08771133422851562 -0.01599884033203125
1030000.0 0.08768081665039062 -0.015552520751953125
1060000.0 0.08766937255859375 -0.015125274658203125
1110000.0 0.08763885498046875 -0.014461517333984375
1170000.0 0.087615966796875 -0.01375579833984375
1250000.0 0.08758544921875 -0.012905120849609375
1350000.0 0.08757781982421875 -0.011993408203125
1500000.0 0.08753204345703125 -0.0108642578125
1700000.0 0.08750152587890625 -0.009677886962890625
1950000.0 0.08748245239257812 -0.00855255126953125
2250000.0 0.08747100830078125 -0.007564544677734375
2750000.0 0.08744430541992188 -0.006412506103515625
3500000.0 0.08744049072265625 -0.00534820556640625
4500000.0 0.08745193481445312 -0.00455474853515625
6000000.0 0.0874786376953125 -0.004070281982421875
8000000.0 0.08750534057617188 -0.00397491455078125
11000000.0 0.08753204345703125 -0.004241943359375
15500000.0 0.08754730224609375 -0.005016326904296875
22000000.0 0.0875396728515625 -0.00643157958984375
30000000.0 0.08744430541992188 -0.0084075927734375
40000000.0 0.08722686767578125 -0.010986328125
52500000.0 0.08683013916015625 -0.01428985595703125
68000000.0 0.08617019653320312 -0.018444061279296875
86500000.0 0.08502197265625 -0.0233917236328125
106000000.0 0.08352279663085938 -0.0286407470703125
127500000.0 0.08143997192382812 -0.034275054931640625
152000000.0 0.07855987548828125 -0.04062652587890625
180000000.0 0.07468414306640625 -0.047565460205078125
214000000.0 0.06914901733398438 -0.055469512939453125
254000000.0 0.061473846435546875 -0.06406784057617188
300000000.0 0.05145501345396042 -0.07272010296583176
350000000.0 0.03915971517562866 -0.08038013428449631
400000000.0 0.025682713836431503 -0.08601666986942291
450000000.0 0.011295318603515625 -0.08930115401744843
500000000.0 -0.003534633433446288 -0.0903037041425705
550000000.0 -0.018538814038038254 -0.08868509531021118
600000000.0 -0.03335075080394745 -0.0848076120018959
650000000.0 -0.047334201633930206 -0.07830645889043808
700000000.0 -0.06060028076171875 -0.06941604614257812
750000000.0 -0.07224273681640625 -0.058734893798828125
800000000.0 -0.08184814453125 -0.045806884765625
850000000.0 -0.08985519409179688 -0.03115081787109375
900000000.0 -0.09521102905273438 -0.015766143798828125
950000000.0 -0.09780502319335938 0.0012359619140625
1000000000.0 -0.09828567504882812 0.01821136474609375
1050000000.0 -0.09517669677734375 0.03536224365234375
1100000000.0 -0.0897369384765625 0.05240631103515625
1150000000.0 -0.08136749267578125 0.0679931640625
1200000000.0 -0.070098876953125 0.08277511596679688
1250000000.0 -0.0568695068359375 0.09556198120117188
1300000000.0 -0.04119110107421875 0.1059112548828125
1350000000.0 -0.023563385009765625 0.11405563354492188
1400000000.0 -0.005023956298828125 0.119171142578125
1450000000.0 0.015071868896484375 0.12090301513671875
1500000000.0 0.0352935791015625 0.1198272705078125
1550000000.0 0.055362701416015625 0.11484527587890625
1600000000.0 0.07521820068359375 0.10689163208007812
1650000000.0 0.09316635131835938 0.0955047607421875
1700000000.0 0.1099853515625 0.080657958984375
1750000000.0 0.124298095703125 0.06355667114257812
1800000000.0 0.1355438232421875 0.0435943603515625
1850000000.0 0.1439208984375 0.0216522216796875
1900000000.0 0.14850616455078125 -0.0013885498046875
1950000000.0 0.14896392822265625 -0.025634765625
2000000000.0 0.14591217041015625 -0.0501556396484375
2050000000.0 0.13817596435546875 -0.07399749755859375
2100000000.0 0.12674713134765625 -0.097320556640625
2150000000.0 0.11172866821289062 -0.11806106567382812
2200000000.0 0.09239959716796875 -0.1365966796875
2250000000.0 0.0706329345703125 -0.15245819091796875
2300000000.0 0.04567718505859375 -0.16413116455078125
2350000000.0 0.01877593994140625 -0.17236328125
2400000000.0 -0.009246826171875 -0.17586517333984375
2450000000.0 -0.03815460205078125 -0.17482757568359375
2500000000.0 -0.0666961669921875 -0.1690216064453125
2550000000.0 -0.0946044921875 -0.15842437744140625
2600000000.0 -0.1207427978515625 -0.14351654052734375
2650000000.0 -0.1442718505859375 -0.12410736083984375
2700000000.0 -0.16486358642578125 -0.1009063720703125
2750000000.0 -0.18141937255859375 -0.0744171142578125
2800000000.0 -0.19371795654296875 -0.04512786865234375
2850000000.0 -0.20145416259765625 -0.013916015625
2900000000.0 -0.20381927490234375 0.018280029296875
2950000000.0 -0.201141357421875 0.0514373779296875
3000000000.0 -0.19373321533203125 0.0836639404296875
3050000000.0 -0.18073272705078125 0.11460113525390625
3100000000.0 -0.1632232666015625 0.14374542236328125
3150000000.0 -0.14118194580078125 0.16989898681640625
3200000000.0 -0.11502838134765625 0.192779541015625
3250000000.0 -0.08563995361328125 0.21158599853515625
3300000000.0 -0.0532073974609375 0.225860595703125
3350000000.0 -0.01856231689453125 0.23529052734375
3400000000.0 0.0174102783203125 0.23947906494140625
3450000000.0 0.05432891845703125 0.23780059814453125
3500000000.0 0.09119415283203125 0.231292724609375
3550000000.0 0.12639617919921875 0.21823883056640625
3600000000.0 0.1610870361328125 0.199554443359375
3650000000.0 0.191986083984375 0.17629241943359375
3700000000.0 0.21982574462890625 0.14691162109375
3750000000.0 0.2434234619140625 0.1141510009765625
3800000000.0 0.26116943359375 0.07684326171875
3850000000.0 0.2736053466796875 0.0370025634765625
3900000000.0 0.2790985107421875 -0.0048828125
3950000000.0 0.2781982421875 -0.0478515625
4000000000.0 0.2704010009765625 -0.09027099609375
4050000000.0 0.2564544677734375 -0.1308441162109375
4100000000.0 0.23633575439453125 -0.1684722900390625
4150000000.0 0.21086883544921875 -0.20269012451171875
4200000000.0 0.1807861328125 -0.23297119140625
4250000000.0 0.14715576171875 -0.2589111328125
4300000000.0 0.1102752685546875 -0.28021240234375
4350000000.0 0.070343017578125 -0.297210693359375
4400000000.0 0.0277557373046875 -0.308929443359375
4450000000.0 -0.0174560546875 -0.3144378662109375
4500000000.0 -0.065093994140625 -0.313262939453125
4550000000.0 -0.1126251220703125 -0.3050689697265625
4600000000.0 -0.1598358154296875 -0.2882232666015625
4650000000.0 -0.2049560546875 -0.2642974853515625
4700000000.0 -0.245697021484375 -0.23244476318359375
4750000000.0 -0.2814178466796875 -0.1943359375
4800000000.0 -0.3101806640625 -0.150054931640625
4850000000.0 -0.3324127197265625 -0.10101318359375
4900000000.0 -0.345977783203125 -0.0495147705078125
4950000000.0 -0.35113525390625 0.004730224609375
5000000000.0 -0.3482666015625 0.0583038330078125
5050000000.0 -0.3363037109375 0.1106414794921875
5100000000.0 -0.3158111572265625 0.1605072021484375
5150000000.0 -0.28802490234375 0.2066802978515625
5200000000.0 -0.253204345703125 0.247406005859375
5250000000.0 -0.212371826171875 0.282257080078125
5300000000.0 -0.1670684814453125 0.3101654052734375
5350000000.0 -0.118133544921875 0.3304901123046875
5400000000.0 -0.0677947998046875 0.3425750732421875
5450000000.0 -0.01580810546875 0.3457183837890625
5500000000.0 0.0359954833984375 0.341796875
5550000000.0 0.0847930908203125 0.3296356201171875
5600000000.0 0.1313018798828125 0.3093414306640625
5650000000.0 0.1735992431640625 0.282928466796875
5700000000.0 0.2103118896484375 0.250152587890625
5750000000.0 0.24163055419921875 0.21258544921875
5800000000.0 0.26513671875 0.1719818115234375
5850000000.0 0.281646728515625 0.1274566650390625
5900000000.0 0.2915191650390625 0.0826263427734375
5950000000.0 0.292755126953125 0.0377349853515625
6000000000.0 0.2872161865234375 -0.0059051513671875
6050000000.0 0.274566650390625 -0.0471038818359375
6100000000.0 0.25616455078125 -0.0843048095703125
6150000000.0 0.23195648193359375 -0.11650848388671875
6200000000.0 0.20261383056640625 -0.14441680908203125
6250000000.0 0.17177581787109375 -0.1669921875
6300000000.0 0.1391448974609375 -0.18103790283203125
6350000000.0 0.10308837890625 -0.18950653076171875
6400000000.0 0.06934356689453125 -0.192962646484375
6450000000.0 0.03719329833984375 -0.1882171630859375
6500000000.0 0.0065155029296875 -0.17862701416015625
6550000000.0 -0.0196075439453125 -0.16416168212890625
6600000000.0 -0.041717529296875 -0.1447906494140625
6650000000.0 -0.0586395263671875 -0.12340164184570312
6700000000.0 -0.06920242309570312 -0.099853515625
6750000000.0 -0.07451629638671875 -0.076080322265625
6800000000.0 -0.07318115234375 -0.053741455078125
6850000000.0 -0.066864013671875 -0.032566070556640625
6900000000.0 -0.05698394775390625 -0.015552520751953125
6950000000.0 -0.043582916259765625 -0.0029010772705078125
7000000000.0 -0.028794288635253906 0.0050029754638671875
7050000000.0 -0.012614250183105469 0.008301734924316406
7100000000.0 0.0028510093688964844 0.0083160400390625
7150000000.0 0.017142295837402344 0.003017425537109375
7200000000.0 0.031650543212890625 -0.0061187744140625
7250000000.0 0.043304443359375 -0.017675399780273438
7300000000.0 0.05124664306640625 -0.03365516662597656
7350000000.0 0.05597877502441406 -0.05288124084472656
7400000000.0 0.0562286376953125 -0.0736083984375
7450000000.0 0.05084991455078125 -0.0951995849609375
7500000000.0 0.039920806884765625 -0.11698532104492188
7550000000.0 0.02419281005859375 -0.1375579833984375
7600000000.0 0.00262451171875 -0.15467071533203125
7650000000.0 -0.02352142333984375 -0.16814422607421875
7700000000.0 -0.05338287353515625 -0.17711639404296875
7750000000.0 -0.08536529541015625 -0.17989349365234375
7800000000.0 -0.11962890625 -0.1762542724609375
7850000000.0 -0.15381622314453125 -0.1665191650390625
7900000000.0 -0.18701934814453125 -0.149658203125
7950000000.0 -0.21852874755859375 -0.12728118896484375
8000000000.0 -0.24591064453125 -0.0987701416015625
8050000000.0 -0.269500732421875 -0.06439208984375
8100000000.0 -0.2879180908203125 -0.026092529296875
8150000000.0 -0.299530029296875 0.016387939453125
8200000000.0 -0.305145263671875 0.062042236328125
8250000000.0 -0.3032989501953125 0.108306884765625
8300000000.0 -0.2934112548828125 0.1552581787109375
8350000000.0 -0.275482177734375 0.20147705078125
8400000000.0 -0.2502899169921875 0.245452880859375
8450000000.0 -0.217803955078125 0.285491943359375
8500000000.0 -0.178314208984375 0.3203887939453125
8550000000.0 -0.133270263671875 0.3496856689453125
8600000000.0 -0.0839996337890625 0.371246337890625
8650000000.0 -0.0306549072265625 0.384368896484375
8700000000.0 0.025238037109375 0.3897247314453125
8750000000.0 0.0810394287109375 0.38592529296875
8800000000.0 0.1362762451171875 0.37322998046875
8850000000.0 0.1884307861328125 0.3521270751953125
8900000000.0 0.236602783203125 0.3219146728515625
8950000000.0 0.280059814453125 0.2845458984375
9000000000.0 0.3158721923828125 0.2408599853515625
9050000000.0 0.34423828125 0.1922607421875
9100000000.0 0.363983154296875 0.140167236328125
