!Created with skrf (http://scikit-rf.org).
# Hz S RI R 50.0 
!freq ReS11 ImS11
1000000000.0 -0.424041748046875 0.82177734375
1100000000.0 -0.281219482421875 0.8795166015625
1200000000.0 -0.136260986328125 0.91192626953125
1300000000.0 0.008087158203125 0.92095947265625
1400000000.0 0.14898681640625 0.907562255859375
1500000000.0 0.283599853515625 0.873870849609375
1600000000.0 0.410247802734375 0.820831298828125
1700000000.0 0.5263671875 0.750701904296875
1800000000.0 0.630096435546875 0.66497802734375
1900000000.0 0.719818115234375 0.56597900390625
2000000000.0 0.79461669921875 0.45562744140625
2100000000.0 0.85186767578125 0.334014892578125
2200000000.0 0.88775634765625 0.20849609375
2300000000.0 0.907318115234375 0.080657958984375
2400000000.0 0.908966064453125 -0.048675537109375
2500000000.0 0.89227294921875 -0.1766357421875
2600000000.0 0.857666015625 -0.300750732421875
2700000000.0 0.806121826171875 -0.41864013671875
2800000000.0 0.73858642578125 -0.52752685546875
2900000000.0 0.65667724609375 -0.62591552734375
3000000000.0 0.561614990234375 -0.711578369140625
3100000000.0 0.45556640625 -0.782989501953125
3200000000.0 0.340484619140625 -0.83880615234375
3300000000.0 0.218719482421875 -0.8775634765625
3400000000.0 0.092926025390625 -0.8985595703125
3500000000.0 -0.03375244140625 -0.90106201171875
3600000000.0 -0.158599853515625 -0.88787841796875
3700000000.0 -0.281890869140625 -0.856658935546875
3800000000.0 -0.3990478515625 -0.808349609375
3900000000.0 -0.5081787109375 -0.744903564453125
4000000000.0 -0.609405517578125 -0.666717529296875
4100000000.0 -0.69775390625 -0.572906494140625
4200000000.0 -0.769866943359375 -0.468109130859375
4300000000.0 -0.827117919921875 -0.3551025390625
4400000000.0 -0.868133544921875 -0.235321044921875
4500000000.0 -0.89215087890625 -0.111083984375
4600000000.0 -0.898162841796875 0.015106201171875
4700000000.0 -0.8868408203125 0.140777587890625
4800000000.0 -0.85809326171875 0.2635498046875
4900000000.0 -0.81231689453125 0.38092041015625
5000000000.0 -0.750762939453125 0.490509033203125
5100000000.0 -0.67462158203125 0.590362548828125
5200000000.0 -0.58544921875 0.678436279296875
5300000000.0 -0.48504638671875 0.7532958984375
5400000000.0 -0.375274658203125 0.813232421875
5500000000.0 -0.258270263671875 0.857421875
5600000000.0 -0.1365966796875 0.884368896484375
5700000000.0 -0.012451171875 0.894989013671875
5800000000.0 0.111572265625 0.887420654296875
5900000000.0 0.232635498046875 0.86383056640625
6000000000.0 0.349700927734375 0.824951171875
6100000000.0 0.46270751953125 0.76983642578125
6200000000.0 0.566192626953125 0.69757080078125
6300000000.0 0.65789794921875 0.61175537109375
6400000000.0 0.736297607421875 0.51416015625
6500000000.0 0.8004150390625 0.40716552734375
6600000000.0 0.849029541015625 0.29254150390625
6700000000.0 0.881256103515625 0.17218017578125
6800000000.0 0.896514892578125 0.048736572265625
6900000000.0 0.894378662109375 -0.076019287109375
7000000000.0 0.87481689453125 -0.199005126953125
7100000000.0 0.838531494140625 -0.318115234375
7200000000.0 0.78594970703125 -0.431365966796875
7300000000.0 0.718231201171875 -0.535797119140625
7400000000.0 0.6368408203125 -0.6297607421875
7500000000.0 0.543426513671875 -0.71173095703125
7600000000.0 0.439910888671875 -0.779815673828125
7700000000.0 0.327728271484375 -0.832763671875
7800000000.0 0.209625244140625 -0.86944580078125
7900000000.0 0.08856201171875 -0.88916015625
8000000000.0 -0.032989501953125 -0.893402099609375
8100000000.0 -0.1558837890625 -0.88360595703125
8200000000.0 -0.278717041015625 -0.854461669921875
8300000000.0 -0.39520263671875 -0.8070068359375
8400000000.0 -0.5030517578125 -0.7442626953125
8500000000.0 -0.60089111328125 -0.667266845703125
8600000000.0 -0.687103271484375 -0.5777587890625
8700000000.0 -0.75982666015625 -0.477569580078125
8800000000.0 -0.818023681640625 -0.368377685546875
8900000000.0 -0.860504150390625 -0.252532958984375
9000000000.0 -0.886688232421875 -0.132415771484375
9100000000.0 -0.896240234375 -0.010009765625
9200000000.0 -0.88897705078125 0.112213134765625
9300000000.0 -0.864959716796875 0.232086181640625
9400000000.0 -0.82525634765625 0.347076416015625
9500000000.0 -0.77008056640625 0.455657958984375
9600000000.0 -0.701019287109375 0.555267333984375
9700000000.0 -0.619171142578125 0.644317626953125
9800000000.0 -0.5263671875 0.7210693359375
9900000000.0 -0.425201416015625 0.784332275390625
10000000000.0 -0.317626953125 0.834014892578125
10100000000.0 -0.2041015625 0.8712158203125
10200000000.0 -0.0841064453125 0.8922119140625
10300000000.0 0.037445068359375 0.895782470703125
10400000000.0 0.15765380859375 0.882080078125
10500000000.0 0.274566650390625 0.852447509765625
10600000000.0 0.385772705078125 0.80792236328125
10700000000.0 0.4892578125 0.750518798828125
10800000000.0 0.584747314453125 0.676055908203125
10900000000.0 0.67108154296875 0.59210205078125
11000000000.0 0.74224853515625 0.4969482421875
11100000000.0 0.801544189453125 0.3931884765625
11200000000.0 0.84625244140625 0.28271484375
11300000000.0 0.875946044921875 0.16717529296875
11400000000.0 0.8897705078125 0.048614501953125
11500000000.0 0.887542724609375 -0.070404052734375
11600000000.0 0.87005615234375 -0.188079833984375
11700000000.0 0.8359375 -0.301910400390625
11800000000.0 0.787384033203125 -0.410186767578125
11900000000.0 0.72491455078125 -0.510894775390625
12000000000.0 0.650146484375 -0.60125732421875
12100000000.0 0.565582275390625 -0.6812744140625
12200000000.0 0.471832275390625 -0.75213623046875
12300000000.0 0.366485595703125 -0.810577392578125
12400000000.0 0.25341796875 -0.852996826171875
12500000000.0 0.135589599609375 -0.878814697265625
12600000000.0 0.015594482421875 -0.888763427734375
12700000000.0 -0.104339599609375 -0.88226318359375
12800000000.0 -0.22235107421875 -0.859649658203125
12900000000.0 -0.3358154296875 -0.821258544921875
13000000000.0 -0.443206787109375 -0.76824951171875
13100000000.0 -0.542266845703125 -0.701171875
13200000000.0 -0.631500244140625 -0.62127685546875
13300000000.0 -0.708984375 -0.530364990234375
13400000000.0 -0.7734375 -0.4296875
13500000000.0 -0.823577880859375 -0.321502685546875
13600000000.0 -0.858642578125 -0.207794189453125
13700000000.0 -0.878143310546875 -0.0897216796875
13800000000.0 -0.880828857421875 0.028594970703125
13900000000.0 -0.86785888671875 0.146087646484375
14000000000.0 -0.83953857421875 0.259674072265625
14100000000.0 -0.79736328125 0.368072509765625
14200000000.0 -0.743804931640625 0.47100830078125
14300000000.0 -0.67529296875 0.568878173828125
14400000000.0 -0.591888427734375 0.6563720703125
14500000000.0 -0.497161865234375 0.730804443359375
14600000000.0 -0.3931884765625 0.790771484375
14700000000.0 -0.282470703125 0.836029052734375
14800000000.0 -0.166778564453125 0.86578369140625
14900000000.0 -0.048187255859375 0.8795166015625
15000000000.0 0.0711669921875 0.877197265625
15100000000.0 0.189239501953125 0.859039306640625
15200000000.0 0.30389404296875 0.82452392578125
15300000000.0 0.412841796875 0.774871826171875
15400000000.0 0.51275634765625 0.710723876953125
15500000000.0 0.604400634765625 0.634246826171875
15600000000.0 0.683258056640625 0.543914794921875
15700000000.0 0.7508544921875 0.44451904296875
15800000000.0 0.80316162109375 0.337738037109375
15900000000.0 0.83978271484375 0.22430419921875
16000000000.0 0.86090087890625 0.107269287109375
16100000000.0 0.866485595703125 -0.01055908203125
16200000000.0 0.85687255859375 -0.12823486328125
16300000000.0 0.832000732421875 -0.245208740234375
16400000000.0 0.79095458984375 -0.359130859375
16500000000.0 0.732513427734375 -0.466796875
16600000000.0 0.658905029296875 -0.564788818359375
16700000000.0 0.572509765625 -0.651611328125
16800000000.0 0.474884033203125 -0.72503662109375
16900000000.0 0.366943359375 -0.783721923828125
17000000000.0 0.252166748046875 -0.82708740234375
17100000000.0 0.133087158203125 -0.85321044921875
17200000000.0 0.011474609375 -0.86279296875
17300000000.0 -0.11016845703125 -0.855255126953125
17400000000.0 -0.229400634765625 -0.830352783203125
17500000000.0 -0.34405517578125 -0.788909912109375
17600000000.0 -0.45135498046875 -0.731781005859375
17700000000.0 -0.549102783203125 -0.660186767578125
17800000000.0 -0.63592529296875 -0.575927734375
17900000000.0 -0.709503173828125 -0.48065185546875
18000000000.0 -0.769012451171875 -0.37689208984375
18100000000.0 -0.8140869140625 -0.2666015625
18200000000.0 -0.844451904296875 -0.151611328125
18300000000.0 -0.85931396484375 -0.03265380859375
18400000000.0 -0.857208251953125 0.088104248046875
18500000000.0 -0.837799072265625 0.207550048828125
18600000000.0 -0.80145263671875 0.32275390625
18700000000.0 -0.749420166015625 0.431610107421875
18800000000.0 -0.6827392578125 0.53192138671875
18900000000.0 -0.602752685546875 0.621551513671875
19000000000.0 -0.511474609375 0.69921875
19100000000.0 -0.410247802734375 0.76348876953125
19200000000.0 -0.301513671875 0.81304931640625
19300000000.0 -0.18682861328125 0.846649169921875
19400000000.0 -0.06890869140625 0.864654541015625
19500000000.0 0.050201416015625 0.865997314453125
19600000000.0 0.168182373046875 0.8507080078125
19700000000.0 0.282684326171875 0.81976318359375
19800000000.0 0.391510009765625 0.772918701171875
19900000000.0 0.492431640625 0.7120361328125
20000000000.0 0.583465576171875 0.639007568359375
20100000000.0 0.663787841796875 0.554718017578125
20200000000.0 0.732635498046875 0.462066650390625
20300000000.0 0.79071044921875 0.359100341796875
20400000000.0 0.835052490234375 0.2491455078125
20500000000.0 0.861663818359375 0.13201904296875
20600000000.0 0.87347412109375 0.0128173828125
20700000000.0 0.867645263671875 -0.105377197265625
20800000000.0 0.84466552734375 -0.227508544921875
20900000000.0 0.80584716796875 -0.33984375
21000000000.0 0.752593994140625 -0.447479248046875
21100000000.0 0.68328857421875 -0.544677734375
21200000000.0 0.601715087890625 -0.63543701171875
21300000000.0 0.50848388671875 -0.7115478515625
21400000000.0 0.40631103515625 -0.7745361328125
21500000000.0 0.29656982421875 -0.82305908203125
21600000000.0 0.18121337890625 -0.855438232421875
21700000000.0 0.062835693359375 -0.87176513671875
21800000000.0 -0.0562744140625 -0.871490478515625
21900000000.0 -0.17340087890625 -0.855255126953125
22000000000.0 -0.286773681640625 -0.82373046875
22100000000.0 -0.394317626953125 -0.778594970703125
22200000000.0 -0.494842529296875 -0.7203369140625
22300000000.0 -0.588226318359375 -0.649566650390625
22400000000.0 -0.671966552734375 -0.566375732421875
22500000000.0 -0.743988037109375 -0.471771240234375
22600000000.0 -0.801055908203125 -0.3685302734375
22700000000.0 -0.843902587890625 -0.258636474609375
22800000000.0 -0.8709716796875 -0.1444091796875
22900000000.0 -0.883697509765625 -0.027984619140625
23000000000.0 -0.88018798828125 0.088714599609375
23100000000.0 -0.861328125 0.20367431640625
23200000000.0 -0.82757568359375 0.314544677734375
23300000000.0 -0.77972412109375 0.4197998046875
23400000000.0 -0.718780517578125 0.517608642578125
23500000000.0 -0.646026611328125 0.60626220703125
23600000000.0 -0.562713623046875 0.68426513671875
23700000000.0 -0.46978759765625 0.75048828125
23800000000.0 -0.37042236328125 0.803802490234375
23900000000.0 -0.265228271484375 0.84368896484375
24000000000.0 -0.15631103515625 0.869171142578125
24100000000.0 -0.047119140625 0.881500244140625
24200000000.0 0.0626220703125 0.88134765625
24300000000.0 0.172027587890625 0.868194580078125
24400000000.0 0.280670166015625 0.84130859375
24500000000.0 0.38519287109375 0.80035400390625
24600000000.0 0.484619140625 0.7457275390625
24700000000.0 0.57574462890625 0.67852783203125
24800000000.0 0.657470703125 0.599578857421875
24900000000.0 0.728729248046875 0.510406494140625
25000000000.0 0.787567138671875 0.41302490234375
25100000000.0 0.833343505859375 0.30902099609375
25200000000.0 0.864898681640625 0.200286865234375
25300000000.0 0.882598876953125 0.088287353515625
25400000000.0 0.885650634765625 -0.02508544921875
25500000000.0 0.874053955078125 -0.1378173828125
25600000000.0 0.847747802734375 -0.247802734375
25700000000.0 0.807586669921875 -0.353759765625
25800000000.0 0.75439453125 -0.45391845703125
25900000000.0 0.688446044921875 -0.54541015625
26000000000.0 0.61187744140625 -0.62774658203125
26100000000.0 0.526519775390625 -0.700408935546875
26200000000.0 0.432586669921875 -0.762542724609375
26300000000.0 0.330169677734375 -0.81298828125
26400000000.0 0.2210693359375 -0.849884033203125
26500000000.0 0.1072998046875 -0.87158203125
