!Created with skrf (http://scikit-rf.org).
# Hz S RI R 50.0 
!freq ReS11 ImS11
1000000000.0 0.601715087890625 -0.679229736328125
1100000000.0 0.28594970703125 -0.868316650390625
1200000000.0 -0.07513427734375 -0.91363525390625
1300000000.0 -0.4224853515625 -0.81103515625
1400000000.0 -0.69842529296875 -0.579437255859375
1500000000.0 -0.8580322265625 -0.256927490234375
1600000000.0 -0.874786376953125 0.100830078125
1700000000.0 -0.74554443359375 0.433502197265625
1800000000.0 -0.491729736328125 0.68304443359375
1900000000.0 -0.15863037109375 0.803070068359375
2000000000.0 0.191864013671875 0.771514892578125
2100000000.0 0.491973876953125 0.597198486328125
2200000000.0 0.688232421875 0.3121337890625
2300000000.0 0.744354248046875 -0.02630615234375
2400000000.0 0.64874267578125 -0.3529052734375
2500000000.0 0.423004150390625 -0.604095458984375
2600000000.0 0.11395263671875 -0.732513427734375
2700000000.0 -0.2177734375 -0.71734619140625
2800000000.0 -0.510986328125 -0.56390380859375
2900000000.0 -0.7122802734375 -0.303009033203125
3000000000.0 -0.78619384765625 0.018310546875
3100000000.0 -0.720184326171875 0.340576171875
3200000000.0 -0.52728271484375 0.60687255859375
3300000000.0 -0.2418212890625 0.771392822265625
3400000000.0 0.086456298828125 0.80419921875
3500000000.0 0.400299072265625 0.6978759765625
3600000000.0 0.64166259765625 0.4693603515625
3700000000.0 0.764251708984375 0.160736083984375
3800000000.0 0.744110107421875 -0.171417236328125
3900000000.0 0.58294677734375 -0.4625244140625
4000000000.0 0.311370849609375 -0.652801513671875
4100000000.0 -0.013702392578125 -0.7025146484375
4200000000.0 -0.32427978515625 -0.603546142578125
4300000000.0 -0.5548095703125 -0.38140869140625
4400000000.0 -0.662841796875 -0.08465576171875
4500000000.0 -0.630615234375 0.22491455078125
4600000000.0 -0.470550537109375 0.4859619140625
4700000000.0 -0.21942138671875 0.651123046875
4800000000.0 0.071746826171875 0.6971435546875
4900000000.0 0.352996826171875 0.62286376953125
5000000000.0 0.579803466796875 0.445281982421875
5100000000.0 0.71905517578125 0.19427490234375
5200000000.0 0.750091552734375 -0.08892822265625
5300000000.0 0.67120361328125 -0.36212158203125
5400000000.0 0.49456787109375 -0.58544921875
5500000000.0 0.24542236328125 -0.726165771484375
5600000000.0 -0.041839599609375 -0.76116943359375
5700000000.0 -0.32220458984375 -0.680511474609375
5800000000.0 -0.550048828125 -0.4930419921875
5900000000.0 -0.68341064453125 -0.228515625
6000000000.0 -0.696014404296875 0.07275390625
6100000000.0 -0.578704833984375 0.351287841796875
6200000000.0 -0.350372314453125 0.5511474609375
6300000000.0 -0.05755615234375 0.628265380859375
6400000000.0 0.2347412109375 0.56658935546875
6500000000.0 0.4636993408203125 0.3852081298828125
6600000000.0 0.586181640625 0.125885009765625
6700000000.0 0.58062744140625 -0.1544189453125
6800000000.0 0.4568023681640625 -0.3975067138671875
6900000000.0 0.247528076171875 -0.558319091796875
7000000000.0 -0.001953125 -0.616607666015625
7100000000.0 -0.246002197265625 -0.570587158203125
7200000000.0 -0.4474639892578125 -0.43511962890625
7300000000.0 -0.57366943359375 -0.23712158203125
7400000000.0 -0.614593505859375 -0.0213623046875
7500000000.0 -0.58978271484375 0.18988037109375
7600000000.0 -0.4921417236328125 0.3936767578125
7700000000.0 -0.3131103515625 0.55487060546875
7800000000.0 -0.074951171875 0.634552001953125
7900000000.0 0.18231201171875 0.6087646484375
8000000000.0 0.4114532470703125 0.47576904296875
8100000000.0 0.566070556640625 0.255340576171875
8200000000.0 0.6131591796875 -0.014404296875
8300000000.0 0.536407470703125 -0.280914306640625
8400000000.0 0.349761962890625 -0.48577880859375
8500000000.0 0.092681884765625 -0.58648681640625
8600000000.0 -0.1788330078125 -0.563995361328125
8700000000.0 -0.408935546875 -0.4286346435546875
8800000000.0 -0.55535888671875 -0.212921142578125
8900000000.0 -0.596405029296875 0.038421630859375
9000000000.0 -0.531280517578125 0.2791748046875
9100000000.0 -0.3781585693359375 0.4679718017578125
9200000000.0 -0.16571044921875 0.57977294921875
9300000000.0 0.07037353515625 0.599090576171875
9400000000.0 0.295379638671875 0.525390625
9500000000.0 0.4736480712890625 0.3709716796875
9600000000.0 0.577117919921875 0.158935546875
9700000000.0 0.58978271484375 -0.077972412109375
9800000000.0 0.5081787109375 -0.302093505859375
9900000000.0 0.341552734375 -0.478485107421875
10000000000.0 0.115020751953125 -0.5716552734375
10100000000.0 -0.13165283203125 -0.5638427734375
10200000000.0 -0.3542022705078125 -0.4534912109375
10300000000.0 -0.509368896484375 -0.2576904296875
10400000000.0 -0.56744384765625 -0.01470947265625
10500000000.0 -0.51446533203125 0.227630615234375
10600000000.0 -0.36395263671875 0.4207305908203125
10700000000.0 -0.15008544921875 0.52685546875
10800000000.0 0.081268310546875 0.531646728515625
10900000000.0 0.2858428955078125 0.4429779052734375
11000000000.0 0.4314117431640625 0.283905029296875
11100000000.0 0.497039794921875 0.0868988037109375
11200000000.0 0.4801788330078125 -0.1128387451171875
11300000000.0 0.38946533203125 -0.286346435546875
11400000000.0 0.2433624267578125 -0.4071197509765625
11500000000.0 0.0638275146484375 -0.4662933349609375
11600000000.0 -0.12786865234375 -0.45062255859375
11700000000.0 -0.2994842529296875 -0.3600311279296875
11800000000.0 -0.4219207763671875 -0.2042999267578125
11900000000.0 -0.4706573486328125 -0.0088043212890625
12000000000.0 -0.433685302734375 0.193756103515625
12100000000.0 -0.3116607666015625 0.3644561767578125
12200000000.0 -0.12799072265625 0.4688720703125
12300000000.0 0.08477783203125 0.4856109619140625
12400000000.0 0.286224365234375 0.411712646484375
12500000000.0 0.4391021728515625 0.2607879638671875
12600000000.0 0.516082763671875 0.057861328125
12700000000.0 0.503326416015625 -0.15887451171875
12800000000.0 0.40289306640625 -0.3519744873046875
12900000000.0 0.2329559326171875 -0.4875946044921875
13000000000.0 0.023468017578125 -0.542205810546875
13100000000.0 -0.1895751953125 -0.509002685546875
13200000000.0 -0.3710174560546875 -0.392303466796875
13300000000.0 -0.4891357421875 -0.212890625
13400000000.0 -0.523895263671875 -0.00250244140625
13500000000.0 -0.46966552734375 0.203338623046875
13600000000.0 -0.3374176025390625 0.3654327392578125
13700000000.0 -0.150421142578125 0.458526611328125
13800000000.0 0.05560302734375 0.463226318359375
13900000000.0 0.241058349609375 0.3807830810546875
14000000000.0 0.3719940185546875 0.2299041748046875
14100000000.0 0.4244232177734375 0.038970947265625
14200000000.0 0.3912811279296875 -0.15093994140625
14300000000.0 0.2817840576171875 -0.3065185546875
14400000000.0 0.120147705078125 -0.398895263671875
14500000000.0 -0.062103271484375 -0.4146575927734375
14600000000.0 -0.23309326171875 -0.35430908203125
14700000000.0 -0.3621673583984375 -0.23211669921875
14800000000.0 -0.430877685546875 -0.0683746337890625
14900000000.0 -0.42724609375 0.1075592041015625
15000000000.0 -0.35546875 0.2669219970703125
15100000000.0 -0.225433349609375 0.38629150390625
15200000000.0 -0.0591888427734375 0.4448699951171875
15300000000.0 0.11932373046875 0.4332733154296875
15400000000.0 0.2796478271484375 0.3492279052734375
15500000000.0 0.3947906494140625 0.208221435546875
15600000000.0 0.444671630859375 0.0283203125
15700000000.0 0.4163665771484375 -0.1574859619140625
15800000000.0 0.312957763671875 -0.3177490234375
15900000000.0 0.1498565673828125 -0.4221038818359375
16000000000.0 -0.041961669921875 -0.44818115234375
16100000000.0 -0.2285308837890625 -0.3907012939453125
16200000000.0 -0.373809814453125 -0.2603759765625
16300000000.0 -0.4505462646484375 -0.0819854736328125
16400000000.0 -0.444305419921875 0.1090850830078125
16500000000.0 -0.360107421875 0.2791748046875
16600000000.0 -0.2133331298828125 0.3953399658203125
16700000000.0 -0.0376739501953125 0.4393310546875
16800000000.0 0.1380767822265625 0.4072113037109375
16900000000.0 0.2811431884765625 0.307586669921875
17000000000.0 0.368072509765625 0.159423828125
17100000000.0 0.383880615234375 -0.00897216796875
17200000000.0 0.3297576904296875 -0.1634368896484375
17300000000.0 0.2169342041015625 -0.2808074951171875
17400000000.0 0.067626953125 -0.338134765625
17500000000.0 -0.0918426513671875 -0.3260345458984375
17600000000.0 -0.23111724853515625 -0.2474517822265625
17700000000.0 -0.3228912353515625 -0.11761474609375
17800000000.0 -0.3510284423828125 0.039031982421875
17900000000.0 -0.311676025390625 0.1951446533203125
18000000000.0 -0.2079925537109375 0.3220672607421875
18100000000.0 -0.05828857421875 0.3956298828125
18200000000.0 0.1100311279296875 0.402069091796875
18300000000.0 0.269622802734375 0.33795166015625
18400000000.0 0.3915557861328125 0.2110595703125
18500000000.0 0.4517059326171875 0.042816162109375
18600000000.0 0.4405364990234375 -0.1387939453125
18700000000.0 0.3544769287109375 -0.3020172119140625
18800000000.0 0.2087249755859375 -0.418792724609375
18900000000.0 0.024627685546875 -0.4682464599609375
19000000000.0 -0.1625213623046875 -0.43621826171875
19100000000.0 -0.3227996826171875 -0.332183837890625
19200000000.0 -0.424407958984375 -0.169097900390625
19300000000.0 -0.4527740478515625 0.0191650390625
19400000000.0 -0.3990478515625 0.202880859375
19500000000.0 -0.276641845703125 0.34454345703125
19600000000.0 -0.10858154296875 0.425201416015625
19700000000.0 0.07489013671875 0.4272918701171875
19800000000.0 0.2414093017578125 0.35546875
19900000000.0 0.3618316650390625 0.22393798828125
20000000000.0 0.418243408203125 0.0579071044921875
20100000000.0 0.399871826171875 -0.1138153076171875
20200000000.0 0.3144073486328125 -0.261688232421875
20300000000.0 0.17889404296875 -0.3616180419921875
20400000000.0 0.016357421875 -0.39581298828125
20500000000.0 -0.144378662109375 -0.36138916015625
20600000000.0 -0.2778167724609375 -0.2651519775390625
20700000000.0 -0.3572845458984375 -0.1216888427734375
20800000000.0 -0.3709716796875 0.0403289794921875
20900000000.0 -0.317291259765625 0.1928253173828125
21000000000.0 -0.2037811279296875 0.310577392578125
21100000000.0 -0.0515594482421875 0.3695831298828125
21200000000.0 0.1114501953125 0.361114501953125
21300000000.0 0.2590484619140625 0.282806396484375
21400000000.0 0.3576202392578125 0.1526031494140625
21500000000.0 0.3964385986328125 -0.00634765625
21600000000.0 0.3643951416015625 -0.169952392578125
21700000000.0 0.2708587646484375 -0.303131103515625
21800000000.0 0.1298828125 -0.387451171875
21900000000.0 -0.03143310546875 -0.4065093994140625
22000000000.0 -0.18658447265625 -0.3562469482421875
22100000000.0 -0.30438232421875 -0.2505340576171875
22200000000.0 -0.3669891357421875 -0.1034088134765625
22300000000.0 -0.363739013671875 0.0533599853515625
22400000000.0 -0.2928314208984375 0.1918792724609375
22500000000.0 -0.1689605712890625 0.2877960205078125
22600000000.0 -0.017608642578125 0.31719970703125
22700000000.0 0.1321868896484375 0.278839111328125
22800000000.0 0.24976348876953125 0.175567626953125
22900000000.0 0.309539794921875 0.0328369140625
23000000000.0 0.3014984130859375 -0.1239166259765625
23100000000.0 0.22552490234375 -0.261444091796875
23200000000.0 0.099090576171875 -0.3558807373046875
23300000000.0 -0.0538330078125 -0.3896942138671875
23400000000.0 -0.209869384765625 -0.3611297607421875
23500000000.0 -0.3424072265625 -0.2742156982421875
23600000000.0 -0.4319305419921875 -0.1444854736328125
23700000000.0 -0.46820068359375 0.0070037841796875
23800000000.0 -0.448394775390625 0.1588287353515625
23900000000.0 -0.373138427734375 0.2962799072265625
24000000000.0 -0.2586822509765625 0.3941192626953125
24100000000.0 -0.1171722412109375 0.447357177734375
24200000000.0 0.0305938720703125 0.444122314453125
24300000000.0 0.168304443359375 0.3845672607421875
24400000000.0 0.268402099609375 0.2773590087890625
24500000000.0 0.315277099609375 0.14202880859375
24600000000.0 0.3011932373046875 0.0004425048828125
24700000000.0 0.22344970703125 -0.11775970458984375
24800000000.0 0.1027984619140625 -0.1859893798828125
24900000000.0 -0.0332489013671875 -0.186431884765625
25000000000.0 -0.15105438232421875 -0.11865997314453125
25100000000.0 -0.22246551513671875 -0.00231170654296875
25200000000.0 -0.2288055419921875 0.135528564453125
25300000000.0 -0.171600341796875 0.2623291015625
25400000000.0 -0.057861328125 0.35174560546875
25500000000.0 0.079071044921875 0.38720703125
25600000000.0 0.2225799560546875 0.3623504638671875
25700000000.0 0.343841552734375 0.2814483642578125
25800000000.0 0.4272308349609375 0.160858154296875
25900000000.0 0.45953369140625 0.017425537109375
26000000000.0 0.4345855712890625 -0.1282196044921875
26100000000.0 0.3555450439453125 -0.2513427734375
26200000000.0 0.236236572265625 -0.334991455078125
26300000000.0 0.0917205810546875 -0.3594970703125
26400000000.0 -0.0457305908203125 -0.321929931640625
26500000000.0 -0.15048980712890625 -0.2263031005859375
