!Created with skrf (http://scikit-rf.org).
# Hz S RI R 50.0 
!freq ReS11 ImS11
1000000000.0 0.784698486328125 -0.463836669921875
1100000000.0 0.5599365234375 -0.73016357421875
1200000000.0 0.255706787109375 -0.89007568359375
1300000000.0 -0.083099365234375 -0.925628662109375
1400000000.0 -0.408843994140625 -0.834930419921875
1500000000.0 -0.677642822265625 -0.63250732421875
1600000000.0 -0.852874755859375 -0.34783935546875
1700000000.0 -0.911651611328125 -0.020416259765625
1800000000.0 -0.846771240234375 0.3035888671875
1900000000.0 -0.66876220703125 0.579193115234375
2000000000.0 -0.403533935546875 0.768218994140625
2100000000.0 -0.0897216796875 0.845062255859375
2200000000.0 0.2276611328125 0.799163818359375
2300000000.0 0.50189208984375 0.63873291015625
2400000000.0 0.69354248046875 0.38861083984375
2500000000.0 0.774749755859375 0.08673095703125
2600000000.0 0.73443603515625 -0.220855712890625
2700000000.0 0.58123779296875 -0.487152099609375
2800000000.0 0.33734130859375 -0.67303466796875
2900000000.0 0.04290771484375 -0.75042724609375
3000000000.0 -0.257293701171875 -0.708892822265625
3100000000.0 -0.517791748046875 -0.55615234375
3200000000.0 -0.699737548828125 -0.316864013671875
3300000000.0 -0.77734375 -0.027496337890625
3400000000.0 -0.7408447265625 0.26898193359375
3500000000.0 -0.596832275390625 0.530059814453125
3600000000.0 -0.366912841796875 0.719390869140625
3700000000.0 -0.083160400390625 0.81048583984375
3800000000.0 0.21435546875 0.791259765625
3900000000.0 0.48468017578125 0.663970947265625
4000000000.0 0.6898193359375 0.445770263671875
4100000000.0 0.799896240234375 0.1661376953125
4200000000.0 0.79803466796875 -0.1351318359375
4300000000.0 0.68255615234375 -0.414337158203125
4400000000.0 0.4693603515625 -0.628936767578125
4500000000.0 0.189788818359375 -0.74481201171875
4600000000.0 -0.112152099609375 -0.742645263671875
4700000000.0 -0.387725830078125 -0.622161865234375
4800000000.0 -0.5914306640625 -0.4036865234375
4900000000.0 -0.690185546875 -0.125
5000000000.0 -0.6695556640625 0.166290283203125
5100000000.0 -0.53680419921875 0.42156982421875
5200000000.0 -0.3175048828125 0.600921630859375
5300000000.0 -0.04962158203125 0.678985595703125
5400000000.0 0.223419189453125 0.648193359375
5500000000.0 0.461151123046875 0.517303466796875
5600000000.0 0.6307373046875 0.30926513671875
5700000000.0 0.710662841796875 0.055328369140625
5800000000.0 0.69287109375 -0.208526611328125
5900000000.0 0.58154296875 -0.44769287109375
6000000000.0 0.391998291015625 -0.631378173828125
6100000000.0 0.1492919921875 -0.736083984375
6200000000.0 -0.115997314453125 -0.7484130859375
6300000000.0 -0.37066650390625 -0.66552734375
6400000000.0 -0.580963134765625 -0.496368408203125
6500000000.0 -0.718505859375 -0.26055908203125
6600000000.0 -0.761932373046875 0.01190185546875
6700000000.0 -0.70257568359375 0.28424072265625
6800000000.0 -0.54486083984375 0.517486572265625
6900000000.0 -0.309173583984375 0.675384521484375
7000000000.0 -0.0301513671875 0.73101806640625
7100000000.0 0.2486572265625 0.67486572265625
7200000000.0 0.482696533203125 0.5140380859375
7300000000.0 0.6314697265625 0.276397705078125
7400000000.0 0.674102783203125 0.007171630859375
7500000000.0 0.6153564453125 -0.252716064453125
7600000000.0 0.46435546875 -0.471099853515625
7700000000.0 0.240386962890625 -0.613555908203125
7800000000.0 -0.0181884765625 -0.656646728515625
7900000000.0 -0.268646240234375 -0.5977783203125
8000000000.0 -0.4743499755859375 -0.451416015625
8100000000.0 -0.60833740234375 -0.2430419921875
8200000000.0 -0.655792236328125 -0.00396728515625
8300000000.0 -0.613677978515625 0.23291015625
8400000000.0 -0.4907989501953125 0.4366607666015625
8500000000.0 -0.304534912109375 0.582275390625
8600000000.0 -0.079193115234375 0.65179443359375
8700000000.0 0.156219482421875 0.636383056640625
8800000000.0 0.371429443359375 0.53704833984375
8900000000.0 0.537261962890625 0.365570068359375
9000000000.0 0.629913330078125 0.143646240234375
9100000000.0 0.634002685546875 -0.099334716796875
9200000000.0 0.54620361328125 -0.328338623046875
9300000000.0 0.377288818359375 -0.50927734375
9400000000.0 0.149810791015625 -0.614532470703125
9500000000.0 -0.10528564453125 -0.623565673828125
9600000000.0 -0.34619140625 -0.52862548828125
9700000000.0 -0.528533935546875 -0.343170166015625
9800000000.0 -0.618804931640625 -0.10125732421875
9900000000.0 -0.604156494140625 0.15289306640625
10000000000.0 -0.491058349609375 0.3756866455078125
10100000000.0 -0.303253173828125 0.532012939453125
10200000000.0 -0.074981689453125 0.600372314453125
10300000000.0 0.15582275390625 0.575592041015625
10400000000.0 0.3535003662109375 0.4664154052734375
10500000000.0 0.4899749755859375 0.294830322265625
10600000000.0 0.548858642578125 0.091156005859375
10700000000.0 0.5272216796875 -0.112274169921875
10800000000.0 0.435577392578125 -0.285400390625
10900000000.0 0.29351806640625 -0.408599853515625
11000000000.0 0.1251220703125 -0.4720001220703125
11100000000.0 -0.0496826171875 -0.4740142822265625
11200000000.0 -0.2115478515625 -0.418304443359375
11300000000.0 -0.3433685302734375 -0.313690185546875
11400000000.0 -0.434234619140625 -0.173004150390625
11500000000.0 -0.4766845703125 -0.0074920654296875
11600000000.0 -0.4616241455078125 0.1708221435546875
11700000000.0 -0.3802337646484375 0.3415069580078125
11800000000.0 -0.2341461181640625 0.4764556884765625
11900000000.0 -0.040008544921875 0.5482177734375
12000000000.0 0.172393798828125 0.5394287109375
12100000000.0 0.368621826171875 0.44830322265625
12200000000.0 0.51708984375 0.28765869140625
12300000000.0 0.594635009765625 0.0814208984375
12400000000.0 0.5894775390625 -0.13958740234375
12500000000.0 0.5023193359375 -0.343231201171875
12600000000.0 0.34588623046875 -0.50048828125
12700000000.0 0.142547607421875 -0.588653564453125
12800000000.0 -0.0792236328125 -0.595245361328125
12900000000.0 -0.28680419921875 -0.518798828125
13000000000.0 -0.45037841796875 -0.3707427978515625
13100000000.0 -0.54571533203125 -0.172576904296875
13200000000.0 -0.5582275390625 0.045867919921875
13300000000.0 -0.48651123046875 0.25103759765625
13400000000.0 -0.342254638671875 0.411285400390625
13500000000.0 -0.14898681640625 0.501953125
13600000000.0 0.061676025390625 0.510009765625
13700000000.0 0.256439208984375 0.43609619140625
13800000000.0 0.40484619140625 0.2944488525390625
13900000000.0 0.4855499267578125 0.109405517578125
14000000000.0 0.4891815185546875 -0.08941650390625
14100000000.0 0.418365478515625 -0.271759033203125
14200000000.0 0.28643798828125 -0.412078857421875
14300000000.0 0.1146087646484375 -0.4923553466796875
14400000000.0 -0.072265625 -0.50445556640625
14500000000.0 -0.248931884765625 -0.449066162109375
14600000000.0 -0.3929290771484375 -0.3354339599609375
14700000000.0 -0.4866485595703125 -0.17913818359375
14800000000.0 -0.519256591796875 -0.001861572265625
14900000000.0 -0.4868316650390625 0.1767730712890625
15000000000.0 -0.3936309814453125 0.3318328857421875
15100000000.0 -0.25079345703125 0.4439544677734375
15200000000.0 -0.076019287109375 0.4974212646484375
15300000000.0 0.107818603515625 0.48333740234375
15400000000.0 0.2749786376953125 0.4010772705078125
15500000000.0 0.401031494140625 0.2601318359375
15600000000.0 0.4639434814453125 0.0789337158203125
15700000000.0 0.451141357421875 -0.1159515380859375
15800000000.0 0.3606414794921875 -0.2925872802734375
15900000000.0 0.2043304443359375 -0.4195098876953125
16000000000.0 0.007171630859375 -0.4729156494140625
16100000000.0 -0.196319580078125 -0.4408721923828125
16200000000.0 -0.3693695068359375 -0.3289947509765625
16300000000.0 -0.4830169677734375 -0.1572113037109375
16400000000.0 -0.51812744140625 0.04400634765625
16500000000.0 -0.472869873046875 0.24053955078125
16600000000.0 -0.35748291015625 0.4021148681640625
16700000000.0 -0.193084716796875 0.506622314453125
16800000000.0 -0.00543212890625 0.542999267578125
16900000000.0 0.179168701171875 0.509368896484375
17000000000.0 0.33648681640625 0.41412353515625
17100000000.0 0.4475860595703125 0.272247314453125
17200000000.0 0.5008544921875 0.103668212890625
17300000000.0 0.49212646484375 -0.0696258544921875
17400000000.0 0.42437744140625 -0.225921630859375
17500000000.0 0.3079376220703125 -0.3463592529296875
17600000000.0 0.158935546875 -0.4162139892578125
17700000000.0 -0.0026397705078125 -0.4277801513671875
17800000000.0 -0.155181884765625 -0.38079833984375
17900000000.0 -0.2779693603515625 -0.2824554443359375
18000000000.0 -0.3544464111328125 -0.147613525390625
18100000000.0 -0.3744354248046875 0.0041961669921875
18200000000.0 -0.3356781005859375 0.150360107421875
18300000000.0 -0.2447509765625 0.2693939208984375
18400000000.0 -0.1159210205078125 0.3434906005859375
18500000000.0 0.030670166015625 0.3614959716796875
18600000000.0 0.1722869873046875 0.3211517333984375
18700000000.0 0.287109375 0.2290496826171875
18800000000.0 0.357330322265625 0.0995330810546875
18900000000.0 0.3724822998046875 -0.0479583740234375
19000000000.0 0.3295440673828125 -0.1913909912109375
19100000000.0 0.2339630126953125 -0.3089599609375
19200000000.0 0.09881591796875 -0.382080078125
19300000000.0 -0.0556182861328125 -0.3982391357421875
19400000000.0 -0.20599365234375 -0.354339599609375
19500000000.0 -0.3301239013671875 -0.2566070556640625
19600000000.0 -0.4100341796875 -0.1193695068359375
19700000000.0 -0.4347381591796875 0.038726806640625
19800000000.0 -0.4003753662109375 0.1964569091796875
19900000000.0 -0.3115081787109375 0.332672119140625
20000000000.0 -0.1785125732421875 0.4293212890625
20100000000.0 -0.018310546875 0.4728240966796875
20200000000.0 0.1478271484375 0.4562530517578125
20300000000.0 0.29888916015625 0.38104248046875
20400000000.0 0.413604736328125 0.2565155029296875
20500000000.0 0.4767608642578125 0.0988311767578125
20600000000.0 0.47943115234375 -0.0715179443359375
20700000000.0 0.42108154296875 -0.23065185546875
20800000000.0 0.3096160888671875 -0.35882568359375
20900000000.0 0.1605224609375 -0.43743896484375
21000000000.0 -0.0068511962890625 -0.4563751220703125
21100000000.0 -0.1681671142578125 -0.4126434326171875
21200000000.0 -0.30169677734375 -0.3116455078125
21300000000.0 -0.3870086669921875 -0.168853759765625
21400000000.0 -0.4111328125 -0.0043792724609375
21500000000.0 -0.3697967529296875 0.1563262939453125
21600000000.0 -0.2687225341796875 0.288421630859375
21700000000.0 -0.123199462890625 0.369842529296875
21800000000.0 0.0432586669921875 0.3870697021484375
21900000000.0 0.2036590576171875 0.3353118896484375
22000000000.0 0.330902099609375 0.2234954833984375
22100000000.0 0.4038238525390625 0.0696563720703125
22200000000.0 0.4104156494140625 -0.101348876953125
22300000000.0 0.3501434326171875 -0.261993408203125
22400000000.0 0.2332916259765625 -0.387664794921875
22500000000.0 0.0782470703125 -0.460113525390625
22600000000.0 -0.0914764404296875 -0.4701385498046875
22700000000.0 -0.252288818359375 -0.41827392578125
22800000000.0 -0.38214111328125 -0.313507080078125
22900000000.0 -0.4661865234375 -0.17144775390625
23000000000.0 -0.493988037109375 -0.0104827880859375
23100000000.0 -0.46356201171875 0.147705078125
23200000000.0 -0.37982177734375 0.283355712890625
23300000000.0 -0.25396728515625 0.378509521484375
23400000000.0 -0.103118896484375 0.4200439453125
23500000000.0 0.0509796142578125 0.4005584716796875
23600000000.0 0.1837615966796875 0.32208251953125
23700000000.0 0.2725982666015625 0.1966094970703125
23800000000.0 0.2997283935546875 0.045379638671875
23900000000.0 0.2589111328125 -0.102630615234375
24000000000.0 0.1566925048828125 -0.2189178466796875
24100000000.0 0.01214599609375 -0.2783355712890625
24200000000.0 -0.1451416015625 -0.2681427001953125
24300000000.0 -0.283935546875 -0.19061279296875
24400000000.0 -0.3775634765625 -0.0614166259765625
24500000000.0 -0.411651611328125 0.094512939453125
24600000000.0 -0.3831329345703125 0.2511138916015625
24700000000.0 -0.29931640625 0.38592529296875
24800000000.0 -0.1732635498046875 0.4825286865234375
24900000000.0 -0.02178955078125 0.529388427734375
25000000000.0 0.136199951171875 0.522918701171875
25100000000.0 0.2828521728515625 0.4645233154296875
25200000000.0 0.4009552001953125 0.3614654541015625
25300000000.0 0.4785614013671875 0.225433349609375
25400000000.0 0.505126953125 0.071533203125
25500000000.0 0.476959228515625 -0.081329345703125
25600000000.0 0.3961639404296875 -0.2136993408203125
25700000000.0 0.272186279296875 -0.3060455322265625
25800000000.0 0.123199462890625 -0.3426055908203125
25900000000.0 -0.02685546875 -0.31549072265625
26000000000.0 -0.1501007080078125 -0.228485107421875
26100000000.0 -0.22289276123046875 -0.09755706787109375
26200000000.0 -0.23012542724609375 0.05078887939453125
26300000000.0 -0.171844482421875 0.18636322021484375
26400000000.0 -0.0609893798828125 0.28277587890625
26500000000.0 0.0798492431640625 0.32379150390625
