!Created with skrf (http://scikit-rf.org).
# Hz S RI R 50.0 
!freq ReS11 ImS11
30000.0 0.30828857421875 -0.385345458984375
31000.0 0.2977752685546875 -0.3787689208984375
33000.0 0.2786102294921875 -0.3659515380859375
36000.0 0.254302978515625 -0.34735107421875
41000.0 0.2225341796875 -0.3188629150390625
48500.0 0.1891021728515625 -0.28216552734375
58000.0 0.161651611328125 -0.2447509765625
70000.0 0.1402740478515625 -0.208648681640625
84000.0 0.12518310546875 -0.1774139404296875
100000.0 0.1145172119140625 -0.1509857177734375
125000.0 0.10515213012695312 -0.12235641479492188
150000.0 0.09994888305664062 -0.10277175903320312
175000.0 0.09671401977539062 -0.08850860595703125
200000.0 0.09459686279296875 -0.07770919799804688
225000.0 0.093109130859375 -0.06923675537109375
250000.0 0.09207534790039062 -0.062427520751953125
275000.0 0.09128952026367188 -0.056835174560546875
300000.0 0.09070205688476562 -0.052135467529296875
325000.0 0.09021377563476562 -0.048183441162109375
350000.0 0.08984756469726562 -0.0447845458984375
375000.0 0.08952713012695312 -0.041843414306640625
400000.0 0.08927536010742188 -0.039249420166015625
425000.0 0.08907699584960938 -0.036968231201171875
450000.0 0.0889129638671875 -0.034931182861328125
475000.0 0.0887603759765625 -0.03310394287109375
500000.0 0.088623046875 -0.031467437744140625
525000.0 0.0885467529296875 -0.029987335205078125
550000.0 0.08843994140625 -0.028644561767578125
575000.0 0.08835220336914062 -0.027393341064453125
600000.0 0.08826446533203125 -0.026264190673828125
625000.0 0.08820343017578125 -0.025238037109375
650000.0 0.08816146850585938 -0.0242767333984375
675000.0 0.08810806274414062 -0.0233917236328125
700000.0 0.08806228637695312 -0.022586822509765625
725000.0 0.08802413940429688 -0.021808624267578125
750000.0 0.08797836303710938 -0.021099090576171875
775000.0 0.08794021606445312 -0.02042388916015625
800000.0 0.08790206909179688 -0.01979827880859375
825000.0 0.087890625 -0.0192108154296875
850000.0 0.08785629272460938 -0.018657684326171875
875000.0 0.08785629272460938 -0.018123626708984375
900000.0 0.08781051635742188 -0.017650604248046875
925000.0 0.08779525756835938 -0.017177581787109375
950000.0 0.08777999877929688 -0.016735076904296875
975000.0 0.08775711059570312 -0.0163116455078125
1000000.0 0.08774185180664062 -0.01590728759765625
1030000.0 0.08772659301757812 -0.01544952392578125
1060000.0 0.08770751953125 -0.015041351318359375
1110000.0 0.0876922607421875 -0.014385223388671875
1170000.0 0.087646484375 -0.013675689697265625
1250000.0 0.08763885498046875 -0.012813568115234375
1350000.0 0.08761978149414062 -0.0119171142578125
1500000.0 0.08758163452148438 -0.0107879638671875
1700000.0 0.08757781982421875 -0.009586334228515625
1950000.0 0.08752822875976562 -0.008453369140625
2250000.0 0.0875396728515625 -0.007442474365234375
2750000.0 0.08751678466796875 -0.006275177001953125
3500000.0 0.087554931640625 -0.00521087646484375
4500000.0 0.08754730224609375 -0.00444793701171875
6000000.0 0.08758163452148438 -0.00389862060546875
8000000.0 0.08759307861328125 -0.0037384033203125
11000000.0 0.08763504028320312 -0.003894805908203125
15500000.0 0.08761978149414062 -0.004573822021484375
22000000.0 0.08760833740234375 -0.00588226318359375
30000000.0 0.08750534057617188 -0.00768280029296875
40000000.0 0.08725738525390625 -0.010101318359375
52500000.0 0.0868682861328125 -0.01328277587890625
68000000.0 0.08629226684570312 -0.017330169677734375
86500000.0 0.08542633056640625 -0.0221405029296875
106000000.0 0.08429718017578125 -0.027095794677734375
127500000.0 0.08259201049804688 -0.0323486328125
152000000.0 0.07994842529296875 -0.03815460205078125
180000000.0 0.076202392578125 -0.044857025146484375
214000000.0 0.07130813598632812 -0.052822113037109375
254000000.0 0.06479644775390625 -0.06092071533203125
300000000.0 0.05524688959121704 -0.06899642944335938
350000000.0 0.043863050639629364 -0.07702440023422241
400000000.0 0.0316460095345974 -0.08260807394981384
450000000.0 0.017954634502530098 -0.08632167428731918
500000000.0 0.004231833387166262 -0.08817260712385178
550000000.0 -0.009762409143149853 -0.0873696357011795
600000000.0 -0.023729143664240837 -0.08463744074106216
650000000.0 -0.036930203437805176 -0.07946164906024933
700000000.0 -0.04935455322265625 -0.07209014892578125
750000000.0 -0.060520172119140625 -0.06270599365234375
800000000.0 -0.070343017578125 -0.051605224609375
850000000.0 -0.07820510864257812 -0.039012908935546875
900000000.0 -0.08377456665039062 -0.02520751953125
950000000.0 -0.08701705932617188 -0.0103759765625
1000000000.0 -0.08790969848632812 0.004962921142578125
1050000000.0 -0.0861663818359375 0.020320892333984375
1100000000.0 -0.08171844482421875 0.0354461669921875
1150000000.0 -0.074798583984375 0.04996490478515625
1200000000.0 -0.06555938720703125 0.06340789794921875
1250000000.0 -0.05411529541015625 0.0751495361328125
1300000000.0 -0.040523529052734375 0.08493423461914062
1350000000.0 -0.025257110595703125 0.09247207641601562
1400000000.0 -0.008586883544921875 0.09741973876953125
1450000000.0 0.008930206298828125 0.0995635986328125
1500000000.0 0.026859283447265625 0.09860992431640625
1550000000.0 0.044757843017578125 0.094512939453125
1600000000.0 0.062225341796875 0.08731842041015625
1650000000.0 0.078582763671875 0.0771331787109375
1700000000.0 0.0931549072265625 0.06401824951171875
1750000000.0 0.10565948486328125 0.04816436767578125
1800000000.0 0.11563873291015625 0.030029296875
1850000000.0 0.12261199951171875 0.01004791259765625
1900000000.0 0.126129150390625 -0.01126861572265625
1950000000.0 0.1260833740234375 -0.0335540771484375
2000000000.0 0.12239456176757812 -0.055942535400390625
2050000000.0 0.11463546752929688 -0.0778961181640625
2100000000.0 0.10304641723632812 -0.09878921508789062
2150000000.0 0.08795547485351562 -0.1181182861328125
2200000000.0 0.06951904296875 -0.1349029541015625
2250000000.0 0.0478363037109375 -0.14873504638671875
2300000000.0 0.0236663818359375 -0.159271240234375
2350000000.0 -0.0023651123046875 -0.1658782958984375
2400000000.0 -0.02972412109375 -0.16811370849609375
2450000000.0 -0.05785369873046875 -0.1658782958984375
2500000000.0 -0.08582305908203125 -0.1591339111328125
2550000000.0 -0.11286163330078125 -0.14766693115234375
2600000000.0 -0.13834381103515625 -0.1316986083984375
2650000000.0 -0.16131591796875 -0.11156463623046875
2700000000.0 -0.1812896728515625 -0.0875091552734375
2750000000.0 -0.19756317138671875 -0.060150146484375
2800000000.0 -0.209503173828125 -0.03006744384765625
2850000000.0 -0.21672821044921875 0.00200653076171875
2900000000.0 -0.21907806396484375 0.0354766845703125
2950000000.0 -0.21630096435546875 0.06919097900390625
3000000000.0 -0.20796966552734375 0.1026763916015625
3050000000.0 -0.194671630859375 0.13516998291015625
3100000000.0 -0.1764678955078125 0.165557861328125
3150000000.0 -0.1535186767578125 0.1930999755859375
3200000000.0 -0.12625885009765625 0.217437744140625
3250000000.0 -0.095550537109375 0.237823486328125
3300000000.0 -0.061737060546875 0.2534332275390625
3350000000.0 -0.02532958984375 0.2642364501953125
3400000000.0 0.0126495361328125 0.2697601318359375
3450000000.0 0.0514373779296875 0.26971435546875
3500000000.0 0.090362548828125 0.2638702392578125
3550000000.0 0.1287384033203125 0.252349853515625
3600000000.0 0.1654205322265625 0.23532867431640625
3650000000.0 0.1996002197265625 0.21265411376953125
3700000000.0 0.230712890625 0.18495941162109375
3750000000.0 0.2577667236328125 0.15252685546875
3800000000.0 0.2799072265625 0.1160736083984375
3850000000.0 0.29656982421875 0.0761566162109375
3900000000.0 0.307342529296875 0.033935546875
3950000000.0 0.3116912841796875 -0.009674072265625
4000000000.0 0.309478759765625 -0.0536346435546875
4050000000.0 0.3007049560546875 -0.0968475341796875
4100000000.0 0.28594970703125 -0.1382293701171875
4150000000.0 0.2655181884765625 -0.1766815185546875
4200000000.0 0.24015045166015625 -0.21204376220703125
4250000000.0 0.21067047119140625 -0.24358367919921875
4300000000.0 0.1776123046875 -0.2711334228515625
4350000000.0 0.1411590576171875 -0.2946929931640625
4400000000.0 0.101409912109375 -0.314056396484375
4450000000.0 0.05865478515625 -0.3284149169921875
4500000000.0 0.0130615234375 -0.336944580078125
4550000000.0 -0.034454345703125 -0.3391265869140625
4600000000.0 -0.08270263671875 -0.33404541015625
4650000000.0 -0.1304168701171875 -0.3213043212890625
4700000000.0 -0.1763153076171875 -0.301116943359375
4750000000.0 -0.21868896484375 -0.2740020751953125
4800000000.0 -0.256378173828125 -0.240203857421875
4850000000.0 -0.2887115478515625 -0.20111083984375
4900000000.0 -0.3143463134765625 -0.157562255859375
4950000000.0 -0.3328399658203125 -0.110626220703125
5000000000.0 -0.34393310546875 -0.0616302490234375
5050000000.0 -0.34759521484375 -0.01202392578125
5100000000.0 -0.3433074951171875 0.0370025634765625
5150000000.0 -0.3317718505859375 0.0846405029296875
5200000000.0 -0.3136138916015625 0.1291656494140625
5250000000.0 -0.2890625 0.1697235107421875
5300000000.0 -0.2590484619140625 0.2057342529296875
5350000000.0 -0.22467041015625 0.2362518310546875
5400000000.0 -0.186859130859375 0.260589599609375
5450000000.0 -0.14654541015625 0.2784576416015625
5500000000.0 -0.1048736572265625 0.289886474609375
5550000000.0 -0.0636138916015625 0.294677734375
5600000000.0 -0.0225372314453125 0.292999267578125
5650000000.0 0.0162353515625 0.2856903076171875
5700000000.0 0.0523834228515625 0.27288818359375
5750000000.0 0.085113525390625 0.25531005859375
5800000000.0 0.11383819580078125 0.233734130859375
5850000000.0 0.13796234130859375 0.2088470458984375
5900000000.0 0.15700531005859375 0.18149566650390625
5950000000.0 0.17066192626953125 0.1527557373046875
6000000000.0 0.17899322509765625 0.1236419677734375
6050000000.0 0.18218231201171875 0.09539031982421875
6100000000.0 0.1806488037109375 0.06882476806640625
6150000000.0 0.17498779296875 0.04461669921875
6200000000.0 0.165985107421875 0.02352142333984375
6250000000.0 0.1545562744140625 0.00614166259765625
6300000000.0 0.14118194580078125 -0.007293701171875
6350000000.0 0.1273345947265625 -0.01696014404296875
6400000000.0 0.11382675170898438 -0.0225830078125
6450000000.0 0.10126876831054688 -0.024566650390625
6500000000.0 0.090576171875 -0.023632049560546875
6550000000.0 0.08252334594726562 -0.02019500732421875
6600000000.0 0.0773162841796875 -0.0149993896484375
6650000000.0 0.07524871826171875 -0.009143829345703125
6700000000.0 0.0767059326171875 -0.0034637451171875
6750000000.0 0.08123397827148438 0.0013275146484375
6800000000.0 0.08843994140625 0.004154205322265625
6850000000.0 0.0980224609375 0.004253387451171875
6900000000.0 0.10916519165039062 0.00142669677734375
6950000000.0 0.12091064453125 -0.00485992431640625
7000000000.0 0.13266754150390625 -0.0150604248046875
7050000000.0 0.1438140869140625 -0.02886199951171875
7100000000.0 0.15312957763671875 -0.0461273193359375
7150000000.0 0.159912109375 -0.06716156005859375
7200000000.0 0.16358184814453125 -0.09120941162109375
7250000000.0 0.1630706787109375 -0.11754608154296875
7300000000.0 0.1576385498046875 -0.1457061767578125
7350000000.0 0.1470184326171875 -0.174774169921875
7400000000.0 0.13086700439453125 -0.2033233642578125
7450000000.0 0.10887908935546875 -0.23044586181640625
7500000000.0 0.081451416015625 -0.2551422119140625
7550000000.0 0.048919677734375 -0.275970458984375
7600000000.0 0.0118560791015625 -0.292205810546875
7650000000.0 -0.029022216796875 -0.302764892578125
7700000000.0 -0.07281494140625 -0.306884765625
7750000000.0 -0.1183013916015625 -0.3039703369140625
7800000000.0 -0.164276123046875 -0.29376220703125
7850000000.0 -0.209014892578125 -0.276153564453125
7900000000.0 -0.2520294189453125 -0.250885009765625
7950000000.0 -0.291473388671875 -0.218658447265625
8000000000.0 -0.326171875 -0.1798553466796875
8050000000.0 -0.355194091796875 -0.1352081298828125
8100000000.0 -0.3773956298828125 -0.085845947265625
8150000000.0 -0.39190673828125 -0.0330047607421875
8200000000.0 -0.3981781005859375 0.0225372314453125
8250000000.0 -0.3961181640625 0.07891845703125
8300000000.0 -0.385009765625 0.1346282958984375
8350000000.0 -0.36541748046875 0.188690185546875
8400000000.0 -0.3376617431640625 0.2393798828125
8450000000.0 -0.3022613525390625 0.2851715087890625
8500000000.0 -0.260162353515625 0.325103759765625
8550000000.0 -0.2124176025390625 0.3583221435546875
8600000000.0 -0.16015625 0.3833770751953125
8650000000.0 -0.104522705078125 0.4002685546875
8700000000.0 -0.0472259521484375 0.40789794921875
8750000000.0 0.01031494140625 0.406158447265625
8800000000.0 0.066497802734375 0.3950042724609375
8850000000.0 0.1193695068359375 0.3748016357421875
8900000000.0 0.166839599609375 0.34613037109375
8950000000.0 0.207427978515625 0.310211181640625
9000000000.0 0.2398681640625 0.269439697265625
9050000000.0 0.2633819580078125 0.2257843017578125
9100000000.0 0.2782745361328125 0.1810760498046875
