!Created with skrf (http://scikit-rf.org).
# Hz S RI R 50.0 
!freq ReS11 ImS11
1000000000.0 0.61590576171875 0.610382080078125
1100000000.0 0.764190673828125 0.412933349609375
1200000000.0 0.84979248046875 0.18792724609375
1300000000.0 0.871368408203125 -0.0472412109375
1400000000.0 0.830352783203125 -0.276214599609375
1500000000.0 0.7325439453125 -0.484527587890625
1600000000.0 0.58538818359375 -0.65911865234375
1700000000.0 0.399749755859375 -0.7896728515625
1800000000.0 0.188079833984375 -0.868316650390625
1900000000.0 -0.035308837890625 -0.891021728515625
2000000000.0 -0.256378173828125 -0.857391357421875
2100000000.0 -0.461639404296875 -0.769866943359375
2200000000.0 -0.638031005859375 -0.63470458984375
2300000000.0 -0.775665283203125 -0.461090087890625
2400000000.0 -0.866119384765625 -0.25909423828125
2500000000.0 -0.904327392578125 -0.042022705078125
2600000000.0 -0.88861083984375 0.177490234375
2700000000.0 -0.820068359375 0.385833740234375
2800000000.0 -0.703582763671875 0.5704345703125
2900000000.0 -0.54681396484375 0.72119140625
3000000000.0 -0.359375 0.82940673828125
3100000000.0 -0.15167236328125 0.890869140625
3200000000.0 0.066864013671875 0.89862060546875
3300000000.0 0.277252197265625 0.85198974609375
3400000000.0 0.4688720703125 0.757659912109375
3500000000.0 0.632080078125 0.6209716796875
3600000000.0 0.757415771484375 0.44970703125
3700000000.0 0.83746337890625 0.253570556640625
3800000000.0 0.86737060546875 0.04449462890625
3900000000.0 0.84576416015625 -0.165130615234375
4000000000.0 0.7735595703125 -0.362518310546875
4100000000.0 0.655242919921875 -0.53570556640625
4200000000.0 0.498443603515625 -0.673736572265625
4300000000.0 0.3126220703125 -0.76812744140625
4400000000.0 0.1099853515625 -0.81304931640625
4500000000.0 -0.096771240234375 -0.805572509765625
4600000000.0 -0.294158935546875 -0.746337890625
4700000000.0 -0.469207763671875 -0.639678955078125
4800000000.0 -0.610595703125 -0.49249267578125
4900000000.0 -0.709228515625 -0.315185546875
5000000000.0 -0.7586669921875 -0.11981201171875
5100000000.0 -0.756439208984375 0.08038330078125
5200000000.0 -0.703277587890625 0.271820068359375
5300000000.0 -0.603546142578125 0.44207763671875
5400000000.0 -0.464630126953125 0.57958984375
5500000000.0 -0.2965087890625 0.67645263671875
5600000000.0 -0.110595703125 0.7265625
5700000000.0 0.080352783203125 0.727783203125
5800000000.0 0.2637939453125 0.680511474609375
5900000000.0 0.427886962890625 0.5894775390625
6000000000.0 0.56256103515625 0.461273193359375
6100000000.0 0.659820556640625 0.305419921875
6200000000.0 0.716552734375 0.132781982421875
6300000000.0 0.73126220703125 -0.05035400390625
6400000000.0 0.697174072265625 -0.232177734375
6500000000.0 0.619110107421875 -0.397796630859375
6600000000.0 0.503631591796875 -0.537750244140625
6700000000.0 0.358489990234375 -0.64471435546875
6800000000.0 0.192413330078125 -0.713134765625
6900000000.0 0.01568603515625 -0.739471435546875
7000000000.0 -0.161712646484375 -0.722808837890625
7100000000.0 -0.32904052734375 -0.664703369140625
7200000000.0 -0.477691650390625 -0.568939208984375
7300000000.0 -0.598876953125 -0.44140625
7400000000.0 -0.68646240234375 -0.28936767578125
7500000000.0 -0.73602294921875 -0.12127685546875
7600000000.0 -0.7447509765625 0.053314208984375
7700000000.0 -0.7122802734375 0.22509765625
7800000000.0 -0.640594482421875 0.384552001953125
7900000000.0 -0.5335693359375 0.52288818359375
8000000000.0 -0.397247314453125 0.632598876953125
8100000000.0 -0.238677978515625 0.707427978515625
8200000000.0 -0.066436767578125 0.7430419921875
8300000000.0 0.109832763671875 0.73687744140625
8400000000.0 0.280242919921875 0.689117431640625
8500000000.0 0.434722900390625 0.60205078125
8600000000.0 0.564849853515625 0.47967529296875
8700000000.0 0.6619873046875 0.3291015625
8800000000.0 0.719970703125 0.158599853515625
8900000000.0 0.734649658203125 -0.021728515625
9000000000.0 0.7044677734375 -0.20086669921875
9100000000.0 0.630706787109375 -0.367340087890625
9200000000.0 0.51776123046875 -0.510223388671875
9300000000.0 0.3746337890625 -0.620697021484375
9400000000.0 0.20941162109375 -0.696319580078125
9500000000.0 0.024688720703125 -0.729156494140625
9600000000.0 -0.163848876953125 -0.710845947265625
9700000000.0 -0.340179443359375 -0.64385986328125
9800000000.0 -0.492767333984375 -0.534576416015625
9900000000.0 -0.611907958984375 -0.390625
10000000000.0 -0.69000244140625 -0.221954345703125
10100000000.0 -0.72283935546875 -0.0396728515625
10200000000.0 -0.708740234375 0.1439208984375
10300000000.0 -0.649383544921875 0.316925048828125
10400000000.0 -0.549468994140625 0.468292236328125
10500000000.0 -0.416900634765625 0.589324951171875
10600000000.0 -0.258392333984375 0.672332763671875
10700000000.0 -0.086273193359375 0.714019775390625
10800000000.0 0.089630126953125 0.712127685546875
10900000000.0 0.25885009765625 0.668792724609375
11000000000.0 0.409942626953125 0.58465576171875
11100000000.0 0.536346435546875 0.467926025390625
11200000000.0 0.630218505859375 0.324981689453125
11300000000.0 0.68646240234375 0.1646728515625
11400000000.0 0.702484130859375 -0.003692626953125
11500000000.0 0.677642822265625 -0.170074462890625
11600000000.0 0.613861083984375 -0.324859619140625
11700000000.0 0.515106201171875 -0.459381103515625
11800000000.0 0.3870849609375 -0.56549072265625
11900000000.0 0.23773193359375 -0.63751220703125
12000000000.0 0.0758056640625 -0.6707763671875
12100000000.0 -0.08856201171875 -0.6632080078125
12200000000.0 -0.2457275390625 -0.616058349609375
12300000000.0 -0.385345458984375 -0.5318603515625
12400000000.0 -0.498992919921875 -0.4169158935546875
12500000000.0 -0.58026123046875 -0.280303955078125
12600000000.0 -0.6297607421875 -0.12921142578125
12700000000.0 -0.64141845703125 0.033660888671875
12800000000.0 -0.608917236328125 0.195892333984375
12900000000.0 -0.53509521484375 0.34326171875
13000000000.0 -0.426483154296875 0.465850830078125
13100000000.0 -0.29095458984375 0.55621337890625
13200000000.0 -0.137481689453125 0.60870361328125
13300000000.0 0.0234375 0.6204833984375
13400000000.0 0.181365966796875 0.591064453125
13500000000.0 0.3258056640625 0.52288818359375
13600000000.0 0.4475250244140625 0.42059326171875
13700000000.0 0.5391845703125 0.291412353515625
13800000000.0 0.594818115234375 0.144195556640625
13900000000.0 0.611328125 -0.01141357421875
14000000000.0 0.588592529296875 -0.16546630859375
14100000000.0 0.528533935546875 -0.30804443359375
14200000000.0 0.4354400634765625 -0.430511474609375
14300000000.0 0.315826416015625 -0.525360107421875
14400000000.0 0.177581787109375 -0.587738037109375
14500000000.0 0.02923583984375 -0.61431884765625
14600000000.0 -0.12017822265625 -0.60443115234375
14700000000.0 -0.26177978515625 -0.55889892578125
14800000000.0 -0.38726806640625 -0.481658935546875
14900000000.0 -0.4903106689453125 -0.3776397705078125
15000000000.0 -0.565155029296875 -0.253143310546875
15100000000.0 -0.608551025390625 -0.115875244140625
15200000000.0 -0.61846923828125 0.026611328125
15300000000.0 -0.594085693359375 0.16650390625
15400000000.0 -0.53900146484375 0.295654296875
15500000000.0 -0.4562835693359375 0.4072265625
15600000000.0 -0.3526611328125 0.494964599609375
15700000000.0 -0.235443115234375 0.558929443359375
15800000000.0 -0.10516357421875 0.597564697265625
15900000000.0 0.0340576171875 0.6048583984375
16000000000.0 0.171051025390625 0.577545166015625
16100000000.0 0.296783447265625 0.518585205078125
16200000000.0 0.404571533203125 0.431549072265625
16300000000.0 0.4884185791015625 0.3220367431640625
16400000000.0 0.54400634765625 0.196380615234375
16500000000.0 0.5679931640625 0.06109619140625
16600000000.0 0.55908203125 -0.07562255859375
16700000000.0 0.51715087890625 -0.206390380859375
16800000000.0 0.444854736328125 -0.3227996826171875
16900000000.0 0.34674072265625 -0.4180145263671875
17000000000.0 0.2280120849609375 -0.4862213134765625
17100000000.0 0.09674072265625 -0.5225830078125
17200000000.0 -0.03948974609375 -0.525390625
17300000000.0 -0.1717987060546875 -0.4941864013671875
17400000000.0 -0.2918243408203125 -0.4307403564453125
17500000000.0 -0.391845703125 -0.339141845703125
17600000000.0 -0.465301513671875 -0.22528076171875
17700000000.0 -0.507598876953125 -0.096954345703125
17800000000.0 -0.516143798828125 0.037811279296875
17900000000.0 -0.490081787109375 0.17010498046875
18000000000.0 -0.43157958984375 0.2910003662109375
18100000000.0 -0.344573974609375 0.3929595947265625
18200000000.0 -0.234619140625 0.4694976806640625
18300000000.0 -0.10943603515625 0.51531982421875
18400000000.0 0.02288818359375 0.528106689453125
18500000000.0 0.153472900390625 0.507293701171875
18600000000.0 0.274261474609375 0.4552001953125
18700000000.0 0.3787384033203125 0.375701904296875
18800000000.0 0.4619903564453125 0.2728729248046875
18900000000.0 0.518157958984375 0.150726318359375
19000000000.0 0.54193115234375 0.016571044921875
19100000000.0 0.5303955078125 -0.120452880859375
19200000000.0 0.483612060546875 -0.250885009765625
19300000000.0 0.4049224853515625 -0.365478515625
19400000000.0 0.2990875244140625 -0.4563751220703125
19500000000.0 0.1729736328125 -0.517547607421875
19600000000.0 0.0352783203125 -0.544708251953125
19700000000.0 -0.10546875 -0.53564453125
19800000000.0 -0.23931884765625 -0.490692138671875
19900000000.0 -0.3577117919921875 -0.4130401611328125
20000000000.0 -0.4524078369140625 -0.30731201171875
20100000000.0 -0.5169677734375 -0.180938720703125
20200000000.0 -0.5477294921875 -0.04229736328125
20300000000.0 -0.5421142578125 0.09912109375
20400000000.0 -0.499786376953125 0.2360687255859375
20500000000.0 -0.424652099609375 0.3565521240234375
20600000000.0 -0.3213348388671875 0.4541168212890625
20700000000.0 -0.19677734375 0.52276611328125
20800000000.0 -0.05926513671875 0.558197021484375
20900000000.0 0.083160400390625 0.55694580078125
21000000000.0 0.22021484375 0.52105712890625
21100000000.0 0.3443145751953125 0.4512939453125
21200000000.0 0.447296142578125 0.3546905517578125
21300000000.0 0.5228271484375 0.234771728515625
21400000000.0 0.5665283203125 0.100433349609375
21500000000.0 0.5758056640625 -0.040313720703125
21600000000.0 0.55047607421875 -0.177825927734375
21700000000.0 0.493560791015625 -0.3043060302734375
21800000000.0 0.4095306396484375 -0.4124603271484375
21900000000.0 0.304595947265625 -0.4982757568359375
22000000000.0 0.182403564453125 -0.559417724609375
22100000000.0 0.0478515625 -0.59136962890625
22200000000.0 -0.091217041015625 -0.590240478515625
22300000000.0 -0.2257080078125 -0.55535888671875
22400000000.0 -0.34771728515625 -0.4903717041015625
22500000000.0 -0.4503936767578125 -0.3994293212890625
22600000000.0 -0.52838134765625 -0.287872314453125
22700000000.0 -0.578338623046875 -0.162445068359375
22800000000.0 -0.597503662109375 -0.029937744140625
22900000000.0 -0.586700439453125 0.10211181640625
23000000000.0 -0.545654296875 0.227447509765625
23100000000.0 -0.4776153564453125 0.3389129638671875
23200000000.0 -0.3864288330078125 0.4312591552734375
23300000000.0 -0.2769775390625 0.4995269775390625
23400000000.0 -0.155303955078125 0.540252685546875
23500000000.0 -0.02777099609375 0.55059814453125
23600000000.0 0.097198486328125 0.529937744140625
23700000000.0 0.213165283203125 0.4797210693359375
23800000000.0 0.3123016357421875 0.402435302734375
23900000000.0 0.3887481689453125 0.303558349609375
24000000000.0 0.4372100830078125 0.1883544921875
24100000000.0 0.453857421875 0.0646820068359375
24200000000.0 0.437103271484375 -0.0592041015625
24300000000.0 0.3868255615234375 -0.173828125
24400000000.0 0.3067779541015625 -0.2699737548828125
24500000000.0 0.20294189453125 -0.3399505615234375
24600000000.0 0.083648681640625 -0.377288818359375
24700000000.0 -0.04107666015625 -0.379119873046875
24800000000.0 -0.1604156494140625 -0.3446044921875
24900000000.0 -0.26385498046875 -0.278167724609375
25000000000.0 -0.344207763671875 -0.1865234375
25100000000.0 -0.39697265625 -0.077850341796875
25200000000.0 -0.420745849609375 0.0422515869140625
25300000000.0 -0.4112701416015625 0.1673583984375
25400000000.0 -0.3673095703125 0.2865753173828125
25500000000.0 -0.2922210693359375 0.390869140625
25600000000.0 -0.1918182373046875 0.4715118408203125
25700000000.0 -0.074127197265625 0.52386474609375
25800000000.0 0.053192138671875 0.5452880859375
25900000000.0 0.1812744140625 0.534912109375
26000000000.0 0.3039703369140625 0.4946746826171875
26100000000.0 0.413482666015625 0.4271392822265625
26200000000.0 0.50457763671875 0.336517333984375
26300000000.0 0.573455810546875 0.228057861328125
26400000000.0 0.61669921875 0.1077880859375
26500000000.0 0.63299560546875 -0.0196533203125
