!Created with skrf (http://scikit-rf.org).
# Hz S RI R 50.0 
!freq ReS11 ImS11
30000.0 0.4480438232421875 -0.21649169921875
31000.0 0.4431610107421875 -0.2113189697265625
33000.0 0.4346923828125 -0.201751708984375
36000.0 0.42425537109375 -0.1885986328125
41000.0 0.41107177734375 -0.1697845458984375
48500.0 0.3978118896484375 -0.147308349609375
58000.0 0.387115478515625 -0.125701904296875
70000.0 0.3792724609375 -0.105804443359375
84000.0 0.3737030029296875 -0.08929443359375
100000.0 0.369964599609375 -0.0756683349609375
125000.0 0.366485595703125 -0.06109619140625
150000.0 0.36456298828125 -0.051177978515625
175000.0 0.36346435546875 -0.04412841796875
200000.0 0.362701416015625 -0.038726806640625
225000.0 0.362152099609375 -0.034576416015625
250000.0 0.36175537109375 -0.0311279296875
275000.0 0.361541748046875 -0.028533935546875
300000.0 0.3612823486328125 -0.026153564453125
325000.0 0.361053466796875 -0.024261474609375
350000.0 0.3609619140625 -0.022552490234375
375000.0 0.36083984375 -0.0211639404296875
400000.0 0.3607177734375 -0.0198822021484375
425000.0 0.3607025146484375 -0.0188751220703125
450000.0 0.3604736328125 -0.01788330078125
475000.0 0.36053466796875 -0.016998291015625
500000.0 0.3604888916015625 -0.0162200927734375
525000.0 0.3604583740234375 -0.0156097412109375
550000.0 0.3604583740234375 -0.0149993896484375
575000.0 0.3604583740234375 -0.0143890380859375
600000.0 0.360382080078125 -0.0138092041015625
625000.0 0.3603668212890625 -0.013427734375
650000.0 0.360321044921875 -0.012939453125
675000.0 0.36029052734375 -0.012542724609375
700000.0 0.3602447509765625 -0.0122528076171875
725000.0 0.360260009765625 -0.0118408203125
750000.0 0.3602294921875 -0.0115509033203125
775000.0 0.36029052734375 -0.01123046875
800000.0 0.360260009765625 -0.0110321044921875
825000.0 0.3602142333984375 -0.01068115234375
850000.0 0.3602142333984375 -0.010528564453125
875000.0 0.360198974609375 -0.010284423828125
900000.0 0.360198974609375 -0.010101318359375
925000.0 0.3601837158203125 -0.0098876953125
950000.0 0.3602142333984375 -0.009796142578125
975000.0 0.3601531982421875 -0.00958251953125
1000000.0 0.3601837158203125 -0.0093841552734375
1030000.0 0.3602447509765625 -0.0091705322265625
1060000.0 0.36016845703125 -0.0091400146484375
1110000.0 0.3602294921875 -0.0088348388671875
1170000.0 0.360107421875 -0.008514404296875
1250000.0 0.360198974609375 -0.0083160400390625
1350000.0 0.3601531982421875 -0.00799560546875
1500000.0 0.36016845703125 -0.007659912109375
1700000.0 0.3602294921875 -0.007354736328125
1950000.0 0.3601531982421875 -0.0072479248046875
2250000.0 0.3600921630859375 -0.0072174072265625
2750000.0 0.3601226806640625 -0.00750732421875
3500000.0 0.3601226806640625 -0.0080413818359375
4500000.0 0.360137939453125 -0.0094146728515625
6000000.0 0.3599700927734375 -0.011322021484375
8000000.0 0.3598785400390625 -0.01446533203125
11000000.0 0.3597259521484375 -0.0192413330078125
15500000.0 0.3591461181640625 -0.0267333984375
22000000.0 0.3581390380859375 -0.0374755859375
30000000.0 0.3563079833984375 -0.0509033203125
40000000.0 0.3531494140625 -0.0673828125
52500000.0 0.348175048828125 -0.0880279541015625
68000000.0 0.3404083251953125 -0.113006591796875
86500000.0 0.328887939453125 -0.1419830322265625
106000000.0 0.31414794921875 -0.171173095703125
127500000.0 0.2947235107421875 -0.2010650634765625
152000000.0 0.268829345703125 -0.2325897216796875
180000000.0 0.2347259521484375 -0.2646026611328125
214000000.0 0.1888275146484375 -0.2970733642578125
254000000.0 0.1297149658203125 -0.3245391845703125
300000000.0 0.05624546855688095 -0.34082692861557007
350000000.0 -0.02453921176493168 -0.34092944860458374
400000000.0 -0.10196812450885773 -0.3213995099067688
450000000.0 -0.17237067222595215 -0.28429415822029114
500000000.0 -0.2309202253818512 -0.2324802428483963
550000000.0 -0.27475476264953613 -0.16859176754951477
600000000.0 -0.30205222964286804 -0.0971958115696907
650000000.0 -0.3110233247280121 -0.0219742301851511
700000000.0 -0.3022003173828125 0.0520782470703125
750000000.0 -0.2761993408203125 0.1209564208984375
800000000.0 -0.235382080078125 0.180694580078125
850000000.0 -0.1820068359375 0.2281341552734375
900000000.0 -0.1197052001953125 0.2607421875
950000000.0 -0.0523681640625 0.27728271484375
1000000000.0 0.0155792236328125 0.2772979736328125
1050000000.0 0.080596923828125 0.2610015869140625
1100000000.0 0.13883209228515625 0.2301788330078125
1150000000.0 0.1869964599609375 0.1870880126953125
1200000000.0 0.22252655029296875 0.13470458984375
1250000000.0 0.2437744140625 0.0762176513671875
1300000000.0 0.25018310546875 0.015411376953125
1350000000.0 0.24169921875 -0.04395294189453125
1400000000.0 0.219451904296875 -0.0983428955078125
1450000000.0 0.1850433349609375 -0.14472198486328125
1500000000.0 0.1411285400390625 -0.18053436279296875
1550000000.0 0.09076690673828125 -0.20386505126953125
1600000000.0 0.0373687744140625 -0.21373748779296875
1650000000.0 -0.0157318115234375 -0.209808349609375
1700000000.0 -0.06523895263671875 -0.19292449951171875
1750000000.0 -0.1078948974609375 -0.16460418701171875
1800000000.0 -0.1410675048828125 -0.126922607421875
1850000000.0 -0.162750244140625 -0.08261871337890625
1900000000.0 -0.17194366455078125 -0.0348358154296875
1950000000.0 -0.16805267333984375 0.01274871826171875
2000000000.0 -0.1515350341796875 0.0570526123046875
2050000000.0 -0.123809814453125 0.09490966796875
2100000000.0 -0.08707046508789062 0.1234893798828125
2150000000.0 -0.043731689453125 0.140472412109375
2200000000.0 0.002899169921875 0.1448211669921875
2250000000.0 0.0490264892578125 0.13588714599609375
2300000000.0 0.09125137329101562 0.11386489868164062
2350000000.0 0.1263580322265625 0.08026123046875
2400000000.0 0.1512451171875 0.03743743896484375
2450000000.0 0.163421630859375 -0.01187896728515625
2500000000.0 0.16155242919921875 -0.064208984375
2550000000.0 0.145172119140625 -0.11557769775390625
2600000000.0 0.1146087646484375 -0.1621246337890625
2650000000.0 0.0714111328125 -0.200225830078125
2700000000.0 0.0180816650390625 -0.2266998291015625
2750000000.0 -0.04222869873046875 -0.239105224609375
2800000000.0 -0.10567474365234375 -0.23580169677734375
2850000000.0 -0.16803741455078125 -0.216522216796875
2900000000.0 -0.22559356689453125 -0.1814117431640625
2950000000.0 -0.2743682861328125 -0.132659912109375
3000000000.0 -0.3109588623046875 -0.0722198486328125
3050000000.0 -0.3332061767578125 -0.0033721923828125
3100000000.0 -0.3393402099609375 0.06988525390625
3150000000.0 -0.32867431640625 0.1436614990234375
3200000000.0 -0.30133056640625 0.2143096923828125
3250000000.0 -0.2591552734375 0.278045654296875
3300000000.0 -0.203887939453125 0.3314666748046875
3350000000.0 -0.1380157470703125 0.3723602294921875
3400000000.0 -0.0649871826171875 0.3987274169921875
3450000000.0 0.0118408203125 0.409637451171875
3500000000.0 0.089263916015625 0.4046173095703125
3550000000.0 0.164215087890625 0.3842926025390625
3600000000.0 0.2331695556640625 0.349884033203125
3650000000.0 0.2936248779296875 0.302734375
3700000000.0 0.3436279296875 0.2452545166015625
3750000000.0 0.38128662109375 0.1797332763671875
3800000000.0 0.4055023193359375 0.108978271484375
3850000000.0 0.4156646728515625 0.03546142578125
3900000000.0 0.4118194580078125 -0.03759765625
3950000000.0 0.3944244384765625 -0.1076812744140625
4000000000.0 0.3644256591796875 -0.1722259521484375
4050000000.0 0.323272705078125 -0.2288055419921875
4100000000.0 0.273223876953125 -0.275634765625
4150000000.0 0.21630859375 -0.3108978271484375
4200000000.0 0.1549530029296875 -0.3339691162109375
4250000000.0 0.092376708984375 -0.3441619873046875
4300000000.0 0.031097412109375 -0.3416290283203125
4350000000.0 -0.0261993408203125 -0.3273773193359375
4400000000.0 -0.077178955078125 -0.302886962890625
4450000000.0 -0.1195068359375 -0.269805908203125
4500000000.0 -0.15191650390625 -0.2306671142578125
4550000000.0 -0.17350006103515625 -0.1884613037109375
4600000000.0 -0.18396759033203125 -0.14582061767578125
4650000000.0 -0.1840362548828125 -0.105499267578125
4700000000.0 -0.17510986328125 -0.0702362060546875
4750000000.0 -0.15901947021484375 -0.04229736328125
4800000000.0 -0.1382904052734375 -0.022735595703125
4850000000.0 -0.11615753173828125 -0.012638092041015625
4900000000.0 -0.09515380859375 -0.0119171142578125
4950000000.0 -0.07813262939453125 -0.019168853759765625
5000000000.0 -0.0678558349609375 -0.032680511474609375
5050000000.0 -0.06591033935546875 -0.05029296875
5100000000.0 -0.07294082641601562 -0.06882858276367188
5150000000.0 -0.08928680419921875 -0.08492660522460938
5200000000.0 -0.11405181884765625 -0.09598541259765625
5250000000.0 -0.14514923095703125 -0.09949493408203125
5300000000.0 -0.18017578125 -0.093109130859375
5350000000.0 -0.21631622314453125 -0.076019287109375
5400000000.0 -0.2504119873046875 -0.0480804443359375
5450000000.0 -0.27911376953125 -0.00970458984375
5500000000.0 -0.299774169921875 0.0377349853515625
5550000000.0 -0.3105926513671875 0.091278076171875
5600000000.0 -0.3089599609375 0.1493072509765625
5650000000.0 -0.29498291015625 0.208251953125
5700000000.0 -0.268157958984375 0.2651519775390625
5750000000.0 -0.2290802001953125 0.317138671875
5800000000.0 -0.17913818359375 0.3613128662109375
5850000000.0 -0.120452880859375 0.395660400390625
5900000000.0 -0.0550994873046875 0.4181976318359375
5950000000.0 0.01409912109375 0.4281005859375
6000000000.0 0.084503173828125 0.4245147705078125
6050000000.0 0.1533355712890625 0.4076995849609375
6100000000.0 0.21771240234375 0.378387451171875
6150000000.0 0.2752685546875 0.3375244140625
6200000000.0 0.3238983154296875 0.286956787109375
6250000000.0 0.3621368408203125 0.2290191650390625
6300000000.0 0.387847900390625 0.165771484375
6350000000.0 0.4013214111328125 0.0998687744140625
6400000000.0 0.402313232421875 0.034393310546875
6450000000.0 0.391082763671875 -0.0283203125
6500000000.0 0.3687896728515625 -0.0858001708984375
6550000000.0 0.3373870849609375 -0.13592529296875
6600000000.0 0.298614501953125 -0.17694091796875
6650000000.0 0.2548828125 -0.2080078125
6700000000.0 0.20920562744140625 -0.22870635986328125
6750000000.0 0.16379547119140625 -0.23891448974609375
6800000000.0 0.120880126953125 -0.24007415771484375
6850000000.0 0.08277130126953125 -0.23345184326171875
6900000000.0 0.0507965087890625 -0.22074127197265625
6950000000.0 0.02558135986328125 -0.20416259765625
7000000000.0 0.00760650634765625 -0.186248779296875
7050000000.0 -0.00335693359375 -0.16864776611328125
7100000000.0 -0.008575439453125 -0.15331268310546875
7150000000.0 -0.0094146728515625 -0.1421356201171875
7200000000.0 -0.0072784423828125 -0.13590240478515625
7250000000.0 -0.004486083984375 -0.13483428955078125
7300000000.0 -0.00315093994140625 -0.13901519775390625
7350000000.0 -0.0048065185546875 -0.147796630859375
7400000000.0 -0.01120758056640625 -0.1592864990234375
7450000000.0 -0.02355194091796875 -0.172027587890625
7500000000.0 -0.0421600341796875 -0.18399810791015625
7550000000.0 -0.06671142578125 -0.19245147705078125
7600000000.0 -0.09618377685546875 -0.19547271728515625
7650000000.0 -0.128662109375 -0.19145965576171875
7700000000.0 -0.16204833984375 -0.17954254150390625
7750000000.0 -0.194091796875 -0.15941619873046875
7800000000.0 -0.22237396240234375 -0.13182830810546875
7850000000.0 -0.24491119384765625 -0.09781646728515625
7900000000.0 -0.2603912353515625 -0.058502197265625
7950000000.0 -0.2674407958984375 -0.016387939453125
8000000000.0 -0.2651519775390625 0.0267486572265625
8050000000.0 -0.253814697265625 0.0684814453125
8100000000.0 -0.2338409423828125 0.106536865234375
8150000000.0 -0.20627593994140625 0.1385650634765625
8200000000.0 -0.17279052734375 0.16313934326171875
8250000000.0 -0.13585662841796875 0.178619384765625
8300000000.0 -0.09751129150390625 0.18428802490234375
8350000000.0 -0.06076812744140625 0.180419921875
8400000000.0 -0.028228759765625 0.16751861572265625
8450000000.0 -0.00225067138671875 0.1469268798828125
8500000000.0 0.015239715576171875 0.12103271484375
8550000000.0 0.022674560546875 0.09254074096679688
8600000000.0 0.019855499267578125 0.06438064575195312
8650000000.0 0.00732421875 0.039852142333984375
8700000000.0 -0.01374053955078125 0.02215862274169922
8750000000.0 -0.04085540771484375 0.013185501098632812
8800000000.0 -0.07079696655273438 0.014690399169921875
8850000000.0 -0.1003875732421875 0.027294158935546875
8900000000.0 -0.12665557861328125 0.05029296875
8950000000.0 -0.146514892578125 0.08211517333984375
9000000000.0 -0.157867431640625 0.1212158203125
9050000000.0 -0.15940093994140625 0.16521453857421875
9100000000.0 -0.14994049072265625 0.211517333984375
