!Created with skrf (http://scikit-rf.org).
# Hz S RI R 50.0 
!freq ReS11 ImS11
1000000000.0 -0.344818115234375 0.845306396484375
1100000000.0 -0.192230224609375 0.89068603515625
1200000000.0 -0.0391845703125 0.908416748046875
1300000000.0 0.110565185546875 0.900726318359375
1400000000.0 0.253875732421875 0.869171142578125
1500000000.0 0.387908935546875 0.81634521484375
1600000000.0 0.51025390625 0.743988037109375
1700000000.0 0.618743896484375 0.65447998046875
1800000000.0 0.711334228515625 0.55035400390625
1900000000.0 0.7864990234375 0.434356689453125
2000000000.0 0.843048095703125 0.309234619140625
2100000000.0 0.880767822265625 0.176361083984375
2200000000.0 0.8936767578125 0.038787841796875
2300000000.0 0.887115478515625 -0.094512939453125
2400000000.0 0.861968994140625 -0.225738525390625
2500000000.0 0.817657470703125 -0.351531982421875
2600000000.0 0.75518798828125 -0.469207763671875
2700000000.0 0.676025390625 -0.57598876953125
2800000000.0 0.582000732421875 -0.669677734375
2900000000.0 0.47552490234375 -0.7479248046875
3000000000.0 0.3583984375 -0.809417724609375
3100000000.0 0.233489990234375 -0.852813720703125
3200000000.0 0.103790283203125 -0.877166748046875
3300000000.0 -0.027984619140625 -0.88177490234375
3400000000.0 -0.158721923828125 -0.866424560546875
3500000000.0 -0.284454345703125 -0.831634521484375
3600000000.0 -0.403594970703125 -0.7808837890625
3700000000.0 -0.5150146484375 -0.711822509765625
3800000000.0 -0.614501953125 -0.6270751953125
3900000000.0 -0.699951171875 -0.528839111328125
4000000000.0 -0.7705078125 -0.42010498046875
4100000000.0 -0.826416015625 -0.301116943359375
4200000000.0 -0.86053466796875 -0.173095703125
4300000000.0 -0.87530517578125 -0.04339599609375
4400000000.0 -0.87127685546875 0.08660888671875
4500000000.0 -0.84832763671875 0.214385986328125
4600000000.0 -0.80645751953125 0.337127685546875
4700000000.0 -0.74749755859375 0.45220947265625
4800000000.0 -0.67242431640625 0.557220458984375
4900000000.0 -0.582672119140625 0.649566650390625
5000000000.0 -0.480621337890625 0.727996826171875
5100000000.0 -0.368194580078125 0.790283203125
5200000000.0 -0.248382568359375 0.83544921875
5300000000.0 -0.123199462890625 0.86260986328125
5400000000.0 0.004150390625 0.871124267578125
5500000000.0 0.13134765625 0.86090087890625
5600000000.0 0.25579833984375 0.832489013671875
5700000000.0 0.37432861328125 0.78607177734375
5800000000.0 0.484466552734375 0.72271728515625
5900000000.0 0.584197998046875 0.644622802734375
6000000000.0 0.671142578125 0.5533447265625
6100000000.0 0.74432373046875 0.451507568359375
6200000000.0 0.804229736328125 0.339599609375
6300000000.0 0.84619140625 0.2178955078125
6400000000.0 0.868560791015625 0.091827392578125
6500000000.0 0.87249755859375 -0.035491943359375
6600000000.0 0.857696533203125 -0.161529541015625
6700000000.0 0.82489013671875 -0.283935546875
6800000000.0 0.774566650390625 -0.400421142578125
6900000000.0 0.707763671875 -0.50811767578125
7000000000.0 0.6260986328125 -0.60498046875
7100000000.0 0.531402587890625 -0.688812255859375
7200000000.0 0.425445556640625 -0.758148193359375
7300000000.0 0.310821533203125 -0.811248779296875
7400000000.0 0.19024658203125 -0.847015380859375
7500000000.0 0.066009521484375 -0.86517333984375
7600000000.0 -0.059356689453125 -0.8656005859375
7700000000.0 -0.18341064453125 -0.847503662109375
7800000000.0 -0.303314208984375 -0.811981201171875
7900000000.0 -0.416351318359375 -0.759124755859375
8000000000.0 -0.520172119140625 -0.69097900390625
8100000000.0 -0.61260986328125 -0.609649658203125
8200000000.0 -0.692718505859375 -0.51751708984375
8300000000.0 -0.76171875 -0.414459228515625
8400000000.0 -0.81494140625 -0.300079345703125
8500000000.0 -0.849273681640625 -0.179351806640625
8600000000.0 -0.865570068359375 -0.05572509765625
8700000000.0 -0.864166259765625 0.068359375
8800000000.0 -0.8450927734375 0.190521240234375
8900000000.0 -0.80902099609375 0.30828857421875
9000000000.0 -0.756622314453125 0.41912841796875
9100000000.0 -0.689544677734375 0.521514892578125
9200000000.0 -0.60882568359375 0.6131591796875
9300000000.0 -0.51593017578125 0.6922607421875
9400000000.0 -0.413482666015625 0.757080078125
9500000000.0 -0.3028564453125 0.80718994140625
9600000000.0 -0.1865234375 0.840911865234375
9700000000.0 -0.06689453125 0.857818603515625
9800000000.0 0.053619384765625 0.85784912109375
9900000000.0 0.172515869140625 0.841400146484375
10000000000.0 0.28778076171875 0.8082275390625
10100000000.0 0.39642333984375 0.759490966796875
10200000000.0 0.49688720703125 0.69732666015625
10300000000.0 0.589447021484375 0.623321533203125
10400000000.0 0.6719970703125 0.535369873046875
10500000000.0 0.740325927734375 0.43511962890625
10600000000.0 0.792999267578125 0.326751708984375
10700000000.0 0.831298828125 0.213043212890625
10800000000.0 0.850799560546875 0.0943603515625
10900000000.0 0.85528564453125 -0.0274658203125
11000000000.0 0.842071533203125 -0.145721435546875
11100000000.0 0.812469482421875 -0.262237548828125
11200000000.0 0.766632080078125 -0.373443603515625
11300000000.0 0.70587158203125 -0.47686767578125
11400000000.0 0.630828857421875 -0.5709228515625
11500000000.0 0.54351806640625 -0.653289794921875
11600000000.0 0.44580078125 -0.72283935546875
11700000000.0 0.33831787109375 -0.777252197265625
11800000000.0 0.22491455078125 -0.816253662109375
11900000000.0 0.106842041015625 -0.838714599609375
12000000000.0 -0.012908935546875 -0.84423828125
12100000000.0 -0.131988525390625 -0.832305908203125
12200000000.0 -0.24761962890625 -0.803924560546875
12300000000.0 -0.357696533203125 -0.759918212890625
12400000000.0 -0.460479736328125 -0.70269775390625
12500000000.0 -0.556427001953125 -0.63153076171875
12600000000.0 -0.6427001953125 -0.54547119140625
12700000000.0 -0.71441650390625 -0.44683837890625
12800000000.0 -0.770599365234375 -0.338836669921875
12900000000.0 -0.810333251953125 -0.224578857421875
13000000000.0 -0.8331298828125 -0.106048583984375
13100000000.0 -0.8389892578125 0.0145263671875
13200000000.0 -0.8272705078125 0.134735107421875
13300000000.0 -0.798492431640625 0.251708984375
13400000000.0 -0.753082275390625 0.36346435546875
13500000000.0 -0.6925048828125 0.467254638671875
13600000000.0 -0.61737060546875 0.561187744140625
13700000000.0 -0.529449462890625 0.643524169921875
13800000000.0 -0.43084716796875 0.711822509765625
13900000000.0 -0.32354736328125 0.7652587890625
14000000000.0 -0.20977783203125 0.802490234375
14100000000.0 -0.09161376953125 0.822784423828125
14200000000.0 0.027557373046875 0.825714111328125
14300000000.0 0.144989013671875 0.810760498046875
14400000000.0 0.257843017578125 0.78021240234375
14500000000.0 0.3653564453125 0.737335205078125
14600000000.0 0.469696044921875 0.6787109375
14700000000.0 0.565155029296875 0.602752685546875
14800000000.0 0.647216796875 0.512542724609375
14900000000.0 0.714385986328125 0.411376953125
15000000000.0 0.765533447265625 0.301605224609375
15100000000.0 0.8006591796875 0.18505859375
15200000000.0 0.81744384765625 0.06536865234375
15300000000.0 0.81695556640625 -0.05535888671875
15400000000.0 0.798553466796875 -0.175140380859375
15500000000.0 0.76385498046875 -0.291015625
15600000000.0 0.71112060546875 -0.39984130859375
15700000000.0 0.642364501953125 -0.500244140625
15800000000.0 0.5606689453125 -0.589813232421875
15900000000.0 0.466522216796875 -0.664886474609375
16000000000.0 0.36187744140625 -0.7259521484375
16100000000.0 0.24957275390625 -0.770355224609375
16200000000.0 0.1324462890625 -0.797607421875
16300000000.0 0.012969970703125 -0.807037353515625
16400000000.0 -0.105560302734375 -0.799346923828125
16500000000.0 -0.221405029296875 -0.775360107421875
16600000000.0 -0.332916259765625 -0.73583984375
16700000000.0 -0.439544677734375 -0.680572509765625
16800000000.0 -0.53668212890625 -0.608489990234375
16900000000.0 -0.62237548828125 -0.522247314453125
17000000000.0 -0.693634033203125 -0.424163818359375
17100000000.0 -0.748443603515625 -0.317352294921875
17200000000.0 -0.78729248046875 -0.204132080078125
17300000000.0 -0.80902099609375 -0.08660888671875
17400000000.0 -0.813201904296875 0.03253173828125
17500000000.0 -0.800018310546875 0.150634765625
17600000000.0 -0.7698974609375 0.265411376953125
17700000000.0 -0.72369384765625 0.374359130859375
17800000000.0 -0.662322998046875 0.475189208984375
17900000000.0 -0.587158203125 0.565643310546875
18000000000.0 -0.500152587890625 0.644134521484375
18100000000.0 -0.40313720703125 0.708953857421875
18200000000.0 -0.298126220703125 0.75921630859375
18300000000.0 -0.18780517578125 0.7935791015625
18400000000.0 -0.07415771484375 0.812042236328125
18500000000.0 0.0401611328125 0.814605712890625
18600000000.0 0.153778076171875 0.80194091796875
18700000000.0 0.265380859375 0.773895263671875
18800000000.0 0.372314453125 0.729827880859375
18900000000.0 0.47235107421875 0.67041015625
19000000000.0 0.56304931640625 0.59716796875
19100000000.0 0.641937255859375 0.511474609375
19200000000.0 0.707763671875 0.415191650390625
19300000000.0 0.759185791015625 0.310760498046875
19400000000.0 0.7950439453125 0.200164794921875
19500000000.0 0.814788818359375 0.08563232421875
19600000000.0 0.818328857421875 -0.030548095703125
19700000000.0 0.8050537109375 -0.14581298828125
19800000000.0 0.775543212890625 -0.258026123046875
19900000000.0 0.730224609375 -0.36492919921875
20000000000.0 0.670440673828125 -0.464263916015625
20100000000.0 0.596893310546875 -0.553985595703125
20200000000.0 0.511566162109375 -0.632171630859375
20300000000.0 0.415924072265625 -0.696044921875
20400000000.0 0.31231689453125 -0.746734619140625
20500000000.0 0.2044677734375 -0.782196044921875
20600000000.0 0.091796875 -0.80255126953125
20700000000.0 -0.018890380859375 -0.808685302734375
20800000000.0 -0.133941650390625 -0.796722412109375
20900000000.0 -0.246063232421875 -0.77203369140625
21000000000.0 -0.354583740234375 -0.72955322265625
21100000000.0 -0.453948974609375 -0.67266845703125
21200000000.0 -0.544830322265625 -0.599090576171875
21300000000.0 -0.623779296875 -0.515289306640625
21400000000.0 -0.68988037109375 -0.4212646484375
21500000000.0 -0.741943359375 -0.319183349609375
21600000000.0 -0.778717041015625 -0.210601806640625
21700000000.0 -0.79949951171875 -0.098663330078125
21800000000.0 -0.80438232421875 0.01483154296875
21900000000.0 -0.79327392578125 0.12738037109375
22000000000.0 -0.7666015625 0.237030029296875
22100000000.0 -0.724609375 0.341461181640625
22200000000.0 -0.668121337890625 0.437896728515625
22300000000.0 -0.599334716796875 0.525299072265625
22400000000.0 -0.519195556640625 0.601470947265625
22500000000.0 -0.430633544921875 0.665679931640625
22600000000.0 -0.334075927734375 0.716217041015625
22700000000.0 -0.23272705078125 0.7542724609375
22800000000.0 -0.126220703125 0.7791748046875
22900000000.0 -0.016082763671875 0.789764404296875
23000000000.0 0.09564208984375 0.783660888671875
23100000000.0 0.205474853515625 0.760772705078125
23200000000.0 0.310791015625 0.722137451171875
23300000000.0 0.409423828125 0.66845703125
23400000000.0 0.499053955078125 0.601348876953125
23500000000.0 0.578155517578125 0.521697998046875
23600000000.0 0.644500732421875 0.431365966796875
23700000000.0 0.697235107421875 0.332244873046875
23800000000.0 0.734649658203125 0.22613525390625
23900000000.0 0.75628662109375 0.115875244140625
24000000000.0 0.76141357421875 0.003143310546875
24100000000.0 0.74957275390625 -0.1092529296875
24200000000.0 0.721160888671875 -0.21881103515625
24300000000.0 0.675933837890625 -0.323028564453125
24400000000.0 0.615234375 -0.4188232421875
24500000000.0 0.540802001953125 -0.50421142578125
24600000000.0 0.454803466796875 -0.576629638671875
24700000000.0 0.35986328125 -0.63531494140625
24800000000.0 0.25811767578125 -0.679779052734375
24900000000.0 0.150848388671875 -0.709564208984375
25000000000.0 0.03814697265625 -0.7235107421875
25100000000.0 -0.0765380859375 -0.71942138671875
25200000000.0 -0.19036865234375 -0.696563720703125
25300000000.0 -0.299224853515625 -0.654510498046875
25400000000.0 -0.399871826171875 -0.595794677734375
25500000000.0 -0.48968505859375 -0.5211181640625
25600000000.0 -0.566009521484375 -0.43328857421875
25700000000.0 -0.627288818359375 -0.3341064453125
25800000000.0 -0.6712646484375 -0.226776123046875
25900000000.0 -0.6973876953125 -0.11444091796875
26000000000.0 -0.704559326171875 0.000518798828125
26100000000.0 -0.69317626953125 0.114501953125
26200000000.0 -0.663726806640625 0.225189208984375
26300000000.0 -0.6173095703125 0.329193115234375
26400000000.0 -0.55450439453125 0.4229736328125
26500000000.0 -0.478759765625 0.5050048828125
