!Created with skrf (http://scikit-rf.org).
# Hz S RI R 50.0 
!freq ReS11 ImS11
1000000000.0 0.602203369140625 -0.67913818359375
1100000000.0 0.2857666015625 -0.869659423828125
1200000000.0 -0.07745361328125 -0.914947509765625
1300000000.0 -0.426361083984375 -0.811187744140625
1400000000.0 -0.703399658203125 -0.5775146484375
1500000000.0 -0.86285400390625 -0.2535400390625
1600000000.0 -0.87750244140625 0.1051025390625
1700000000.0 -0.747406005859375 0.4368896484375
1800000000.0 -0.493621826171875 0.68511962890625
1900000000.0 -0.161712646484375 0.80548095703125
2000000000.0 0.18719482421875 0.776275634765625
2100000000.0 0.48907470703125 0.604095458984375
2200000000.0 0.6875 0.321502685546875
2300000000.0 0.744354248046875 -0.016204833984375
2400000000.0 0.6514892578125 -0.343963623046875
2500000000.0 0.4266357421875 -0.597808837890625
2600000000.0 0.114990234375 -0.7286376953125
2700000000.0 -0.22149658203125 -0.712188720703125
2800000000.0 -0.517608642578125 -0.552032470703125
2900000000.0 -0.716552734375 -0.281280517578125
3000000000.0 -0.781280517578125 0.048095703125
3100000000.0 -0.70098876953125 0.3736572265625
3200000000.0 -0.491943359375 0.635040283203125
3300000000.0 -0.192779541015625 0.784912109375
3400000000.0 0.141326904296875 0.796295166015625
3500000000.0 0.449493408203125 0.6673583984375
3600000000.0 0.675140380859375 0.421539306640625
3700000000.0 0.776092529296875 0.103790283203125
3800000000.0 0.732177734375 -0.2257080078125
3900000000.0 0.552001953125 -0.50335693359375
4000000000.0 0.271484375 -0.67449951171875
4100000000.0 -0.052581787109375 -0.706146240234375
4200000000.0 -0.354339599609375 -0.594390869140625
4300000000.0 -0.5738525390625 -0.365570068359375
4400000000.0 -0.67095947265625 -0.068756103515625
4500000000.0 -0.6318359375 0.236236572265625
4600000000.0 -0.4691162109375 0.49151611328125
4700000000.0 -0.21875 0.6529541015625
4800000000.0 0.072479248046875 0.696746826171875
4900000000.0 0.353424072265625 0.619720458984375
5000000000.0 0.579132080078125 0.438690185546875
5100000000.0 0.715087890625 0.1839599609375
5200000000.0 0.740966796875 -0.103607177734375
5300000000.0 0.653106689453125 -0.379608154296875
5400000000.0 0.464691162109375 -0.60089111328125
5500000000.0 0.201019287109375 -0.731658935546875
5600000000.0 -0.09454345703125 -0.748504638671875
5700000000.0 -0.37445068359375 -0.645233154296875
5800000000.0 -0.590423583984375 -0.4359130859375
5900000000.0 -0.700897216796875 -0.154449462890625
6000000000.0 -0.682861328125 0.14794921875
6100000000.0 -0.538177490234375 0.412933349609375
6200000000.0 -0.2950439453125 0.588165283203125
6300000000.0 -0.003204345703125 0.639495849609375
6400000000.0 0.27691650390625 0.559112548828125
6500000000.0 0.489532470703125 0.368133544921875
6600000000.0 0.595367431640625 0.109619140625
6700000000.0 0.5794677734375 -0.163238525390625
6800000000.0 0.451202392578125 -0.397735595703125
6900000000.0 0.24053955078125 -0.55230712890625
7000000000.0 -0.009033203125 -0.603973388671875
7100000000.0 -0.25201416015625 -0.551177978515625
7200000000.0 -0.449859619140625 -0.408111572265625
7300000000.0 -0.569793701171875 -0.203125
7400000000.0 -0.601165771484375 0.0203857421875
7500000000.0 -0.560302734375 0.2374267578125
7600000000.0 -0.440673828125 0.4389495849609375
7700000000.0 -0.239532470703125 0.584808349609375
7800000000.0 0.012786865234375 0.63641357421875
7900000000.0 0.269439697265625 0.577056884765625
8000000000.0 0.4815216064453125 0.4130096435546875
8100000000.0 0.60601806640625 0.171234130859375
8200000000.0 0.6153564453125 -0.10345458984375
8300000000.0 0.504669189453125 -0.356048583984375
8400000000.0 0.2958984375 -0.53564453125
8500000000.0 0.031768798828125 -0.606292724609375
8600000000.0 -0.23333740234375 -0.557037353515625
8700000000.0 -0.447998046875 -0.4018707275390625
8800000000.0 -0.574798583984375 -0.17559814453125
8900000000.0 -0.59600830078125 0.07720947265625
9000000000.0 -0.51409912109375 0.311553955078125
9100000000.0 -0.3485565185546875 0.4899139404296875
9200000000.0 -0.129241943359375 0.5867919921875
9300000000.0 0.107818603515625 0.58990478515625
9400000000.0 0.325927734375 0.50115966796875
9500000000.0 0.492279052734375 0.334625244140625
9600000000.0 0.580474853515625 0.115509033203125
9700000000.0 0.575225830078125 -0.122222900390625
9800000000.0 0.474700927734375 -0.3403167724609375
9900000000.0 0.29241943359375 -0.500885009765625
10000000000.0 0.0576171875 -0.5731201171875
10100000000.0 -0.18829345703125 -0.54034423828125
10200000000.0 -0.3989715576171875 -0.4056854248046875
10300000000.0 -0.531707763671875 -0.1929931640625
10400000000.0 -0.559326171875 0.055145263671875
10500000000.0 -0.4770355224609375 0.2880096435546875
10600000000.0 -0.3046875 0.458160400390625
10700000000.0 -0.081939697265625 0.534271240234375
10800000000.0 0.1434326171875 0.507659912109375
10900000000.0 0.327972412109375 0.393341064453125
11000000000.0 0.441253662109375 0.2213592529296875
11100000000.0 0.4738006591796875 0.0289459228515625
11200000000.0 0.4296722412109375 -0.1504974365234375
11300000000.0 0.3270721435546875 -0.292510986328125
11400000000.0 0.18536376953125 -0.3843841552734375
11500000000.0 0.0215911865234375 -0.4205780029296875
11600000000.0 -0.148529052734375 -0.3941802978515625
11700000000.0 -0.3017730712890625 -0.3002471923828125
11800000000.0 -0.408111572265625 -0.145233154296875
11900000000.0 -0.4403228759765625 0.047515869140625
12000000000.0 -0.38525390625 0.241119384765625
12100000000.0 -0.24951171875 0.3957672119140625
12200000000.0 -0.0572357177734375 0.4788818359375
12300000000.0 0.154754638671875 0.47216796875
12400000000.0 0.3459320068359375 0.3760833740234375
12500000000.0 0.480499267578125 0.2076568603515625
12600000000.0 0.533935546875 -0.002197265625
12700000000.0 0.49676513671875 -0.2164459228515625
12800000000.0 0.3748931884765625 -0.3975982666015625
12900000000.0 0.189697265625 -0.513824462890625
13000000000.0 -0.027008056640625 -0.544891357421875
13100000000.0 -0.2376251220703125 -0.484954833984375
13200000000.0 -0.404815673828125 -0.3441925048828125
13300000000.0 -0.49859619140625 -0.147552490234375
13400000000.0 -0.501373291015625 0.06951904296875
13500000000.0 -0.413055419921875 0.2658843994140625
13600000000.0 -0.2512969970703125 0.404388427734375
13700000000.0 -0.04803466796875 0.45953369140625
13800000000.0 0.1557159423828125 0.42218017578125
13900000000.0 0.3206024169921875 0.302947998046875
14000000000.0 0.416595458984375 0.127899169921875
14100000000.0 0.428863525390625 -0.0674591064453125
14200000000.0 0.3592681884765625 -0.2461090087890625
14300000000.0 0.224639892578125 -0.3770599365234375
14400000000.0 0.05133056640625 -0.44061279296875
14500000000.0 -0.1298828125 -0.42938232421875
14600000000.0 -0.2896575927734375 -0.348388671875
14700000000.0 -0.4035186767578125 -0.2132415771484375
14800000000.0 -0.4550933837890625 -0.0445709228515625
14900000000.0 -0.437255859375 0.1295013427734375
15000000000.0 -0.352996826171875 0.282684326171875
15100000000.0 -0.2146453857421875 0.39068603515625
15200000000.0 -0.0437774658203125 0.4347076416015625
15300000000.0 0.1319580078125 0.4055633544921875
15400000000.0 0.2814483642578125 0.305145263671875
15500000000.0 0.376708984375 0.149139404296875
15600000000.0 0.396026611328125 -0.0355224609375
15700000000.0 0.332122802734375 -0.21307373046875
15800000000.0 0.194427490234375 -0.3463592529296875
15900000000.0 0.009765625 -0.405059814453125
16000000000.0 -0.18353271484375 -0.3755035400390625
16100000000.0 -0.344085693359375 -0.263336181640625
16200000000.0 -0.4395904541015625 -0.093780517578125
16300000000.0 -0.4529266357421875 0.0991973876953125
16400000000.0 -0.385833740234375 0.2772369384765625
16500000000.0 -0.25433349609375 0.40997314453125
16600000000.0 -0.0840301513671875 0.4777984619140625
16700000000.0 0.0955657958984375 0.4735107421875
16800000000.0 0.256591796875 0.4019927978515625
16900000000.0 0.375885009765625 0.2764739990234375
17000000000.0 0.437255859375 0.1177825927734375
17100000000.0 0.4334869384765625 -0.0495147705078125
17200000000.0 0.3669891357421875 -0.200469970703125
17300000000.0 0.2485504150390625 -0.3125457763671875
17400000000.0 0.0972137451171875 -0.3684234619140625
17500000000.0 -0.0628662109375 -0.359222412109375
17600000000.0 -0.2049102783203125 -0.2859344482421875
17700000000.0 -0.3039398193359375 -0.1605682373046875
17800000000.0 -0.341827392578125 -0.004425048828125
17900000000.0 -0.309417724609375 0.154327392578125
18000000000.0 -0.21099853515625 0.2854766845703125
18100000000.0 -0.063446044921875 0.3627777099609375
18200000000.0 0.1065673828125 0.368896484375
18300000000.0 0.265838623046875 0.2994537353515625
18400000000.0 0.382415771484375 0.165191650390625
18500000000.0 0.4313507080078125 -0.0101470947265625
18600000000.0 0.4002685546875 -0.19329833984375
18700000000.0 0.29278564453125 -0.3490447998046875
18800000000.0 0.1277923583984375 -0.446502685546875
18900000000.0 -0.0646514892578125 -0.466766357421875
19000000000.0 -0.248870849609375 -0.4056243896484375
19100000000.0 -0.391937255859375 -0.2749176025390625
19200000000.0 -0.469573974609375 -0.0986175537109375
19300000000.0 -0.4697418212890625 0.0925140380859375
19400000000.0 -0.39508056640625 0.265411376953125
19500000000.0 -0.260101318359375 0.392730712890625
19600000000.0 -0.0891571044921875 0.4554901123046875
19700000000.0 0.0887908935546875 0.446258544921875
19800000000.0 0.2453765869140625 0.36962890625
19900000000.0 0.356536865234375 0.240966796875
20000000000.0 0.406951904296875 0.0828399658203125
20100000000.0 0.3912506103515625 -0.078643798828125
20200000000.0 0.3140106201171875 -0.217315673828125
20300000000.0 0.1899261474609375 -0.31201171875
20400000000.0 0.04010009765625 -0.3472747802734375
20500000000.0 -0.10931396484375 -0.31793212890625
20600000000.0 -0.23194122314453125 -0.22884368896484375
20700000000.0 -0.3048553466796875 -0.0961151123046875
20800000000.0 -0.3133392333984375 0.055328369140625
20900000000.0 -0.254608154296875 0.1967620849609375
21000000000.0 -0.1390533447265625 0.29913330078125
21100000000.0 0.0111541748046875 0.341522216796875
21200000000.0 0.1662445068359375 0.31475830078125
21300000000.0 0.2964630126953125 0.22308349609375
21400000000.0 0.3766021728515625 0.083892822265625
21500000000.0 0.3917083740234375 -0.0768890380859375
21600000000.0 0.339324951171875 -0.2301483154296875
21700000000.0 0.22955322265625 -0.348876953125
21800000000.0 0.08197021484375 -0.4145355224609375
21900000000.0 -0.078857421875 -0.4160003662109375
22000000000.0 -0.226165771484375 -0.3543701171875
22100000000.0 -0.336151123046875 -0.240631103515625
22200000000.0 -0.3909454345703125 -0.0936279296875
22300000000.0 -0.3822021484375 0.061431884765625
22400000000.0 -0.3110198974609375 0.198150634765625
22500000000.0 -0.18994140625 0.2922210693359375
22600000000.0 -0.04034423828125 0.3254241943359375
22700000000.0 0.10894775390625 0.2903594970703125
22800000000.0 0.22808074951171875 0.1924285888671875
22900000000.0 0.2921142578125 0.0507354736328125
23000000000.0 0.28643798828125 -0.106292724609375
23100000000.0 0.21152496337890625 -0.2462921142578125
23200000000.0 0.08245849609375 -0.340972900390625
23300000000.0 -0.075714111328125 -0.3728179931640625
23400000000.0 -0.2336273193359375 -0.3367767333984375
23500000000.0 -0.3639068603515625 -0.241363525390625
23600000000.0 -0.4473419189453125 -0.103759765625
23700000000.0 -0.4732818603515625 0.0536651611328125
23800000000.0 -0.440643310546875 0.20782470703125
23900000000.0 -0.3555145263671875 0.338836669921875
24000000000.0 -0.23077392578125 0.42926025390625
24100000000.0 -0.08416748046875 0.4683990478515625
24200000000.0 0.0646209716796875 0.4516754150390625
24300000000.0 0.1941680908203125 0.3811492919921875
24400000000.0 0.284637451171875 0.2671966552734375
24500000000.0 0.3200531005859375 0.128692626953125
24600000000.0 0.292999267578125 -0.00909423828125
24700000000.0 0.208343505859375 -0.1183013916015625
24800000000.0 0.0841827392578125 -0.173675537109375
24900000000.0 -0.0497589111328125 -0.16231536865234375
25000000000.0 -0.1606292724609375 -0.086883544921875
25100000000.0 -0.22087860107421875 0.03298187255859375
25200000000.0 -0.21797943115234375 0.1683502197265625
25300000000.0 -0.1528472900390625 0.2891082763671875
25400000000.0 -0.041015625 0.3703460693359375
25500000000.0 0.0955810546875 0.3987579345703125
25600000000.0 0.2335205078125 0.3702545166015625
25700000000.0 0.3505096435546875 0.290802001953125
25800000000.0 0.430145263671875 0.1722412109375
25900000000.0 0.458892822265625 0.031829833984375
26000000000.0 0.4325103759765625 -0.1094207763671875
26100000000.0 0.35284423828125 -0.22882080078125
26200000000.0 0.23211669921875 -0.304656982421875
26300000000.0 0.0917510986328125 -0.3210906982421875
26400000000.0 -0.0385589599609375 -0.2724151611328125
26500000000.0 -0.12792205810546875 -0.16888427734375
