!Created with skrf (http://scikit-rf.org).
# Hz S RI R 50.0 
!freq ReS11 ImS11
30000.0 0.95770263671875 -0.001312255859375
31000.0 0.95751953125 -0.00115966796875
33000.0 0.957427978515625 -0.000946044921875
36000.0 0.957672119140625 -0.00091552734375
41000.0 0.95751953125 -0.0009765625
48500.0 0.95758056640625 -0.0008544921875
58000.0 0.95733642578125 -0.0006103515625
70000.0 0.95733642578125 -0.00067138671875
84000.0 0.957489013671875 -0.00054931640625
100000.0 0.95751953125 -0.00079345703125
125000.0 0.95758056640625 -0.0008544921875
150000.0 0.957275390625 -0.00091552734375
175000.0 0.95751953125 -0.0008544921875
200000.0 0.957275390625 -0.00079345703125
225000.0 0.95745849609375 -0.00103759765625
250000.0 0.9573974609375 -0.0009765625
275000.0 0.95751953125 -0.00115966796875
300000.0 0.95751953125 -0.001129150390625
325000.0 0.957611083984375 -0.00128173828125
350000.0 0.957489013671875 -0.001129150390625
375000.0 0.957611083984375 -0.001556396484375
400000.0 0.9576416015625 -0.00146484375
425000.0 0.957427978515625 -0.001617431640625
450000.0 0.957427978515625 -0.001708984375
475000.0 0.957550048828125 -0.00164794921875
500000.0 0.957550048828125 -0.00177001953125
525000.0 0.95751953125 -0.002105712890625
550000.0 0.95751953125 -0.0018310546875
575000.0 0.957305908203125 -0.002197265625
600000.0 0.957489013671875 -0.0023193359375
625000.0 0.957427978515625 -0.00238037109375
650000.0 0.95751953125 -0.002532958984375
675000.0 0.95733642578125 -0.002471923828125
700000.0 0.957427978515625 -0.002685546875
725000.0 0.957611083984375 -0.002838134765625
750000.0 0.957427978515625 -0.002960205078125
775000.0 0.957427978515625 -0.0029296875
800000.0 0.957427978515625 -0.003143310546875
825000.0 0.957366943359375 -0.00323486328125
850000.0 0.957305908203125 -0.003204345703125
875000.0 0.957427978515625 -0.003387451171875
900000.0 0.957366943359375 -0.003448486328125
925000.0 0.95733642578125 -0.003570556640625
950000.0 0.95751953125 -0.00341796875
975000.0 0.95733642578125 -0.003692626953125
1000000.0 0.95745849609375 -0.003753662109375
1030000.0 0.9573974609375 -0.00390625
1060000.0 0.95751953125 -0.004150390625
1110000.0 0.957275390625 -0.00433349609375
1170000.0 0.95745849609375 -0.004425048828125
1250000.0 0.95733642578125 -0.004669189453125
1350000.0 0.95751953125 -0.00518798828125
1500000.0 0.9573974609375 -0.0054931640625
1700000.0 0.95745849609375 -0.006378173828125
1950000.0 0.957489013671875 -0.00726318359375
2250000.0 0.95733642578125 -0.008636474609375
2750000.0 0.957275390625 -0.010528564453125
3500000.0 0.9573974609375 -0.013427734375
4500000.0 0.9573974609375 -0.016998291015625
6000000.0 0.95709228515625 -0.022796630859375
8000000.0 0.956756591796875 -0.030303955078125
11000000.0 0.956390380859375 -0.0416259765625
15500000.0 0.955413818359375 -0.058746337890625
22000000.0 0.953277587890625 -0.083038330078125
30000000.0 0.950042724609375 -0.112701416015625
40000000.0 0.944488525390625 -0.149688720703125
52500000.0 0.935455322265625 -0.19537353515625
68000000.0 0.92144775390625 -0.25140380859375
86500000.0 0.900146484375 -0.31671142578125
106000000.0 0.872955322265625 -0.383880615234375
127500000.0 0.83697509765625 -0.454681396484375
152000000.0 0.789093017578125 -0.531768798828125
180000000.0 0.7261962890625 -0.613311767578125
214000000.0 0.6380615234375 -0.701904296875
254000000.0 0.52099609375 -0.7906494140625
300000000.0 0.37245553731918335 -0.8690962791442871
350000000.0 0.19821029901504517 -0.9221099615097046
400000000.0 0.017583873122930527 -0.9409337043762207
450000000.0 -0.16296933591365814 -0.9244261384010315
500000000.0 -0.3364742398262024 -0.8736945986747742
550000000.0 -0.4964388906955719 -0.7902348041534424
600000000.0 -0.6371637582778931 -0.6786070466041565
650000000.0 -0.7531453371047974 -0.5417732000350952
700000000.0 -0.84039306640625 -0.386505126953125
750000000.0 -0.89617919921875 -0.217254638671875
800000000.0 -0.91778564453125 -0.04144287109375
850000000.0 -0.90655517578125 0.13409423828125
900000000.0 -0.86151123046875 0.303619384765625
950000000.0 -0.785369873046875 0.46112060546875
1000000000.0 -0.681915283203125 0.60015869140625
1050000000.0 -0.553558349609375 0.716461181640625
1100000000.0 -0.407135009765625 0.806396484375
1150000000.0 -0.246612548828125 0.86572265625
1200000000.0 -0.078857421875 0.89447021484375
1250000000.0 0.08990478515625 0.89044189453125
1300000000.0 0.2542724609375 0.854888916015625
1350000000.0 0.408477783203125 0.790008544921875
1400000000.0 0.54693603515625 0.69659423828125
1450000000.0 0.664581298828125 0.581878662109375
1500000000.0 0.7584228515625 0.447418212890625
1550000000.0 0.82513427734375 0.297821044921875
1600000000.0 0.863739013671875 0.139373779296875
1650000000.0 0.871337890625 -0.022857666015625
1700000000.0 0.849212646484375 -0.183380126953125
1750000000.0 0.7979736328125 -0.336212158203125
1800000000.0 0.718719482421875 -0.47625732421875
1850000000.0 0.61590576171875 -0.5985107421875
1900000000.0 0.492034912109375 -0.698760986328125
1950000000.0 0.352569580078125 -0.77392578125
2000000000.0 0.2020263671875 -0.82159423828125
2050000000.0 0.04595947265625 -0.8397216796875
2100000000.0 -0.1092529296875 -0.829345703125
2150000000.0 -0.259246826171875 -0.789306640625
2200000000.0 -0.399169921875 -0.724273681640625
2250000000.0 -0.5216064453125 -0.6331787109375
2300000000.0 -0.626007080078125 -0.52191162109375
2350000000.0 -0.70672607421875 -0.39471435546875
2400000000.0 -0.761566162109375 -0.2552490234375
2450000000.0 -0.79022216796875 -0.109832763671875
2500000000.0 -0.78961181640625 0.037811279296875
2550000000.0 -0.7628173828125 0.181549072265625
2600000000.0 -0.70977783203125 0.316375732421875
2650000000.0 -0.6328125 0.437103271484375
2700000000.0 -0.5364990234375 0.540771484375
2750000000.0 -0.42340087890625 0.623443603515625
2800000000.0 -0.29876708984375 0.68292236328125
2850000000.0 -0.16705322265625 0.71807861328125
2900000000.0 -0.0323486328125 0.7275390625
2950000000.0 0.099365234375 0.712615966796875
3000000000.0 0.2239990234375 0.6744384765625
3050000000.0 0.338287353515625 0.614593505859375
3100000000.0 0.437652587890625 0.53662109375
3150000000.0 0.5201416015625 0.44281005859375
3200000000.0 0.582977294921875 0.337738037109375
3250000000.0 0.625091552734375 0.22467041015625
3300000000.0 0.646148681640625 0.10772705078125
3350000000.0 0.64581298828125 -0.009246826171875
3400000000.0 0.62469482421875 -0.1224365234375
3450000000.0 0.584808349609375 -0.229034423828125
3500000000.0 0.527618408203125 -0.324920654296875
3550000000.0 0.454254150390625 -0.40924072265625
3600000000.0 0.36932373046875 -0.4787139892578125
3650000000.0 0.27325439453125 -0.53082275390625
3700000000.0 0.170318603515625 -0.56646728515625
3750000000.0 0.06317138671875 -0.582061767578125
3800000000.0 -0.045440673828125 -0.578582763671875
3850000000.0 -0.151519775390625 -0.555328369140625
3900000000.0 -0.2523193359375 -0.512603759765625
3950000000.0 -0.3433685302734375 -0.452117919921875
4000000000.0 -0.4220428466796875 -0.3744354248046875
4050000000.0 -0.4841766357421875 -0.2830047607421875
4100000000.0 -0.52813720703125 -0.17974853515625
4150000000.0 -0.55078125 -0.06884765625
4200000000.0 -0.550750732421875 0.045257568359375
4250000000.0 -0.527099609375 0.158294677734375
4300000000.0 -0.4803314208984375 0.2650909423828125
4350000000.0 -0.4113311767578125 0.3607177734375
4400000000.0 -0.3223876953125 0.4406890869140625
4450000000.0 -0.217071533203125 0.500701904296875
4500000000.0 -0.10064697265625 0.536651611328125
4550000000.0 0.023040771484375 0.54620361328125
4600000000.0 0.14697265625 0.528717041015625
4650000000.0 0.26483154296875 0.4824676513671875
4700000000.0 0.3712310791015625 0.41070556640625
4750000000.0 0.45965576171875 0.314697265625
4800000000.0 0.52520751953125 0.2005615234375
4850000000.0 0.56256103515625 0.0732421875
4900000000.0 0.570220947265625 -0.061614990234375
4950000000.0 0.546966552734375 -0.195098876953125
5000000000.0 0.4923095703125 -0.3218536376953125
5050000000.0 0.4099578857421875 -0.4341278076171875
5100000000.0 0.303466796875 -0.525360107421875
5150000000.0 0.1778564453125 -0.59033203125
5200000000.0 0.03973388671875 -0.6260986328125
5250000000.0 -0.10333251953125 -0.629425048828125
5300000000.0 -0.244781494140625 -0.60089111328125
5350000000.0 -0.377166748046875 -0.541168212890625
5400000000.0 -0.494049072265625 -0.45391845703125
5450000000.0 -0.588714599609375 -0.344451904296875
5500000000.0 -0.657440185546875 -0.2158203125
5550000000.0 -0.69866943359375 -0.07598876953125
5600000000.0 -0.709075927734375 0.068115234375
5650000000.0 -0.6900634765625 0.2117919921875
5700000000.0 -0.642974853515625 0.34796142578125
5750000000.0 -0.5684814453125 0.471527099609375
5800000000.0 -0.47296142578125 0.578857421875
5850000000.0 -0.35870361328125 0.663787841796875
5900000000.0 -0.228668212890625 0.725738525390625
5950000000.0 -0.092529296875 0.762451171875
6000000000.0 0.047943115234375 0.77203369140625
6050000000.0 0.18780517578125 0.755859375
6100000000.0 0.32171630859375 0.714508056640625
6150000000.0 0.4443359375 0.65008544921875
6200000000.0 0.5528564453125 0.5653076171875
6250000000.0 0.645965576171875 0.460540771484375
6300000000.0 0.718353271484375 0.344390869140625
6350000000.0 0.767120361328125 0.21759033203125
6400000000.0 0.7947998046875 0.082427978515625
6450000000.0 0.79815673828125 -0.052642822265625
6500000000.0 0.7777099609375 -0.18646240234375
6550000000.0 0.73583984375 -0.315185546875
6600000000.0 0.67108154296875 -0.433197021484375
6650000000.0 0.587890625 -0.53948974609375
6700000000.0 0.4876708984375 -0.62908935546875
6750000000.0 0.373504638671875 -0.699554443359375
6800000000.0 0.250152587890625 -0.750030517578125
6850000000.0 0.1199951171875 -0.776611328125
6900000000.0 -0.012847900390625 -0.78155517578125
6950000000.0 -0.144012451171875 -0.763336181640625
7000000000.0 -0.26953125 -0.7222900390625
7050000000.0 -0.384796142578125 -0.6617431640625
7100000000.0 -0.48797607421875 -0.58038330078125
7150000000.0 -0.57537841796875 -0.484619140625
7200000000.0 -0.642913818359375 -0.37530517578125
7250000000.0 -0.690277099609375 -0.25445556640625
7300000000.0 -0.7161865234375 -0.128326416015625
7350000000.0 -0.717803955078125 -0.0010986328125
7400000000.0 -0.6959228515625 0.12579345703125
7450000000.0 -0.652130126953125 0.2435302734375
7500000000.0 -0.588134765625 0.350555419921875
7550000000.0 -0.505035400390625 0.44293212890625
7600000000.0 -0.405120849609375 0.5184326171875
7650000000.0 -0.295074462890625 0.5723876953125
7700000000.0 -0.177337646484375 0.60260009765625
7750000000.0 -0.05657958984375 0.611114501953125
7800000000.0 0.06097412109375 0.59454345703125
7850000000.0 0.172210693359375 0.555419921875
7900000000.0 0.2725830078125 0.4968414306640625
7950000000.0 0.35784912109375 0.41876220703125
8000000000.0 0.42596435546875 0.3255615234375
8050000000.0 0.4723968505859375 0.221649169921875
8100000000.0 0.495941162109375 0.10986328125
8150000000.0 0.495880126953125 -0.0032196044921875
8200000000.0 0.4705810546875 -0.113067626953125
8250000000.0 0.4220123291015625 -0.2157135009765625
8300000000.0 0.3524017333984375 -0.3044891357421875
8350000000.0 0.2651519775390625 -0.3748626708984375
8400000000.0 0.1640625 -0.423614501953125
8450000000.0 0.0547027587890625 -0.44866943359375
8500000000.0 -0.056976318359375 -0.4485626220703125
8550000000.0 -0.1657562255859375 -0.422515869140625
8600000000.0 -0.2666168212890625 -0.37371826171875
8650000000.0 -0.353240966796875 -0.304168701171875
8700000000.0 -0.421875 -0.2165069580078125
8750000000.0 -0.470550537109375 -0.115997314453125
8800000000.0 -0.4958648681640625 -0.0074005126953125
8850000000.0 -0.497650146484375 0.1045379638671875
8900000000.0 -0.476226806640625 0.2125396728515625
8950000000.0 -0.4319610595703125 0.31439208984375
9000000000.0 -0.36859130859375 0.4048004150390625
9050000000.0 -0.288238525390625 0.4802398681640625
9100000000.0 -0.195068359375 0.537933349609375
