!Created with skrf (http://scikit-rf.org).
# Hz S RI R 50.0 
!freq ReS11 ImS11
1000000000.0 -0.26055908203125 0.86492919921875
1100000000.0 -0.096282958984375 0.895477294921875
1200000000.0 0.064483642578125 0.8956298828125
1300000000.0 0.21844482421875 0.86859130859375
1400000000.0 0.36236572265625 0.81634521484375
1500000000.0 0.492950439453125 0.74212646484375
1600000000.0 0.607757568359375 0.648468017578125
1700000000.0 0.70458984375 0.53851318359375
1800000000.0 0.78155517578125 0.41552734375
1900000000.0 0.837249755859375 0.28271484375
2000000000.0 0.870880126953125 0.14398193359375
2100000000.0 0.88232421875 0.002044677734375
2200000000.0 0.870025634765625 -0.1422119140625
2300000000.0 0.8319091796875 -0.277435302734375
2400000000.0 0.7762451171875 -0.40447998046875
2500000000.0 0.701507568359375 -0.521453857421875
2600000000.0 0.609283447265625 -0.6248779296875
2700000000.0 0.502349853515625 -0.7125244140625
2800000000.0 0.382965087890625 -0.781768798828125
2900000000.0 0.25457763671875 -0.83148193359375
3000000000.0 0.119873046875 -0.860076904296875
3100000000.0 -0.017242431640625 -0.867095947265625
3200000000.0 -0.15350341796875 -0.85247802734375
3300000000.0 -0.285797119140625 -0.816650390625
3400000000.0 -0.410308837890625 -0.760498046875
3500000000.0 -0.52386474609375 -0.68560791015625
3600000000.0 -0.624267578125 -0.59490966796875
3700000000.0 -0.70953369140625 -0.48883056640625
3800000000.0 -0.776641845703125 -0.371307373046875
3900000000.0 -0.824432373046875 -0.244903564453125
4000000000.0 -0.852020263671875 -0.11309814453125
4100000000.0 -0.859771728515625 0.02044677734375
4200000000.0 -0.847076416015625 0.154998779296875
4300000000.0 -0.811614990234375 0.287384033203125
4400000000.0 -0.755401611328125 0.4105224609375
4500000000.0 -0.681671142578125 0.52264404296875
4600000000.0 -0.591522216796875 0.621795654296875
4700000000.0 -0.487548828125 0.70587158203125
4800000000.0 -0.37237548828125 0.772613525390625
4900000000.0 -0.248291015625 0.8204345703125
5000000000.0 -0.118499755859375 0.848724365234375
5100000000.0 0.01373291015625 0.85662841796875
5200000000.0 0.1453857421875 0.844207763671875
5300000000.0 0.273223876953125 0.811859130859375
5400000000.0 0.3944091796875 0.760345458984375
5500000000.0 0.506103515625 0.69091796875
5600000000.0 0.605743408203125 0.605010986328125
5700000000.0 0.691253662109375 0.505523681640625
5800000000.0 0.7601318359375 0.393951416015625
5900000000.0 0.81134033203125 0.273590087890625
6000000000.0 0.843353271484375 0.146881103515625
6100000000.0 0.85546875 0.017425537109375
6200000000.0 0.84814453125 -0.111724853515625
6300000000.0 0.822998046875 -0.238311767578125
6400000000.0 0.778839111328125 -0.361724853515625
6500000000.0 0.714447021484375 -0.477142333984375
6600000000.0 0.63311767578125 -0.5799560546875
6700000000.0 0.537078857421875 -0.668853759765625
6800000000.0 0.429046630859375 -0.741912841796875
6900000000.0 0.310943603515625 -0.797454833984375
7000000000.0 0.186126708984375 -0.83465576171875
7100000000.0 0.05755615234375 -0.852447509765625
7200000000.0 -0.072296142578125 -0.85052490234375
7300000000.0 -0.199859619140625 -0.829132080078125
7400000000.0 -0.322113037109375 -0.7890625
7500000000.0 -0.43682861328125 -0.731109619140625
7600000000.0 -0.541473388671875 -0.6568603515625
7700000000.0 -0.6336669921875 -0.56787109375
7800000000.0 -0.711090087890625 -0.4661865234375
7900000000.0 -0.77203369140625 -0.354217529296875
8000000000.0 -0.815521240234375 -0.234466552734375
8100000000.0 -0.840576171875 -0.110321044921875
8200000000.0 -0.8465576171875 0.0157470703125
8300000000.0 -0.833740234375 0.140655517578125
8400000000.0 -0.80377197265625 0.261199951171875
8500000000.0 -0.758392333984375 0.377044677734375
8600000000.0 -0.694671630859375 0.48736572265625
8700000000.0 -0.61358642578125 0.585693359375
8800000000.0 -0.5191650390625 0.669647216796875
8900000000.0 -0.413818359375 0.73809814453125
9000000000.0 -0.300048828125 0.790313720703125
9100000000.0 -0.180023193359375 0.82501220703125
9200000000.0 -0.05645751953125 0.84161376953125
9300000000.0 0.068023681640625 0.839752197265625
9400000000.0 0.190643310546875 0.81964111328125
9500000000.0 0.309112548828125 0.781646728515625
9600000000.0 0.42047119140625 0.7265625
9700000000.0 0.522125244140625 0.655853271484375
9800000000.0 0.612152099609375 0.570770263671875
9900000000.0 0.688995361328125 0.473968505859375
10000000000.0 0.750274658203125 0.366302490234375
10100000000.0 0.794891357421875 0.251129150390625
10200000000.0 0.82171630859375 0.130767822265625
10300000000.0 0.83056640625 0.008056640625
10400000000.0 0.82147216796875 -0.11376953125
10500000000.0 0.7952880859375 -0.23284912109375
10600000000.0 0.753143310546875 -0.347869873046875
10700000000.0 0.692474365234375 -0.45819091796875
10800000000.0 0.614898681640625 -0.55633544921875
10900000000.0 0.521697998046875 -0.6422119140625
11000000000.0 0.41900634765625 -0.712799072265625
11100000000.0 0.305816650390625 -0.766845703125
11200000000.0 0.185760498046875 -0.803131103515625
11300000000.0 0.061737060546875 -0.820709228515625
11400000000.0 -0.063873291015625 -0.8193359375
11500000000.0 -0.187408447265625 -0.798828125
11600000000.0 -0.306427001953125 -0.760009765625
11700000000.0 -0.41864013671875 -0.7030029296875
11800000000.0 -0.52044677734375 -0.6297607421875
11900000000.0 -0.610076904296875 -0.541717529296875
12000000000.0 -0.6846923828125 -0.441070556640625
12100000000.0 -0.74322509765625 -0.330169677734375
12200000000.0 -0.783935546875 -0.21173095703125
12300000000.0 -0.806060791015625 -0.088348388671875
12400000000.0 -0.808624267578125 0.03680419921875
12500000000.0 -0.79132080078125 0.160247802734375
12600000000.0 -0.75628662109375 0.279022216796875
12700000000.0 -0.70428466796875 0.390045166015625
12800000000.0 -0.637847900390625 0.4935302734375
12900000000.0 -0.554779052734375 0.587615966796875
13000000000.0 -0.45623779296875 0.66705322265625
13100000000.0 -0.346527099609375 0.729461669921875
13200000000.0 -0.228240966796875 0.773651123046875
13300000000.0 -0.105133056640625 0.79876708984375
13400000000.0 0.02056884765625 0.80450439453125
13500000000.0 0.145263671875 0.79058837890625
13600000000.0 0.266021728515625 0.7574462890625
13700000000.0 0.380584716796875 0.705780029296875
13800000000.0 0.485198974609375 0.6370849609375
13900000000.0 0.577728271484375 0.552886962890625
14000000000.0 0.6561279296875 0.45538330078125
14100000000.0 0.718231201171875 0.34686279296875
14200000000.0 0.7625732421875 0.230072021484375
14300000000.0 0.78790283203125 0.108154296875
14400000000.0 0.793792724609375 -0.016448974609375
14500000000.0 0.780120849609375 -0.140045166015625
14600000000.0 0.74713134765625 -0.259552001953125
14700000000.0 0.695770263671875 -0.3717041015625
14800000000.0 0.629547119140625 -0.473236083984375
14900000000.0 0.5511474609375 -0.565032958984375
15000000000.0 0.457855224609375 -0.646942138671875
15100000000.0 0.349884033203125 -0.712860107421875
15200000000.0 0.232421875 -0.759674072265625
15300000000.0 0.109710693359375 -0.78680419921875
15400000000.0 -0.01373291015625 -0.79364013671875
15500000000.0 -0.139404296875 -0.78228759765625
15600000000.0 -0.25994873046875 -0.750946044921875
15700000000.0 -0.373138427734375 -0.700775146484375
15800000000.0 -0.47821044921875 -0.633941650390625
15900000000.0 -0.57061767578125 -0.552642822265625
16000000000.0 -0.649444580078125 -0.45770263671875
16100000000.0 -0.712310791015625 -0.352020263671875
16200000000.0 -0.75799560546875 -0.23846435546875
16300000000.0 -0.7857666015625 -0.119537353515625
16400000000.0 -0.794952392578125 0.00177001953125
16500000000.0 -0.78558349609375 0.12261962890625
16600000000.0 -0.75750732421875 0.23980712890625
16700000000.0 -0.71246337890625 0.35076904296875
16800000000.0 -0.6514892578125 0.45233154296875
16900000000.0 -0.5777587890625 0.543365478515625
17000000000.0 -0.4930419921875 0.623809814453125
17100000000.0 -0.3961181640625 0.69207763671875
17200000000.0 -0.2884521484375 0.74517822265625
17300000000.0 -0.173553466796875 0.78057861328125
17400000000.0 -0.05487060546875 0.79779052734375
17500000000.0 0.064483642578125 0.796844482421875
17600000000.0 0.182037353515625 0.77825927734375
17700000000.0 0.295501708984375 0.742401123046875
17800000000.0 0.40203857421875 0.68988037109375
17900000000.0 0.499359130859375 0.622222900390625
18000000000.0 0.585357666015625 0.540557861328125
18100000000.0 0.658203125 0.447540283203125
18200000000.0 0.71636962890625 0.344085693359375
18300000000.0 0.758209228515625 0.2332763671875
18400000000.0 0.78302001953125 0.11761474609375
18500000000.0 0.7901611328125 -0.000701904296875
18600000000.0 0.779205322265625 -0.11865234375
18700000000.0 0.750732421875 -0.233428955078125
18800000000.0 0.705596923828125 -0.342376708984375
18900000000.0 0.644622802734375 -0.443115234375
19000000000.0 0.56976318359375 -0.53369140625
19100000000.0 0.482818603515625 -0.612640380859375
19200000000.0 0.384063720703125 -0.678436279296875
19300000000.0 0.275909423828125 -0.728729248046875
19400000000.0 0.160919189453125 -0.76153564453125
19500000000.0 0.0418701171875 -0.77581787109375
19600000000.0 -0.077911376953125 -0.77178955078125
19700000000.0 -0.19561767578125 -0.749053955078125
19800000000.0 -0.308013916015625 -0.708343505859375
19900000000.0 -0.41290283203125 -0.6510009765625
20000000000.0 -0.507415771484375 -0.577972412109375
20100000000.0 -0.5897216796875 -0.4915771484375
20200000000.0 -0.656951904296875 -0.393096923828125
20300000000.0 -0.708892822265625 -0.2862548828125
20400000000.0 -0.743133544921875 -0.173095703125
20500000000.0 -0.7593994140625 -0.0555419921875
20600000000.0 -0.755950927734375 0.061920166015625
20700000000.0 -0.737335205078125 0.178436279296875
20800000000.0 -0.698486328125 0.28839111328125
20900000000.0 -0.643218994140625 0.39288330078125
21000000000.0 -0.5728759765625 0.485870361328125
21100000000.0 -0.49053955078125 0.567596435546875
21200000000.0 -0.397979736328125 0.63372802734375
21300000000.0 -0.29620361328125 0.687347412109375
21400000000.0 -0.186065673828125 0.72528076171875
21500000000.0 -0.0703125 0.7454833984375
21600000000.0 0.047821044921875 0.74688720703125
21700000000.0 0.164886474609375 0.729095458984375
21800000000.0 0.2774658203125 0.692779541015625
21900000000.0 0.38299560546875 0.63885498046875
22000000000.0 0.478668212890625 0.56878662109375
22100000000.0 0.562164306640625 0.484649658203125
22200000000.0 0.63092041015625 0.38726806640625
22300000000.0 0.6834716796875 0.28033447265625
22400000000.0 0.71820068359375 0.16571044921875
22500000000.0 0.734100341796875 0.0472412109375
22600000000.0 0.730621337890625 -0.0728759765625
22700000000.0 0.7073974609375 -0.190826416015625
22800000000.0 0.665008544921875 -0.30328369140625
22900000000.0 0.60565185546875 -0.407745361328125
23000000000.0 0.529754638671875 -0.500579833984375
23100000000.0 0.440093994140625 -0.57965087890625
23200000000.0 0.33978271484375 -0.642974853515625
23300000000.0 0.2310791015625 -0.6903076171875
23400000000.0 0.115875244140625 -0.720703125
23500000000.0 -0.004425048828125 -0.73272705078125
23600000000.0 -0.126190185546875 -0.724517822265625
23700000000.0 -0.24530029296875 -0.6954345703125
23800000000.0 -0.357940673828125 -0.6473388671875
23900000000.0 -0.4608154296875 -0.5810546875
24000000000.0 -0.551177978515625 -0.499542236328125
24100000000.0 -0.626953125 -0.40496826171875
24200000000.0 -0.68670654296875 -0.299652099609375
24300000000.0 -0.728912353515625 -0.186248779296875
24400000000.0 -0.7518310546875 -0.067901611328125
24500000000.0 -0.755859375 0.0521240234375
24600000000.0 -0.741363525390625 0.170623779296875
24700000000.0 -0.708465576171875 0.285003662109375
24800000000.0 -0.657989501953125 0.392578125
24900000000.0 -0.591796875 0.490631103515625
25000000000.0 -0.511749267578125 0.577301025390625
25100000000.0 -0.41973876953125 0.64990234375
25200000000.0 -0.31854248046875 0.70745849609375
25300000000.0 -0.21044921875 0.749298095703125
25400000000.0 -0.098602294921875 0.774444580078125
25500000000.0 0.015106201171875 0.783843994140625
25600000000.0 0.12969970703125 0.776947021484375
25700000000.0 0.242340087890625 0.7532958984375
25800000000.0 0.351287841796875 0.71331787109375
25900000000.0 0.45257568359375 0.6571044921875
26000000000.0 0.545196533203125 0.586212158203125
26100000000.0 0.625335693359375 0.5030517578125
26200000000.0 0.69281005859375 0.40875244140625
26300000000.0 0.745880126953125 0.305633544921875
26400000000.0 0.783203125 0.19708251953125
26500000000.0 0.804412841796875 0.083465576171875
