!Created with skrf (http://scikit-rf.org).
# Hz S RI R 50.0 
!freq ReS11 ImS11
30000.0 0.44781494140625 -0.217041015625
31000.0 0.4430389404296875 -0.21185302734375
33000.0 0.43463134765625 -0.202117919921875
36000.0 0.424072265625 -0.18902587890625
41000.0 0.410797119140625 -0.1702728271484375
48500.0 0.3974151611328125 -0.1476287841796875
58000.0 0.38690185546875 -0.12603759765625
70000.0 0.3788604736328125 -0.1060638427734375
84000.0 0.373291015625 -0.0894927978515625
100000.0 0.3694610595703125 -0.0759429931640625
125000.0 0.366119384765625 -0.061248779296875
150000.0 0.364105224609375 -0.05133056640625
175000.0 0.363037109375 -0.044219970703125
200000.0 0.3621826171875 -0.038848876953125
225000.0 0.361663818359375 -0.034637451171875
250000.0 0.361328125 -0.031219482421875
275000.0 0.360992431640625 -0.028533935546875
300000.0 0.3607177734375 -0.02630615234375
325000.0 0.3606109619140625 -0.0243988037109375
350000.0 0.3604736328125 -0.0227508544921875
375000.0 0.3604278564453125 -0.021270751953125
400000.0 0.360260009765625 -0.02001953125
425000.0 0.360198974609375 -0.018951416015625
450000.0 0.3602142333984375 -0.0180206298828125
475000.0 0.3601226806640625 -0.017059326171875
500000.0 0.3600921630859375 -0.016326904296875
525000.0 0.360015869140625 -0.0156707763671875
550000.0 0.3599700927734375 -0.0150299072265625
575000.0 0.359954833984375 -0.0144500732421875
600000.0 0.3599853515625 -0.014007568359375
625000.0 0.35992431640625 -0.0134124755859375
650000.0 0.359954833984375 -0.01300048828125
675000.0 0.35986328125 -0.012542724609375
700000.0 0.3598785400390625 -0.012298583984375
725000.0 0.3598480224609375 -0.0118865966796875
750000.0 0.35986328125 -0.011627197265625
775000.0 0.35980224609375 -0.011260986328125
800000.0 0.3598175048828125 -0.0110626220703125
825000.0 0.3597412109375 -0.0107574462890625
850000.0 0.3598175048828125 -0.01055908203125
875000.0 0.3597869873046875 -0.0102996826171875
900000.0 0.35980224609375 -0.0101470947265625
925000.0 0.3597412109375 -0.010040283203125
950000.0 0.35980224609375 -0.009765625
975000.0 0.3596649169921875 -0.00958251953125
1000000.0 0.3597412109375 -0.0094451904296875
1030000.0 0.3597412109375 -0.009246826171875
1060000.0 0.359710693359375 -0.0091552734375
1110000.0 0.3596649169921875 -0.0089111328125
1170000.0 0.3596649169921875 -0.008636474609375
1250000.0 0.3596649169921875 -0.0082855224609375
1350000.0 0.3596649169921875 -0.0080718994140625
1500000.0 0.359649658203125 -0.0076751708984375
1700000.0 0.3595733642578125 -0.0074615478515625
1950000.0 0.359588623046875 -0.00726318359375
2250000.0 0.3596343994140625 -0.0073699951171875
2750000.0 0.3596038818359375 -0.007568359375
3500000.0 0.359619140625 -0.008148193359375
4500000.0 0.359527587890625 -0.00933837890625
6000000.0 0.359466552734375 -0.011505126953125
8000000.0 0.3593902587890625 -0.01470947265625
11000000.0 0.359222412109375 -0.0195770263671875
15500000.0 0.3586273193359375 -0.0272216796875
22000000.0 0.357757568359375 -0.0379638671875
30000000.0 0.3558502197265625 -0.051544189453125
40000000.0 0.3528289794921875 -0.068328857421875
52500000.0 0.34796142578125 -0.08892822265625
68000000.0 0.3399658203125 -0.11419677734375
86500000.0 0.328094482421875 -0.143341064453125
106000000.0 0.312835693359375 -0.1727752685546875
127500000.0 0.2929534912109375 -0.2030792236328125
152000000.0 0.2666778564453125 -0.2350921630859375
180000000.0 0.2324981689453125 -0.267303466796875
214000000.0 0.185821533203125 -0.2994842529296875
254000000.0 0.1252899169921875 -0.3271331787109375
300000000.0 0.05151763930916786 -0.34386029839515686
350000000.0 -0.030156362801790237 -0.343097984790802
400000000.0 -0.10856929421424866 -0.32325279712677
450000000.0 -0.17936822772026062 -0.2853597402572632
500000000.0 -0.2384469360113144 -0.232490673661232
550000000.0 -0.2826778292655945 -0.1675860583782196
600000000.0 -0.3101213872432709 -0.09511904418468475
650000000.0 -0.31925907731056213 -0.018949704244732857
700000000.0 -0.3105926513671875 0.0560455322265625
750000000.0 -0.284393310546875 0.1256103515625
800000000.0 -0.2429351806640625 0.18627166748046875
850000000.0 -0.18964385986328125 0.23458099365234375
900000000.0 -0.1273651123046875 0.267730712890625
950000000.0 -0.059814453125 0.2854156494140625
1000000000.0 0.0079345703125 0.2861175537109375
1050000000.0 0.0733795166015625 0.2708587646484375
1100000000.0 0.1315155029296875 0.24149322509765625
1150000000.0 0.179901123046875 0.198974609375
1200000000.0 0.21619415283203125 0.14788055419921875
1250000000.0 0.23781585693359375 0.09055328369140625
1300000000.0 0.24497222900390625 0.03078460693359375
1350000000.0 0.23748016357421875 -0.0272979736328125
1400000000.0 0.2159271240234375 -0.08052825927734375
1450000000.0 0.18291473388671875 -0.12595367431640625
1500000000.0 0.14046478271484375 -0.16022491455078125
1550000000.0 0.09159088134765625 -0.1826019287109375
1600000000.0 0.040374755859375 -0.19098663330078125
1650000000.0 -0.010833740234375 -0.18585968017578125
1700000000.0 -0.05725860595703125 -0.1681976318359375
1750000000.0 -0.09654998779296875 -0.13875579833984375
1800000000.0 -0.12613677978515625 -0.10077667236328125
1850000000.0 -0.14351654052734375 -0.05682373046875
1900000000.0 -0.14826202392578125 -0.01001739501953125
1950000000.0 -0.1401214599609375 0.0355377197265625
2000000000.0 -0.1190643310546875 0.07674026489257812
2050000000.0 -0.087890625 0.11066436767578125
2100000000.0 -0.04785919189453125 0.133697509765625
2150000000.0 -0.002166748046875 0.14550018310546875
2200000000.0 0.044586181640625 0.14360809326171875
2250000000.0 0.090576171875 0.1280517578125
2300000000.0 0.130828857421875 0.1003265380859375
2350000000.0 0.16263580322265625 0.06095123291015625
2400000000.0 0.1834869384765625 0.01342010498046875
2450000000.0 0.19051361083984375 -0.0394439697265625
2500000000.0 0.1834869384765625 -0.09410858154296875
2550000000.0 0.1614837646484375 -0.146453857421875
2600000000.0 0.12552642822265625 -0.19310760498046875
2650000000.0 0.07763671875 -0.2299957275390625
2700000000.0 0.0199737548828125 -0.2543792724609375
2750000000.0 -0.0435791015625 -0.2639617919921875
2800000000.0 -0.109283447265625 -0.2572479248046875
2850000000.0 -0.1732330322265625 -0.23418426513671875
2900000000.0 -0.23082733154296875 -0.1956634521484375
2950000000.0 -0.278717041015625 -0.142822265625
3000000000.0 -0.3139801025390625 -0.0792388916015625
3050000000.0 -0.333343505859375 -0.008270263671875
3100000000.0 -0.33612060546875 0.0666961669921875
3150000000.0 -0.3217010498046875 0.1410980224609375
3200000000.0 -0.290496826171875 0.211151123046875
3250000000.0 -0.2446136474609375 0.2729339599609375
3300000000.0 -0.1857757568359375 0.3234405517578125
3350000000.0 -0.1173553466796875 0.360198974609375
3400000000.0 -0.0425872802734375 0.3815460205078125
3450000000.0 0.0351104736328125 0.3862762451171875
3500000000.0 0.11199951171875 0.3756561279296875
3550000000.0 0.183990478515625 0.3485870361328125
3600000000.0 0.25006103515625 0.307342529296875
3650000000.0 0.3051605224609375 0.2548370361328125
3700000000.0 0.348907470703125 0.1915283203125
3750000000.0 0.3791656494140625 0.1222686767578125
3800000000.0 0.394439697265625 0.04815673828125
3850000000.0 0.3953094482421875 -0.0265045166015625
3900000000.0 0.38104248046875 -0.0996856689453125
3950000000.0 0.3533782958984375 -0.168182373046875
4000000000.0 0.31268310546875 -0.2293548583984375
4050000000.0 0.261993408203125 -0.280517578125
4100000000.0 0.202667236328125 -0.3196868896484375
4150000000.0 0.13739013671875 -0.3460693359375
4200000000.0 0.069183349609375 -0.35870361328125
4250000000.0 0.0012359619140625 -0.357177734375
4300000000.0 -0.0634918212890625 -0.341888427734375
4350000000.0 -0.1222381591796875 -0.3145294189453125
4400000000.0 -0.1722564697265625 -0.2764129638671875
4450000000.0 -0.21185302734375 -0.229400634765625
4500000000.0 -0.23992156982421875 -0.1771240234375
4550000000.0 -0.254638671875 -0.122650146484375
4600000000.0 -0.2569122314453125 -0.0679473876953125
4650000000.0 -0.24730682373046875 -0.01779937744140625
4700000000.0 -0.226806640625 0.026458740234375
4750000000.0 -0.19824981689453125 0.06154632568359375
4800000000.0 -0.16351318359375 0.08667755126953125
4850000000.0 -0.127227783203125 0.10073089599609375
4900000000.0 -0.0912017822265625 0.10268783569335938
4950000000.0 -0.05925750732421875 0.0952606201171875
5000000000.0 -0.034793853759765625 0.07846832275390625
5050000000.0 -0.018602371215820312 0.05545234680175781
5100000000.0 -0.01271820068359375 0.029754638671875
5150000000.0 -0.01780986785888672 0.004500389099121094
5200000000.0 -0.03295326232910156 -0.016986846923828125
5250000000.0 -0.05645561218261719 -0.031253814697265625
5300000000.0 -0.08629608154296875 -0.036167144775390625
5350000000.0 -0.11897659301757812 -0.02974700927734375
5400000000.0 -0.15169525146484375 -0.011749267578125
5450000000.0 -0.17937469482421875 0.01678466796875
5500000000.0 -0.1992034912109375 0.05644989013671875
5550000000.0 -0.2098846435546875 0.1032257080078125
5600000000.0 -0.2074432373046875 0.15399169921875
5650000000.0 -0.191680908203125 0.20642852783203125
5700000000.0 -0.162811279296875 0.2559661865234375
5750000000.0 -0.1203155517578125 0.2996978759765625
5800000000.0 -0.068206787109375 0.3351287841796875
5850000000.0 -0.00738525390625 0.357666015625
5900000000.0 0.0599365234375 0.3677520751953125
5950000000.0 0.1285247802734375 0.3635711669921875
6000000000.0 0.1961517333984375 0.344512939453125
6050000000.0 0.259552001953125 0.3114776611328125
6100000000.0 0.315765380859375 0.265838623046875
6150000000.0 0.361541748046875 0.2101593017578125
6200000000.0 0.394805908203125 0.1450653076171875
6250000000.0 0.4162750244140625 0.073638916015625
6300000000.0 0.423583984375 0.0021514892578125
6350000000.0 0.414459228515625 -0.06976318359375
6400000000.0 0.39349365234375 -0.1395721435546875
6450000000.0 0.35992431640625 -0.2009124755859375
6500000000.0 0.314605712890625 -0.2544097900390625
6550000000.0 0.261810302734375 -0.2975006103515625
6600000000.0 0.2023468017578125 -0.327545166015625
6650000000.0 0.1400299072265625 -0.345947265625
6700000000.0 0.0782318115234375 -0.350860595703125
6750000000.0 0.01861572265625 -0.3437957763671875
6800000000.0 -0.0346221923828125 -0.3265838623046875
6850000000.0 -0.080841064453125 -0.29925537109375
6900000000.0 -0.119110107421875 -0.2663116455078125
6950000000.0 -0.1473236083984375 -0.2292022705078125
7000000000.0 -0.1665496826171875 -0.1905059814453125
7050000000.0 -0.1757049560546875 -0.1528167724609375
7100000000.0 -0.17697906494140625 -0.1164703369140625
7150000000.0 -0.17173004150390625 -0.086181640625
7200000000.0 -0.1594390869140625 -0.06189727783203125
7250000000.0 -0.14484405517578125 -0.04331207275390625
7300000000.0 -0.1303253173828125 -0.032928466796875
7350000000.0 -0.1168670654296875 -0.029754638671875
7400000000.0 -0.10712051391601562 -0.031475067138671875
7450000000.0 -0.1031494140625 -0.036678314208984375
7500000000.0 -0.1057281494140625 -0.043613433837890625
7550000000.0 -0.11406326293945312 -0.049510955810546875
7600000000.0 -0.12819671630859375 -0.05075836181640625
7650000000.0 -0.1463165283203125 -0.046661376953125
7700000000.0 -0.16597747802734375 -0.03604888916015625
7750000000.0 -0.18441009521484375 -0.017608642578125
7800000000.0 -0.19997406005859375 0.008209228515625
7850000000.0 -0.2096405029296875 0.03961181640625
7900000000.0 -0.21192169189453125 0.07575225830078125
7950000000.0 -0.205902099609375 0.113311767578125
8000000000.0 -0.18976593017578125 0.15044403076171875
8050000000.0 -0.1649322509765625 0.18511962890625
8100000000.0 -0.13179779052734375 0.2134246826171875
8150000000.0 -0.0914154052734375 0.23435211181640625
8200000000.0 -0.0470123291015625 0.24603271484375
8250000000.0 -0.000762939453125 0.24602508544921875
8300000000.0 0.045379638671875 0.2352447509765625
8350000000.0 0.08759307861328125 0.2135772705078125
8400000000.0 0.12268829345703125 0.18255615234375
8450000000.0 0.14847564697265625 0.1434783935546875
8500000000.0 0.1634063720703125 0.09917449951171875
8550000000.0 0.16576385498046875 0.05355072021484375
8600000000.0 0.15467071533203125 0.008880615234375
8650000000.0 0.13214111328125 -0.031341552734375
8700000000.0 0.0994415283203125 -0.0623321533203125
8750000000.0 0.058261871337890625 -0.08237457275390625
8800000000.0 0.012706756591796875 -0.08949661254882812
8850000000.0 -0.034160614013671875 -0.08185577392578125
8900000000.0 -0.077972412109375 -0.06121826171875
8950000000.0 -0.113861083984375 -0.027252197265625
9000000000.0 -0.14014434814453125 0.01747894287109375
9050000000.0 -0.15293121337890625 0.06955718994140625
9100000000.0 -0.15093994140625 0.1253662109375
