!Created with skrf (http://scikit-rf.org).
# Hz S RI R 50.0 
!freq ReS11 ImS11
1000000000.0 -0.17486572265625 0.8775634765625
1100000000.0 -0.001220703125 0.89068603515625
1200000000.0 0.1640625 0.872344970703125
1300000000.0 0.31903076171875 0.825439453125
1400000000.0 0.45977783203125 0.7525634765625
1500000000.0 0.583343505859375 0.657989501953125
1600000000.0 0.6871337890625 0.54473876953125
1700000000.0 0.769012451171875 0.416717529296875
1800000000.0 0.8271484375 0.27789306640625
1900000000.0 0.860748291015625 0.13250732421875
2000000000.0 0.869171142578125 -0.015594482421875
2100000000.0 0.85321044921875 -0.161651611328125
2200000000.0 0.813690185546875 -0.304168701171875
2300000000.0 0.7467041015625 -0.43707275390625
2400000000.0 0.661590576171875 -0.5528564453125
2500000000.0 0.55963134765625 -0.653961181640625
2600000000.0 0.4423828125 -0.7369384765625
2700000000.0 0.313140869140625 -0.79925537109375
2800000000.0 0.176239013671875 -0.839141845703125
2900000000.0 0.03399658203125 -0.8555908203125
3000000000.0 -0.10845947265625 -0.8482666015625
3100000000.0 -0.24749755859375 -0.817413330078125
3200000000.0 -0.379180908203125 -0.76434326171875
3300000000.0 -0.499969482421875 -0.690277099609375
3400000000.0 -0.606689453125 -0.5975341796875
3500000000.0 -0.696380615234375 -0.4886474609375
3600000000.0 -0.766693115234375 -0.3670654296875
3700000000.0 -0.81610107421875 -0.235443115234375
3800000000.0 -0.843017578125 -0.098052978515625
3900000000.0 -0.84716796875 0.04156494140625
4000000000.0 -0.828338623046875 0.179443359375
4100000000.0 -0.787933349609375 0.311737060546875
4200000000.0 -0.726593017578125 0.43548583984375
4300000000.0 -0.647796630859375 0.548553466796875
4400000000.0 -0.548736572265625 0.649322509765625
4500000000.0 -0.4345703125 0.72955322265625
4600000000.0 -0.3099365234375 0.789642333984375
4700000000.0 -0.178009033203125 0.829132080078125
4800000000.0 -0.0421142578125 0.84686279296875
4900000000.0 0.09478759765625 0.84228515625
5000000000.0 0.228912353515625 0.816131591796875
5100000000.0 0.356842041015625 0.768890380859375
5200000000.0 0.475189208984375 0.70184326171875
5300000000.0 0.581268310546875 0.61712646484375
5400000000.0 0.672210693359375 0.51641845703125
5500000000.0 0.745758056640625 0.402923583984375
5600000000.0 0.8004150390625 0.27947998046875
5700000000.0 0.83453369140625 0.148406982421875
5800000000.0 0.847503662109375 0.014251708984375
5900000000.0 0.839019775390625 -0.120361328125
6000000000.0 0.80938720703125 -0.251495361328125
6100000000.0 0.759033203125 -0.375885009765625
6200000000.0 0.68988037109375 -0.490509033203125
6300000000.0 0.6038818359375 -0.59246826171875
6400000000.0 0.503692626953125 -0.679168701171875
6500000000.0 0.392578125 -0.750732421875
6600000000.0 0.268768310546875 -0.804962158203125
6700000000.0 0.13714599609375 -0.8370361328125
6800000000.0 0.002685546875 -0.846923828125
6900000000.0 -0.13092041015625 -0.835479736328125
7000000000.0 -0.260955810546875 -0.803314208984375
7100000000.0 -0.383514404296875 -0.75140380859375
7200000000.0 -0.4964599609375 -0.681060791015625
7300000000.0 -0.596343994140625 -0.594146728515625
7400000000.0 -0.681396484375 -0.492919921875
7500000000.0 -0.74932861328125 -0.380218505859375
7600000000.0 -0.79864501953125 -0.258392333984375
7700000000.0 -0.82867431640625 -0.13055419921875
7800000000.0 -0.837799072265625 0.0
7900000000.0 -0.82659912109375 0.130218505859375
8000000000.0 -0.79541015625 0.256805419921875
8100000000.0 -0.74505615234375 0.37664794921875
8200000000.0 -0.676727294921875 0.487030029296875
8300000000.0 -0.59210205078125 0.58514404296875
8400000000.0 -0.493621826171875 0.66851806640625
8500000000.0 -0.384429931640625 0.73529052734375
8600000000.0 -0.266937255859375 0.7840576171875
8700000000.0 -0.144805908203125 0.816162109375
8800000000.0 -0.01611328125 0.830535888671875
8900000000.0 0.114166259765625 0.822509765625
9000000000.0 0.24078369140625 0.793548583984375
9100000000.0 0.360565185546875 0.7452392578125
9200000000.0 0.47137451171875 0.67877197265625
9300000000.0 0.57037353515625 0.595855712890625
9400000000.0 0.6551513671875 0.49884033203125
9500000000.0 0.7237548828125 0.38970947265625
9600000000.0 0.774383544921875 0.27117919921875
9700000000.0 0.8056640625 0.146270751953125
9800000000.0 0.81732177734375 0.017730712890625
9900000000.0 0.80859375 -0.110931396484375
10000000000.0 0.779541015625 -0.236541748046875
10100000000.0 0.73101806640625 -0.35614013671875
10200000000.0 0.664031982421875 -0.46673583984375
10300000000.0 0.580078125 -0.565155029296875
10400000000.0 0.481536865234375 -0.649169921875
10500000000.0 0.3707275390625 -0.715606689453125
10600000000.0 0.251190185546875 -0.76422119140625
10700000000.0 0.125823974609375 -0.79296875
10800000000.0 -0.001708984375 -0.802490234375
10900000000.0 -0.13104248046875 -0.7911376953125
11000000000.0 -0.258819580078125 -0.76055908203125
11100000000.0 -0.37957763671875 -0.70751953125
11200000000.0 -0.489898681640625 -0.634918212890625
11300000000.0 -0.586517333984375 -0.545501708984375
11400000000.0 -0.667205810546875 -0.441162109375
11500000000.0 -0.7294921875 -0.32550048828125
11600000000.0 -0.771728515625 -0.20147705078125
11700000000.0 -0.793304443359375 -0.071685791015625
11800000000.0 -0.79345703125 0.059173583984375
11900000000.0 -0.77197265625 0.188751220703125
12000000000.0 -0.729766845703125 0.3123779296875
12100000000.0 -0.667816162109375 0.42730712890625
12200000000.0 -0.588134765625 0.53057861328125
12300000000.0 -0.492828369140625 0.61920166015625
12400000000.0 -0.384002685546875 0.6910400390625
12500000000.0 -0.26531982421875 0.743560791015625
12600000000.0 -0.139862060546875 0.77618408203125
12700000000.0 -0.01104736328125 0.7874755859375
12800000000.0 0.1170654296875 0.7774658203125
12900000000.0 0.2413330078125 0.746978759765625
13000000000.0 0.35772705078125 0.697265625
13100000000.0 0.465423583984375 0.631622314453125
13200000000.0 0.563507080078125 0.549102783203125
13300000000.0 0.6470947265625 0.44976806640625
13400000000.0 0.71246337890625 0.337066650390625
13500000000.0 0.758026123046875 0.215545654296875
13600000000.0 0.782470703125 0.08837890625
13700000000.0 0.78582763671875 -0.040802001953125
13800000000.0 0.76812744140625 -0.168426513671875
13900000000.0 0.72991943359375 -0.291046142578125
14000000000.0 0.67242431640625 -0.405853271484375
14100000000.0 0.5972900390625 -0.50958251953125
14200000000.0 0.5064697265625 -0.599639892578125
14300000000.0 0.40240478515625 -0.67315673828125
14400000000.0 0.287841796875 -0.729248046875
14500000000.0 0.166229248046875 -0.765899658203125
14600000000.0 0.040374755859375 -0.782501220703125
14700000000.0 -0.08636474609375 -0.778228759765625
14800000000.0 -0.210205078125 -0.7537841796875
14900000000.0 -0.32818603515625 -0.70989990234375
15000000000.0 -0.436614990234375 -0.64813232421875
15100000000.0 -0.53302001953125 -0.570068359375
15200000000.0 -0.61456298828125 -0.4793701171875
15300000000.0 -0.683197021484375 -0.379119873046875
15400000000.0 -0.73779296875 -0.270263671875
15500000000.0 -0.772979736328125 -0.14776611328125
15600000000.0 -0.78753662109375 -0.023223876953125
15700000000.0 -0.781646728515625 0.100616455078125
15800000000.0 -0.755706787109375 0.222320556640625
15900000000.0 -0.711944580078125 0.337982177734375
16000000000.0 -0.650299072265625 0.44482421875
16100000000.0 -0.572998046875 0.540191650390625
16200000000.0 -0.48193359375 0.6220703125
16300000000.0 -0.379547119140625 0.688751220703125
16400000000.0 -0.2684326171875 0.738311767578125
16500000000.0 -0.15142822265625 0.769989013671875
16600000000.0 -0.030975341796875 0.78302001953125
16700000000.0 0.08978271484375 0.776947021484375
16800000000.0 0.2081298828125 0.75250244140625
16900000000.0 0.320831298828125 0.709808349609375
17000000000.0 0.4254150390625 0.650115966796875
17100000000.0 0.51849365234375 0.574798583984375
17200000000.0 0.598388671875 0.4864501953125
17300000000.0 0.66326904296875 0.38818359375
17400000000.0 0.713653564453125 0.2822265625
17500000000.0 0.74908447265625 0.1690673828125
17600000000.0 0.76617431640625 0.049957275390625
17700000000.0 0.763641357421875 -0.07135009765625
17800000000.0 0.741241455078125 -0.190765380859375
17900000000.0 0.699920654296875 -0.30487060546875
18000000000.0 0.64080810546875 -0.4110107421875
18100000000.0 0.56549072265625 -0.506317138671875
18200000000.0 0.475860595703125 -0.58856201171875
18300000000.0 0.37408447265625 -0.65545654296875
18400000000.0 0.26275634765625 -0.704925537109375
18500000000.0 0.144989013671875 -0.735992431640625
18600000000.0 0.023834228515625 -0.74761962890625
18700000000.0 -0.097503662109375 -0.739471435546875
18800000000.0 -0.215789794921875 -0.71197509765625
18900000000.0 -0.32781982421875 -0.6656494140625
19000000000.0 -0.43072509765625 -0.6019287109375
19100000000.0 -0.52166748046875 -0.5224609375
19200000000.0 -0.598358154296875 -0.42987060546875
19300000000.0 -0.65838623046875 -0.326080322265625
19400000000.0 -0.700714111328125 -0.2152099609375
19500000000.0 -0.725494384765625 -0.09954833984375
19600000000.0 -0.732421875 0.018524169921875
19700000000.0 -0.720733642578125 0.13714599609375
19800000000.0 -0.689239501953125 0.25341796875
19900000000.0 -0.63897705078125 0.3629150390625
20000000000.0 -0.571136474609375 0.4625244140625
20100000000.0 -0.4879150390625 0.549591064453125
20200000000.0 -0.392120361328125 0.62152099609375
20300000000.0 -0.28594970703125 0.6763916015625
20400000000.0 -0.17169189453125 0.714111328125
20500000000.0 -0.0546875 0.73162841796875
20600000000.0 0.06341552734375 0.730682373046875
20700000000.0 0.18255615234375 0.710052490234375
20800000000.0 0.295562744140625 0.67156982421875
20900000000.0 0.399810791015625 0.61346435546875
21000000000.0 0.493560791015625 0.54095458984375
21100000000.0 0.574066162109375 0.4522705078125
21200000000.0 0.640716552734375 0.35418701171875
21300000000.0 0.68927001953125 0.245361328125
21400000000.0 0.71954345703125 0.13043212890625
21500000000.0 0.730865478515625 0.01214599609375
21600000000.0 0.722625732421875 -0.10552978515625
21700000000.0 0.69671630859375 -0.2200927734375
21800000000.0 0.65362548828125 -0.32940673828125
21900000000.0 0.59393310546875 -0.431915283203125
22000000000.0 0.516937255859375 -0.524169921875
22100000000.0 0.425689697265625 -0.6031494140625
22200000000.0 0.32244873046875 -0.66558837890625
22300000000.0 0.2103271484375 -0.710540771484375
22400000000.0 0.092376708984375 -0.73724365234375
22500000000.0 -0.027557373046875 -0.743743896484375
22600000000.0 -0.146759033203125 -0.73138427734375
22700000000.0 -0.262451171875 -0.699798583984375
22800000000.0 -0.37060546875 -0.650299072265625
22900000000.0 -0.470245361328125 -0.58538818359375
23000000000.0 -0.557525634765625 -0.505462646484375
23100000000.0 -0.631103515625 -0.4130859375
23200000000.0 -0.689178466796875 -0.310699462890625
23300000000.0 -0.730438232421875 -0.201080322265625
23400000000.0 -0.754119873046875 -0.086639404296875
23500000000.0 -0.75982666015625 0.029296875
23600000000.0 -0.747802734375 0.14398193359375
23700000000.0 -0.718780517578125 0.254638671875
23800000000.0 -0.674072265625 0.358184814453125
23900000000.0 -0.61602783203125 0.45355224609375
24000000000.0 -0.545440673828125 0.54010009765625
24100000000.0 -0.4635009765625 0.61639404296875
24200000000.0 -0.3699951171875 0.680419921875
24300000000.0 -0.2674560546875 0.72918701171875
24400000000.0 -0.158782958984375 0.761444091796875
24500000000.0 -0.04718017578125 0.777252197265625
24600000000.0 0.065521240234375 0.776580810546875
24700000000.0 0.176513671875 0.75927734375
24800000000.0 0.283660888671875 0.726287841796875
24900000000.0 0.385162353515625 0.677703857421875
25000000000.0 0.47796630859375 0.615142822265625
25100000000.0 0.560699462890625 0.5399169921875
25200000000.0 0.63116455078125 0.453948974609375
25300000000.0 0.688568115234375 0.358551025390625
25400000000.0 0.7315673828125 0.255950927734375
25500000000.0 0.758544921875 0.148681640625
25600000000.0 0.77001953125 0.038787841796875
25700000000.0 0.76495361328125 -0.07159423828125
25800000000.0 0.744598388671875 -0.17999267578125
25900000000.0 0.70849609375 -0.28387451171875
26000000000.0 0.65869140625 -0.381134033203125
26100000000.0 0.59576416015625 -0.4713134765625
26200000000.0 0.519989013671875 -0.551910400390625
26300000000.0 0.43194580078125 -0.621368408203125
26400000000.0 0.33416748046875 -0.676300048828125
26500000000.0 0.228973388671875 -0.715667724609375
